!Created with skrf (http://scikit-rf.org).
# Hz S RI R 50.0 
!freq ReS11 ImS11
25000000.0 0.08098491272658684 0.020191806550549182
26000000.0 0.07843972554929354 0.019455461501239932
27000000.0 0.077813863034877 0.018897049649112405
28000000.0 0.07806437388525163 0.015641312044483824
29000000.0 0.0799796687417764 0.019881874009447898
30000000.0 0.07609277114022511 0.019749789406104643
31000000.0 0.07568551892167555 0.01803083395452995
31990000.0 0.07613102266613114 0.019235836514793082
32990000.000000004 0.07834552324559244 0.017426176933742838
33990000.0 0.08061282690583348 0.012421904051615558
34990000.0 0.07827427540178698 0.019733771837477827
35990000.0 0.07737018551236716 0.019161516440494138
36990000.0 0.07929374118810013 0.016089261918041463
37990000.0 0.07840603668389388 0.013289541951703352
38990000.0 0.07855366290285615 0.012962220377455133
39990000.0 0.07789884853359438 0.017312556316710557
40990000.0 0.07770193530848271 0.01511780063500369
41990000.0 0.07961677082743167 0.010849520420681312
42990000.0 0.07887581579192296 0.023558878565529996
43980000.0 0.07677042665894282 0.02309066399595465
44980000.0 0.07697750883672358 0.023681373878525966
45980000.0 0.07819489934273818 0.021847120387416163
46980000.0 0.07880178687192395 0.019545263831299047
47980000.0 0.0792852065899963 0.016592428363885258
48980000.0 0.07932726452425563 0.015923154328572015
49980000.0 0.07968081061144865 0.01508465425048439
50980000.0 0.08020545417268221 0.013191648912464656
51980000.0 0.07930209728305022 0.011102843435861612
52980000.0 0.07981200673615348 0.009305152932367503
53980000.0 0.08257808694165311 0.014545884500267225
54980000.0 0.08383454473210465 0.020886758811778608
55970000.0 0.08613038118912024 0.02209850031597384
56970000.0 0.08732891113688623 0.023628566630113656
57970000.0 0.08679698604065865 0.02320847941477621
58970000.0 0.08489378162944351 0.025404767008439105
59970000.0 0.08432585843312401 0.024818449799972372
60970000.0 0.08468632972806893 0.020347022078933952
61970000.0 0.08475275478415772 0.019629047524171238
62970000.0 0.08534081931849734 0.02020517163781812
63970000.0 0.08558687410676463 0.02256509269413584
64970000.0 0.08273804324847556 0.02589681717113997
65970000.0 0.08016214093714671 0.028607529797641258
66970000.0 0.07922460683813598 0.025955824919095673
67960000.0 0.0823259342039597 0.018734216255570934
68960000.0 0.08438758727053243 0.010316644351724788
69960000.0 0.08406300656582211 0.006748782382610697
70960000.0 0.08445807739715051 0.006691492740080411
71960000.0 0.08409291475824832 0.009477119266475648
72960000.0 0.082446877702791 0.018640697889729347
73960000.0 0.08215348586707154 0.021874706761704953
74960000.0 0.08533376118396037 0.02023495997191287
75960000.0 0.0892802716146877 0.018619098029558256
76960000.0 0.09018808260379063 0.017857721239137325
77960000.0 0.0912572544716458 0.017375240544147384
78960000.0 0.09359895958389627 -0.016605104698109066
79960000.0 0.09682760627143192 -0.015509269730751256
80950000.0 0.09447720779221733 -0.013934331750941149
81950000.0 0.0903726506011736 -0.013022897892348971
82950000.0 0.08899167505691605 -0.013093538954312055
83950000.0 0.08714167166226548 -0.012992314120002953
84950000.0 0.08526282725347072 -0.012666557058325855
85950000.0 0.0844186044401233 -0.012300295514752459
86950000.0 0.08431717604611191 -0.012315575421413127
87950000.0 0.08508429043949442 -0.01251863694617513
88950000.0 0.08636655195377659 -0.013385684121198962
89950000.0 0.08737000131129162 -0.014793215234208448
90950000.0 0.0879651470023606 -0.016700704977032466
91950000.0 0.08806255356517766 -0.018830752457579075
92940000.0 0.08836801355153986 -0.021247909937842334
93940000.0 0.08769769612245293 -0.026527607506292007
94940000.0 0.0869509528050746 -0.029871730078664505
95940000.0 0.0853052415940504 -0.033430758617995306
96940000.0 0.08719068172307501 -0.025281735913411017
97940000.0 0.08241748278476663 -0.0336507330711742
98940000.0 0.07673369204102835 -0.04183656703805331
99940000.0 0.07446137478601923 -0.04342459031404895
100940000.0 0.0752565233819304 -0.04038602222317332
101940000.0 0.07920057109734328 -0.03143770208215312
102940000.0 0.08158983242339894 -0.022826347886494985
103940000.0 0.07779207820175536 -0.03429417742232171
104930000.0 0.05853539128304052 -0.062464816486806234
105930000.0 0.044453303225075576 -0.06950969298822213
106930000.0 0.044807672755582735 -0.06703409107058521
107930000.0 0.05138465208712335 -0.060334079242319344
108930000.0 0.05713426646856054 -0.049369204144962577
109930000.0 0.0617596207282485 -0.04100192661423536
110930000.0 0.06534264372848601 -0.03608595848652832
111930000.0 0.06843094401121409 -0.03353878466711645
112930000.0 0.07141149073304466 -0.031555791286005955
113930000.0 0.07818354276561355 -0.03238468376789402
114930000.0 0.08238176289750587 -0.03208618375223858
115930000.0 0.08011862846742783 -0.029018355343640827
116920000.0 0.0782125336290523 -0.024435386483210902
117920000.0 0.07911281477083343 -0.020976382748249624
118920000.0 0.0824068937001316 -0.018374824406247003
119920000.0 0.08662664689274793 -0.016618951787558775
120920000.0 0.09048502268023137 -0.015678273125595547
121920000.0 0.09390558634497248 -0.015461787160251383
122920000.0 0.09675065776670266 -0.01598227160159087
123920000.0 0.09885512635540626 -0.015834025831596342
124920000.0 0.09959014448999812 -0.016362059803168454
125920000.0 0.09840354894291221 -0.018433500378899296
126920000.0 0.0978771538869067 -0.016818371006458905
127920000.0 0.09719753607177022 -0.016736523514355537
128919999.99999999 0.09685657884966753 -0.01671262766402326
129910000.0 0.09683314921346967 -0.016847848625271382
130910000.0 0.09689122833122651 -0.017171733607257465
131910000.0 0.09738663204758147 -0.01762792536051724
132910000.0 0.09785149114927207 -0.01825938467724494
133910000.0 0.09839567663102793 -0.019090540147050188
134910000.0 0.09629173451222159 -0.019136146447692584
135910000.0 0.09336021352109046 -0.019028290335136522
136910000.0 0.09130426479080649 -0.01879190048593582
137910000.0 0.08975928760440718 -0.019406644903024132
138910000.0 0.08869820313920711 -0.019339335821221295
139910000.0 0.08796274928669613 -0.019291586675653335
140910000.0 0.0873767380058497 -0.01954702763424375
141900000.0 0.08701728958940608 -0.01973790304684449
142900000.0 0.08683732293739721 -0.02006394009931757
143900000.0 0.08663485882802667 -0.020479612805241416
144900000.0 0.08656725451180668 -0.021198886610643047
145900000.0 0.08660108472410709 -0.021913443300581387
146900000.0 0.08698051633019703 -0.022510888063795052
147900000.0 0.0867411359902441 -0.022610540660898737
148900000.0 0.08644205950433058 -0.022532581328590394
149900000.0 0.08622187158768829 -0.022154055265817804
150900000.0 0.08622573688650503 -0.02213900637300428
151900000.0 0.0861419401297333 -0.022053399526687445
152900000.0 0.08631771581264998 -0.02177763168233208
153890000.0 0.08657095309698434 -0.02118377745168582
154890000.0 0.0871377669751628 -0.020133358305372495
155890000.0 0.08805268173527354 -0.018876859319416208
156890000.0 0.08904165588868872 -0.01714672027155795
157890000.0 0.0903309644219835 -0.015326993566525825
158890000.0 0.09130240923239138 -0.013238219305658128
159890000.0 0.09232419491695917 -0.011221507059761045
160890000.0 0.09346777594341828 -0.00972490947909485
161890000.0 0.09466243140059664 -0.009815808184216556
162890000.0 0.09573401911486551 -0.012943747219583314
163890000.0 0.09607360041126528 -0.019075366816285987
164890000.0 0.09443005228596621 -0.029628788017005955
165890000.0 0.08977169133051396 -0.043532718835080794
166880000.0 0.08242384027009972 -0.057030416953701465
167880000.0 0.07451297636870027 -0.06720962015363245
168880000.0 0.06655875267596495 -0.07494057876080007
169880000.0 0.05788001821724105 -0.081264738138304
170880000.0 0.04904287078107833 -0.08622591190101608
171880000.0 0.04261819097978871 -0.0890706807809625
172880000.0 0.03988208308349034 -0.08995664517718556
173880000.0 0.04167812986553007 -0.08901371962124799
174880000.0 0.05028492230565178 -0.08564006915589614
175880000.0 0.06663756961113836 -0.07703712400200838
176880000.0 0.0848097245231614 -0.06121171692598089
177880000.0 0.09123230534759413 -0.05406215127640237
178870000.0 0.07643183469967242 -0.0726325816507844
179870000.0 0.046827809902981125 -0.09218299741230396
180870000.0 0.0237564659470548 -0.09642834221336866
181870000.0 0.010773905495551158 -0.09226975906570166
182870000.0 0.004404933008829736 -0.08490167608009529
183870000.0 0.001220114254627068 -0.0768148561342407
184870000.0 -0.00013591574999959044 -0.07079444796861988
185870000.0 0.0002809338281930009 -0.0699836357291377
186870000.0 0.0033939204170356993 -0.07473993122256625
187870000.0 0.010911600120003815 -0.08333134179557382
188870000.0 0.0264157599719987 -0.09886097868021916
189870000.0 0.04731312626746451 -0.11097774050961126
190860000.0 0.06744752758388325 -0.11028026643932444
191860000.0 0.0796300887925099 -0.10032420790064767
192860000.0 0.08458069963419564 -0.08758587843282452
193860000.0 0.08449672352630128 -0.07538971773312338
194860000.0 0.08156916627769023 -0.06469729710717877
195860000.0 0.07727912632022327 -0.055920205306360354
196860000.0 0.07283480360839245 -0.048850750108805914
197860000.0 0.0701827881949343 -0.04428204155894073
198860000.0 0.06743478316470312 -0.04040685611271472
199860000.0 0.06727909898659394 -0.03871845426015445
200860000.0 0.06847384628430898 -0.0380651077324203
201860000.0 0.07046618853864503 -0.03822817607480543
202860000.0 0.07284413918853981 -0.03874822541508255
203850000.0 0.07535511192786667 -0.03936121367997166
204850000.0 0.07763653721664118 -0.039916891027022755
205850000.0 0.07952372134651957 -0.04024003094486785
206850000.0 0.08074778932904134 -0.040101118190316754
207850000.0 0.08122638929528694 -0.03959920953297448
208850000.0 0.08108566977003395 -0.038936784018827525
209850000.0 0.08061628384989934 -0.03800390934463549
210850000.0 0.07981762160064612 -0.037304402532448905
211850000.0 0.07890933105262761 -0.03662849195689831
212850000.0 0.07830966393410166 -0.03578685439567489
213850000.0 0.07775182392137031 -0.035106294624589356
214850000.0 0.0776886653519326 -0.03355451352596917
215840000.0 0.07736171390080028 -0.03283809928970222
216840000.0 0.08192790241350549 -0.015940010891803347
217840000.0 0.08156629986556066 -0.015279453186688382
218840000.0 0.08112450640958781 -0.01505018427588706
219840000.0 0.08073077698117889 -0.015093771066051418
220840000.0 0.0804021012060491 -0.015308436099664209
221840000.0 0.07992675151008999 -0.01672668781261087
222840000.0 0.0799353551668278 -0.016219449940442096
223840000.0 0.07907675471495926 -0.01667850083865127
224840000.0 0.07867414189720238 -0.017225670733566636
225840000.0 0.09773854572942292 -0.022726490428914666
226840000.0 0.09715381790586866 -0.022697793721606265
227840000.0 0.09623062603229184 -0.023120693491333413
228830000.0 0.09521894548753095 -0.02344088744222901
229830000.0 0.09431916325284924 -0.02379636646507828
230830000.0 0.09299342572517484 -0.025335481832713426
231830000.0 0.09200150159286419 -0.02601645862450743
232830000.0 0.0912040243124908 -0.026410931927256128
233830000.0 0.09063455068097533 -0.02641756241963244
234830000.0 0.09030443153004276 -0.025604655360226155
235830000.0 0.08981273958033521 -0.02614401578467341
236830000.0 0.08933295882038889 -0.026631311669869442
237830000.0 0.08883749738074496 -0.02716034861329712
238830000.0 0.08833040671834279 -0.027714936429222358
239830000.0 0.08760426708361604 -0.028244761109778006
240820000.0 0.0869480542766702 -0.028890062698014134
241820000.0 0.08636273681562928 -0.029635950059188246
242820000.0 0.08593266778943093 -0.030548556719066262
243820000.0 0.08548760540173062 -0.031470255763533676
244820000.0 0.08495752102517566 -0.032289303446011795
245820000.0 0.08450649615334131 -0.03287975984334467
246820000.0 0.084098540203206 -0.03334791473297301
247820000.0 0.08378261024856318 -0.03357852081533301
248820000.0 0.08349603653146788 -0.03373458851200334
249820000.0 0.08332920835587085 -0.03387037092456597
250820000.0 0.08316822228718848 -0.03399113272718619
251820000.0 0.08312675154472592 -0.034364257149038256
252810000.0 0.08305946213158742 -0.0347956366366503
253810000.0 0.08313817322379673 -0.035409996704262654
254810000.0 0.08311889360662564 -0.03624466891945848
255810000.0 0.08352221202529411 -0.036628920396710084
256810000.0 0.08373339557884883 -0.03719298764592586
257810000.0 0.08406109534265545 -0.037496751741970286
258810000.0 0.0843847372310682 -0.03755285957979057
259810000.0 0.0848598366729464 -0.037268530087660026
260810000.0 0.08522409156762199 -0.036968090214985184
261810000.0 0.08562616478735952 -0.03657565667749677
262810000.0 0.0861134120044657 -0.03625181315231357
263810000.0 0.08615272971311674 -0.03587956329917433
264800000.0 0.087345555123868 -0.03610829319472589
265800000.0 0.0880967270703944 -0.03629286405433294
266800000.0 0.08900746489835859 -0.03639578178511478
267800000.0 0.09005597754275409 -0.036476426245977106
268800000.0 0.09111244160793643 -0.03625804418438775
269800000.0 0.09209645208218901 -0.0356109518413497
270800000.0 0.09280241505225005 -0.03471586367454736
271800000.0 0.0933342331121614 -0.033933991596580934
272800000.0 0.0934168707871439 -0.0337058319679276
273800000.0 0.09316159454151023 -0.03407386623344327
274800000.0 0.09279967226096916 -0.035047566047702164
275800000.0 0.09236457044624023 -0.03617868410947061
276800000.0 0.09204249657740596 -0.037599332046827694
277790000.0 0.0916369861600262 -0.03857711386400694
278790000.0 0.09119180344780829 -0.03933001195332148
279790000.0 0.09052504266054713 -0.03971887285490643
280790000.0 0.089536401817408 -0.03971446921149763
281790000.0 0.08832044032713007 -0.039415181870662175
282790000.0 0.0872225637737838 -0.03888872281635532
283790000.0 0.08650898680731052 -0.03860677591537611
284790000.0 0.08614589687196181 -0.038084702604916455
285790000.0 0.08607329719539888 -0.037711888232998494
286790000.0 0.08638348809506244 -0.03754268377340403
287790000.0 0.08644412302503873 -0.037946317025100436
288790000.0 0.08732107309878777 -0.03757026656944528
289780000.0 0.08793955390664533 -0.037799996824341445
290780000.0 0.08852252789808766 -0.03812382355341152
291780000.0 0.08894634534655861 -0.038545826688982925
292780000.0 0.08949501409243481 -0.038969271135491056
293780000.0 0.09008108675456522 -0.03931801875749381
294780000.0 0.09045546876389356 -0.03959424892428372
295780000.0 0.09099156913063663 -0.03979106939322799
296780000.0 0.09131335372272 -0.03991280391201242
297780000.0 0.09155175906440666 -0.03994090698066781
298780000.0 0.09176280766550068 -0.04003298028030551
299780000.0 0.09193929186697973 -0.04020551329751132
300780000.0 0.09201709350915914 -0.0406035595080733
301770000.0 0.09226420640509476 -0.04090513533750054
302770000.0 0.09243236124300959 -0.041385720454715426
303770000.0 0.09261393846207248 -0.041836257721711054
304770000.0 0.09256648862692975 -0.042224007982117506
305770000.0 0.09264646236542008 -0.042612611624534315
306770000.0 0.0926486679863769 -0.042888210667771424
307770000.0 0.09274040142645439 -0.04296999110388669
308770000.0 0.09264118117043059 -0.04290438025750402
309770000.0 0.09277786449998572 -0.04288904348467443
310770000.0 0.0928003084318259 -0.04284045923150203
311770000.0 0.09282272692193519 -0.042791863233374756
312770000.0 0.0930965011446886 -0.04276056315274877
313760000.0 0.09321121447851398 -0.04279355364622915
314760000.0 0.09341111062457128 -0.04292481221881685
315760000.0 0.09383474891803921 -0.04313932205993875
316760000.0 0.09406614780153592 -0.04320593582085292
317760000.0 0.0943461490435798 -0.043454244705723656
318760000.0 0.09447984667759031 -0.0437358858603672
319760000.0 0.09460562620429452 -0.04403494548455395
320760000.0 0.09463751944728796 -0.04425091272902462
321760000.0 0.09475480380004464 -0.044568027982477436
322760000.0 0.09479375217624254 -0.0447683252163214
323760000.0 0.09481672749319188 -0.045002014209321234
324760000.0 0.09483138344842093 -0.045252568018613985
325750000.0 0.09490897320674589 -0.04537096697909197
326750000.0 0.09507213112952417 -0.045591744376657424
327750000.0 0.09515773767053783 -0.04569409477539089
328750000.0 0.09528331797113118 -0.04571347497421217
329750000.0 0.09552694630806625 -0.045768843901451806
330750000.0 0.09591349423477308 -0.04581005097578625
331750000.0 0.09620660318364953 -0.04576458959268562
332750000.0 0.0966194670688953 -0.04575436516028135
333750000.0 0.09718544703909002 -0.04571128374945463
334750000.0 0.09763348296754396 -0.04563101074959581
335750000.0 0.09821177003422224 -0.045567552954118073
336750000.0 0.09877665678651958 -0.04553666249660555
337740000.0 0.09949029368083187 -0.04548721552671981
338740000.0 0.1001682027971893 -0.045522659015988697
339740000.0 0.10078166028333953 -0.04539882765206899
340740000.0 0.10144301806750797 -0.04548393584333219
341740000.0 0.10201467147930963 -0.045462533424765944
342740000.0 0.10269914969827874 -0.04550999887010819
343740000.0 0.10333194326709642 -0.045682574235248616
344740000.0 0.1038329173618713 -0.045839074914903626
345740000.0 0.10451265838314924 -0.04592136781728233
346740000.0 0.10526936125973349 -0.04616619891038759
347740000.0 0.1059175677859007 -0.04634030642738087
348740000.0 0.10661832081037406 -0.04640322509825068
349730000.0 0.10744687111990771 -0.04651867956198326
350730000.0 0.10836261187708839 -0.04644427477428229
351730000.0 0.10932483978374696 -0.046270588827859074
352730000.0 0.1104280385286238 -0.04612512655219723
353730000.0 0.11144292985102974 -0.046206754831281074
354730000.0 0.11290861470750138 -0.045572201793336015
355730000.0 0.11480189269244723 -0.044620949214748774
356730000.0 0.11678048426330413 -0.043430272792247114
357730000.0 0.11917749059131735 -0.041898892690902884
358730000.0 0.12176117474099482 -0.03975064851909101
359730000.0 0.12491557178430913 -0.03659887881168483
360730000.0 0.128163569255269 -0.033360223832694616
361730000.0 0.131475519081466 -0.029484648717432914
362720000.0 0.1385921101769889 -0.026437858963260282
363720000.0 0.14243211227756608 -0.02258451379126348
364720000.0 0.14573968584934152 -0.022067074051008564
365720000.0 0.14919687593226189 -0.022164532924786772
366720000.0 0.15228524858598438 -0.0228678840237021
367720000.0 0.15512854352128447 -0.024403449700981884
368720000.0 0.16263587945046967 -0.026720093633127835
369720000.0 0.1651599760660456 -0.029003286190579437
370720000.0 0.16679405230798108 -0.03193836479766171
371720000.0 0.16741380785734145 -0.03579873449171589
372720000.0 0.16748844804835358 -0.03820617799542146
373720000.0 0.17280713248782167 -0.04366274920151222
374710000.0 0.17146780322488778 -0.047133523726907565
375710000.0 0.16865738397987015 -0.049574601906647184
376710000.0 0.1688149546841511 -0.04605589443160115
377710000.0 0.16657692004049704 -0.04663449448534567
378710000.0 0.1639084810537207 -0.04662870771645505
379710000.0 0.16045873527079269 -0.04598049544747601
380710000.0 0.157371883344234 -0.04146193095787766
381710000.0 0.1458375773223345 -0.037119322686206206
382710000.0 0.14146146734018206 -0.035637672732513295
383710000.0 0.13708173769207085 -0.03407668324545507
384710000.0 0.1328418989697327 -0.03255535719007435
385710000.0 0.1248984291298929 -0.030331508092662884
386700000.0 0.12125104400832776 -0.029288916725295867
387700000.0 0.11830764048447442 -0.028184855590873963
388700000.0 0.11525897339110622 -0.02726730823619828
389700000.0 0.10847202710139094 -0.025501811944236886
390700000.0 0.10649363802098659 -0.022733071563840128
391700000.0 0.10443350098093647 -0.022274239571227233
392700000.0 0.10265311755051085 -0.02185704812126188
393700000.0 0.10089182948997198 -0.02150044009804397
394700000.0 0.0991311307547359 -0.021288069347693048
395700000.0 0.09750204692557339 -0.021151950710006907
396700000.0 0.09600609267642929 -0.021055615851905435
397700000.0 0.09452892129442 -0.02097386726791583
398690000.0 0.09305196819371783 -0.02098723282373933
