!Created with skrf (http://scikit-rf.org).
# Hz S RI R 50.0 
!freq ReS11 ImS11
25000000.0 -0.8513130665141283 0.12874899643581209
26000000.0 -0.8501639650102275 0.14226865605181654
27000000.0 -0.852021439432128 0.1370818757312337
28000000.0 -0.8510815871428274 0.14869058624039502
29000000.0 -0.8585374313715378 0.14659827407969686
30000000.0 -0.8528007952787076 0.15605671273677796
31000000.0 -0.8541511540643155 0.16510209275346066
31990000.0 -0.857860712761742 0.15620907284821145
32990000.000000004 -0.8566823671946424 0.15707608591688227
33990000.0 -0.8717114208111162 0.17023312382148043
34990000.0 -0.8706023358669286 0.15962836699427668
35990000.0 -0.8655967900551478 0.17484938538491715
36990000.0 -0.8668577729557412 0.1886886089866349
37990000.0 -0.8608264139505464 0.19699745066447283
38990000.0 -0.870689852657609 0.19973449313287758
39990000.0 -0.8660935770733125 0.18251454330700856
40990000.0 -0.8714836320155659 0.14880888319346847
41990000.0 -0.8857960089783751 0.16225439387524565
42990000.0 -0.8760706528283227 0.1637939131263369
43980000.0 -0.8800303554031499 0.15343161615841192
44980000.0 -0.888258009612402 0.16607251343315751
45980000.0 -0.8864023745358769 0.1809851335108744
46980000.0 -0.8854867934648437 0.19533506737506295
47980000.0 -0.8819103242248886 0.20636308864564418
48980000.0 -0.8735172445361743 0.2189262006973359
49980000.0 -0.8640827266329337 0.23460414515151598
50980000.0 -0.8443355172282978 0.24083397478606094
51980000.0 -0.830876874676248 0.23683829407065277
52980000.0 -0.8294651398591708 0.2381586774912791
53980000.0 -0.8272816609797086 0.25592823747900567
54980000.0 -0.8326591732471585 0.2622169163741548
55970000.0 -0.8403079164926728 0.24747544290608367
56970000.0 -0.8445465102062566 0.2437658244999402
57970000.0 -0.8480213325654661 0.24268574443855406
58970000.0 -0.8453369099435919 0.23729512795556895
59970000.0 -0.8333910163743772 0.22783365036040917
60970000.0 -0.8254035505810674 0.2194686513895233
61970000.0 -0.8305448065195848 0.2154122138089698
62970000.0 -0.8359423381793515 0.21028443864428076
63970000.0 -0.8126953582198162 0.19841434103974978
64970000.0 -0.8113758515758032 0.19569297787710427
65970000.0 -0.817317390416256 0.19984510929041882
66970000.0 -0.8189407443130593 0.20539982334581477
67960000.0 -0.8190481791455324 0.2049709988386345
68960000.0 -0.8231798443515217 0.196260933622325
69960000.0 -0.8235963786639284 0.20687311143443135
70960000.0 -0.8210478084383733 0.22800538084373997
71960000.0 -0.8174134279911927 0.25428295436106485
72960000.0 -0.8246731230954876 0.24396621713297226
73960000.0 -0.8297600658400603 0.2298009452504845
74960000.0 -0.8254469016116451 0.23778486652610156
75960000.0 -0.8208829677952626 0.24971634043125418
76960000.0 -0.812488965265554 0.26007976826068846
77960000.0 -0.8185262341345443 0.27339856974664317
78960000.0 -0.8218203780253871 0.28538423446852146
79960000.0 -0.8172279306300729 0.29534850103483273
80950000.0 -0.7981851908710331 0.30113154203934933
81950000.0 -0.7652767275087269 0.30330354093582385
82950000.0 -0.7633186551214558 0.3182079163455892
83950000.0 -0.7678313277429467 0.3345001503085982
84950000.0 -0.7708318892399791 0.3444869063654585
85950000.0 -0.7726893961365585 0.34985722102283395
86950000.0 -0.7755454175698206 0.35539992940809173
87950000.0 -0.7813578713397897 0.3569091019075493
88950000.0 -0.7954273595991683 0.3473483544437959
89950000.0 -0.8096434050250537 0.3396778264236084
90950000.0 -0.818271187366217 0.3480099020518046
91950000.0 -0.8210409532220564 0.35716917072991616
92940000.0 -0.8221192712568285 0.3598587848409536
93940000.0 -0.8304189592302663 0.33753588599812406
94940000.0 -0.8367356242788787 0.330105126044746
95940000.0 -0.8433973827780263 0.33870164496257466
96940000.0 -0.8307273317789936 0.3914420238038188
97940000.0 -0.8360720698513113 0.39253484944923467
98940000.0 -0.8311196267856936 0.3856165874168366
99940000.0 -0.8252912414227864 0.37819635355703557
100940000.0 -0.826475305708642 0.37560176259811273
101940000.0 -0.837972722488195 0.3808269036009918
102940000.0 -0.8446926178488193 0.39173493220534367
103940000.0 -0.8344641861388052 0.400883233974771
104930000.0 -0.8370992678473627 0.3978421009330274
105930000.0 -0.8386880002804877 0.37148025496749026
106930000.0 -0.8371445950952803 0.3565544707546008
107930000.0 -0.8336945204195532 0.3513093149308758
108930000.0 -0.8313080275634269 0.34893764410379075
109930000.0 -0.8330411517769306 0.35017825575663203
110930000.0 -0.8372343703097496 0.3536616444417117
111930000.0 -0.8404152032541764 0.35690821055122246
112930000.0 -0.8351571158658582 0.3558801860621406
113930000.0 -0.8201852293899486 0.3513624053706884
114930000.0 -0.8177023622073175 0.354529380397245
115930000.0 -0.8231775918992831 0.36770799333030074
116920000.0 -0.8299913389511696 0.37545325245690325
117920000.0 -0.8341887362989279 0.37893157528951776
118920000.0 -0.841459563260174 0.3730592681312095
119920000.0 -0.8408570341057626 0.3770144867656602
120920000.0 -0.7297524804945161 0.5609712393275589
121920000.0 -0.6755478278241844 0.6220690396461646
122920000.0 -0.6828459759456166 0.6124675622268282
123920000.0 -0.6913307974133063 0.6028738426844187
124920000.0 -0.7117763615455686 0.5869518288133435
125920000.0 -0.7333754303345763 0.5806412432897021
126920000.0 -0.7577629416606283 0.5848211815314412
127920000.0 -0.7931827791121271 0.6070923675541606
128919999.99999999 -0.8663451606285961 0.6514166236710125
129910000.0 -0.9243802116960859 0.6743168003424701
130910000.0 -0.833632716711796 0.5791740792450283
131910000.0 -0.7924057851632875 0.5290686173058646
132910000.0 -0.7698291551989139 0.5006973432823485
133910000.0 -0.7613920490948246 0.4886173714779021
134910000.0 -0.7638021797489558 0.48678308777171175
135910000.0 -0.7715547690432021 0.4902104207357682
136910000.0 -0.7778491589314371 0.49211594171521456
137910000.0 -0.792706883564131 0.49861469883435855
138910000.0 -0.8070872443045417 0.504324083282864
139910000.0 -0.8171444012191984 0.5090234286704953
140910000.0 -0.821593651978062 0.5123923086417589
141900000.0 -0.8194849466872983 0.5136634075934042
142900000.0 -0.8168838269864684 0.5136230998268789
143900000.0 -0.8114307059403457 0.5139568431414406
144900000.0 -0.8036997556271651 0.5137898164007211
145900000.0 -0.7943152784570432 0.5162286633948743
146900000.0 -0.7819632649546355 0.5250613909815187
147900000.0 -0.7694539148125976 0.5375774790554212
148900000.0 -0.7606140151577361 0.5481686207514177
149900000.0 -0.7561871027832118 0.5560844707347492
150900000.0 -0.753332742081759 0.5635648938129604
151900000.0 -0.7521402692402784 0.5723552211000235
152900000.0 -0.7510727159517239 0.5809138601882882
153890000.0 -0.7528973622185147 0.5892866903593301
154890000.0 -0.7567029167736146 0.5969648922057649
155890000.0 -0.7605823115998053 0.6028301118925118
156890000.0 -0.7594235598760554 0.6042892132315624
157890000.0 -0.7540147454732061 0.6021375582678818
158890000.0 -0.748221665588788 0.6005113744940317
159890000.0 -0.7436532560483385 0.6009102064692815
160890000.0 -0.736884256301469 0.60227418483049
161890000.0 -0.7283447681072394 0.6057579494084746
162890000.0 -0.7161403143688853 0.6101300352928626
163890000.0 -0.7029521929866972 0.6171239661547989
164890000.0 -0.6896598226515217 0.6255647087060525
165890000.0 -0.6787391775196443 0.6342646739862839
166880000.0 -0.6711749706102419 0.6407167166626305
167880000.0 -0.6692553276548622 0.6442638079021307
168880000.0 -0.6729358130607018 0.6435209920884857
169880000.0 -0.6822120586403898 0.638402753309972
170880000.0 -0.6940803509895703 0.6286917269328662
171880000.0 -0.70565115892202 0.6173159310619598
172880000.0 -0.7134855486041254 0.6065799148312653
173880000.0 -0.7146261406871762 0.5968847081344678
174880000.0 -0.7081934909499953 0.5879535640819396
175880000.0 -0.6949478781490739 0.5808605607079189
176880000.0 -0.6760800527267665 0.5759998957669412
177880000.0 -0.6541230107482698 0.5750657891396451
178870000.0 -0.6325343580644046 0.5753602083490558
179870000.0 -0.6228240675187318 0.5729167401397207
180870000.0 -0.6318154145519115 0.5585900067025235
181870000.0 -0.6565542152673488 0.5354725517578258
182870000.0 -0.67731715089256 0.5202874084209169
183870000.0 -0.692080901524559 0.5171777104197552
184870000.0 -0.701199867709891 0.519997841869602
185870000.0 -0.7056946375983095 0.5240950901894548
186870000.0 -0.7056825001785995 0.5258079561438755
187870000.0 -0.6977719341254688 0.5212407341871761
188870000.0 -0.6801429670472166 0.5084417602431065
189870000.0 -0.6634782650578324 0.49526237314024807
190860000.0 -0.6565534822213175 0.490271738843893
191860000.0 -0.6657403814086545 0.5002155041363955
192860000.0 -0.6778376783477282 0.5163739335474986
193860000.0 -0.6856376631551705 0.5322185252289086
194860000.0 -0.6909495501851587 0.546658792783596
195860000.0 -0.6947805897936928 0.5582187445528947
196860000.0 -0.6982498458218874 0.5670476628891903
197860000.0 -0.7024076630061034 0.5751187616165088
198860000.0 -0.7064694064651953 0.5834046316649467
199860000.0 -0.709913563478231 0.5925280122275427
200860000.0 -0.7131105113253797 0.6036926097157119
201860000.0 -0.7134352589510051 0.614952147181773
202860000.0 -0.7116929364109058 0.6252375218775429
203850000.0 -0.7069533045858981 0.6338676224110483
204850000.0 -0.7016667294593106 0.6429590979744161
205850000.0 -0.6948953277577713 0.6502715466315744
206850000.0 -0.6890700609826572 0.6580296203329625
207850000.0 -0.6861306331990162 0.6658363129600001
208850000.0 -0.6824124232191057 0.6743610727120891
209850000.0 -0.6791995352941792 0.6822886593191478
210850000.0 -0.6751872211121974 0.6909243932904523
211850000.0 -0.6713251882490274 0.6993180979976464
212850000.0 -0.667223699254391 0.7063097135387628
213850000.0 -0.663430010593844 0.7129369427546515
214850000.0 -0.658687077380907 0.7173212651192603
215840000.0 -0.6541686069121257 0.719930965507417
216840000.0 -0.5409350529511583 0.807124615393838
217840000.0 -0.5396088925149662 0.8066671182350332
218840000.0 -0.5387067135201277 0.805927036010693
219840000.0 -0.5385082844647336 0.8047178601775469
220840000.0 -0.5381102154543426 0.8023039927737315
221840000.0 -0.5372312736869189 0.7988819574580965
222840000.0 -0.5363511967052591 0.7954727937183067
223840000.0 -0.5349168999646715 0.7924500940768672
224840000.0 -0.5329347094846656 0.7898108163381158
225840000.0 -0.5096522903953361 0.7575854588852814
226840000.0 -0.5077443798094246 0.7576010928414859
227840000.0 -0.5054418854096789 0.7578781353145976
228830000.0 -0.5034560352366074 0.7591987803587795
229830000.0 -0.5014667344322425 0.7605142219395277
230830000.0 -0.4996069524728584 0.7617372647804527
231830000.0 -0.49889160646526887 0.7647145543391584
232830000.0 -0.4983013027068716 0.7676099881108357
233830000.0 -0.4968959052954235 0.7710315174789139
234830000.0 -0.4946926766595634 0.7762129667816644
235830000.0 -0.49150050839810533 0.7820021510596971
236830000.0 -0.48784830543799224 0.7880466689141419
237830000.0 -0.48483505275753624 0.7936642176596412
238830000.0 -0.48192014958986046 0.797943230252371
239830000.0 -0.47966878378969796 0.8030576773091384
240820000.0 -0.47258036916109686 0.8109973290286321
241820000.0 -0.4695204160683186 0.8165210290819176
242820000.0 -0.4662369209939689 0.8234002058851196
243820000.0 -0.46202277748901116 0.8307733907652803
244820000.0 -0.45662116803873853 0.8375024665821527
245820000.0 -0.4498893565742651 0.8436307298287823
246820000.0 -0.4429371883513877 0.8497877638910484
247820000.0 -0.4360605164921342 0.8558169507034646
248820000.0 -0.4294131853385467 0.8616461800743691
249820000.0 -0.42360692642020303 0.8669861863701516
250820000.0 -0.4194455950061424 0.8727126673515307
251820000.0 -0.4156927343076373 0.8782143399704672
252810000.0 -0.4123443884928897 0.8822644550129638
253810000.0 -0.4089685258749632 0.8863074573009704
254810000.0 -0.4041671784404598 0.8885072064396156
255810000.0 -0.3991985403197337 0.8907506325735873
256810000.0 -0.3932967796335103 0.892144851908137
257810000.0 -0.38725917460705894 0.8923382167364864
258810000.0 -0.3818574315668763 0.8922300703742223
259810000.0 -0.3775583456284525 0.8916342874588137
260810000.0 -0.3738934219813409 0.8907626001332083
261810000.0 -0.37148182522718276 0.8893636153485351
262810000.0 -0.3693482133725135 0.889051022527887
263810000.0 -0.3672176598876025 0.888734698436432
264800000.0 -0.3643147414443275 0.8887329161908634
265800000.0 -0.36037950454621825 0.8879522561414004
266800000.0 -0.3552724745012858 0.886449269962835
267800000.0 -0.35034408087665336 0.8848681403988354
268800000.0 -0.34614590810567936 0.8841686196126006
269800000.0 -0.34380965321924856 0.8827364934418472
270800000.0 -0.3438756763268023 0.8815408582592064
271800000.0 -0.3464897432246624 0.8805166797907359
272800000.0 -0.3512487021752998 0.8786291110416052
273800000.0 -0.3576326604807649 0.8772272651133219
274800000.0 -0.363595426015331 0.8747726337063125
275800000.0 -0.36893229083834994 0.8725352481576408
276800000.0 -0.3723335625649187 0.8687192883325493
277790000.0 -0.3740694664698911 0.8644235340924563
278790000.0 -0.37430211663929214 0.8596048175238608
279790000.0 -0.37422440720684824 0.8549384088966664
280790000.0 -0.3744205468767247 0.8513384596341385
281790000.0 -0.37548562339015484 0.848530670519285
282790000.0 -0.37740991025285103 0.8476765372637936
283790000.0 -0.3805089228186923 0.8474618029282079
284790000.0 -0.38420075247260116 0.8481460119329123
285790000.0 -0.38849850558201876 0.8497295331743212
286790000.0 -0.3931137856717229 0.8511662988780341
287790000.0 -0.3969955800305812 0.8517478557969754
288790000.0 -0.4008883338380139 0.8523171685649316
289780000.0 -0.403582692976275 0.8522453448320889
290780000.0 -0.4053873492542699 0.8525913647218942
291780000.0 -0.40598247147502337 0.8523081432139302
292780000.0 -0.40630121184809226 0.8533608902358174
293780000.0 -0.40510929960335557 0.8539273617282525
294780000.0 -0.4033199511228715 0.8547739471693904
295780000.0 -0.40123014242726357 0.8557568910275236
296780000.0 -0.3992874605255093 0.8566650498300867
297780000.0 -0.3982586926542751 0.8595456987421065
298780000.0 -0.3969142937088974 0.8613690411081666
299780000.0 -0.39647263101367736 0.8639785452078043
300780000.0 -0.3954190819723992 0.8656652647012615
301770000.0 -0.3955739073263715 0.8692135084077197
302770000.0 -0.39511808708725205 0.870629047715938
303770000.0 -0.3946602579570768 0.8720457390018331
304770000.0 -0.39420041641505754 0.8734635814856714
305770000.0 -0.3934331433256209 0.8750199617643547
306770000.0 -0.3917525015570921 0.8757736861067086
307770000.0 -0.389315952754655 0.8756515776348011
308770000.0 -0.3870221707398793 0.8766678024425059
309770000.0 -0.38472573611848043 0.8776780186672526
310770000.0 -0.38258001778256373 0.8786154599579238
311770000.0 -0.38043201525324133 0.8795476554763467
312770000.0 -0.37815344596120687 0.8793295522326453
313760000.0 -0.3768982289706399 0.881067716740533
314760000.0 -0.37535990244365103 0.8817241859680802
315760000.0 -0.3744052327357406 0.8833290969130743
316760000.0 -0.3730172413017106 0.8839161212721673
317760000.0 -0.37147394928457583 0.8845658125634811
318760000.0 -0.3697750212787709 0.8852773607132716
319760000.0 -0.36853858085371693 0.8857928009277901
320760000.0 -0.3669920202357336 0.8864346726276371
321760000.0 -0.365753966611736 0.8869462259127959
322760000.0 -0.36451519993166465 0.8874560500509024
323760000.0 -0.3631207380988074 0.8880275340977603
324760000.0 -0.3618804641949889 0.8885336805024279
325750000.0 -0.3604843128753469 0.8891010245882975
326750000.0 -0.3589319905881169 0.8897288339070637
327750000.0 -0.357223173413016 0.8904162937244049
328750000.0 -0.35566856051625206 0.8910384092806933
329750000.0 -0.35380159533198785 0.8917813649621255
330750000.0 -0.3519330782008321 0.8925204088541944
331750000.0 -0.35031018691871113 0.8943456826617664
332750000.0 -0.3524320796607597 0.8947009573953828
333750000.0 -0.3504918393897394 0.8966522703370278
334750000.0 -0.34814321080090316 0.8975667820015328
335750000.0 -0.3458765239542544 0.8996309337485335
336750000.0 -0.3437584739513488 0.9016307376384581
337740000.0 -0.3413169552803472 0.9037461130401305
338740000.0 -0.3392563414039545 0.9068997418364854
339740000.0 -0.33695173313353116 0.9089482054016871
340740000.0 -0.33463839530646194 0.9109921739013774
341740000.0 -0.3320931237610303 0.9119231073251092
342740000.0 -0.32992488397690767 0.9138984884650742
343740000.0 -0.3283879503000471 0.9156410407269471
344740000.0 -0.32652534895972074 0.917496408596584
345740000.0 -0.3247632816242979 0.918121600992763
346740000.0 -0.3239566378875065 0.921978678056092
347740000.0 -0.32218596995173415 0.9225989306235381
348740000.0 -0.3257793298383925 0.9225301618618722
349730000.0 -0.3242195308237082 0.9242739460508382
350730000.0 -0.32265428203733926 0.9260164645764317
351730000.0 -0.32577525073001545 0.9261206776850228
352730000.0 -0.3235600649835911 0.9280946952426933
353730000.0 -0.3205250603573544 0.9303448510870383
354730000.0 -0.3166643672292031 0.9328631441818345
355730000.0 -0.31265777946317114 0.9366081094345415
356730000.0 -0.3074481218148351 0.9395280056221533
357730000.0 -0.3039972838463456 0.9502584220966269
358730000.0 -0.30320159128856816 0.9529264373707343
359730000.0 -0.2965638463913633 0.9586352559056882
360730000.0 -0.28935240781439275 0.9644618031983915
361730000.0 -0.28188256637202286 0.9715118172499377
362720000.0 -0.2736042334437857 0.9799402482401578
363720000.0 -0.26437065511980246 0.9873339738570361
364720000.0 -0.2547336703212662 0.9971782600828928
365720000.0 -0.24386170802452647 1.0072342725009933
366720000.0 -0.233584034809853 1.0158071284938963
367720000.0 -0.22253451309501932 1.0318783475164564
368720000.0 -0.20978945856190057 1.043258714946519
369720000.0 -0.1962301595747847 1.0546535513701598
370720000.0 -0.18218630961054436 1.0647148752842017
371720000.0 -0.1682810269507626 1.0758486158077987
372720000.0 -0.15410403713862153 1.0868706850906302
373720000.0 -0.14102497445924436 1.0963172974753437
374710000.0 -0.12947010705051895 1.1054565020437015
375710000.0 -0.11928755366076672 1.1143610022055261
376710000.0 -0.11169548457484701 1.11904444335189
377710000.0 -0.10561257798779436 1.123543085238583
378710000.0 -0.10043241343741646 1.1253231265474284
379710000.0 -0.09611075307855721 1.1257004628026128
380710000.0 -0.0929668337040089 1.1259644650886613
381710000.0 -0.09088361529334267 1.1222263739233085
382710000.0 -0.08842299891731195 1.1185288485580673
383710000.0 -0.08607336750101349 1.113541597628925
384710000.0 -0.08480635546609057 1.107209427028811
385710000.0 -0.08374315585248425 1.1008981255196746
386700000.0 -0.08354830748254505 1.0932904988767693
387700000.0 -0.08401731424455253 1.0869421872133542
388700000.0 -0.08485532646152172 1.080600355594351
389700000.0 -0.08615495096166764 1.0755014429721999
390700000.0 -0.08618278800817541 1.0618772729103174
391700000.0 -0.08810176909133285 1.0580338059147674
392700000.0 -0.09034979497538063 1.051727839386044
393700000.0 -0.09230977258737293 1.0466888390476612
394700000.0 -0.0942493593095262 1.0416685771116634
395700000.0 -0.09537373195056374 1.037944832286807
396700000.0 -0.09619772078649631 1.0330591522973496
397700000.0 -0.09658473999775381 1.0294300691267106
398690000.0 -0.09607267213353128 1.0258974602112276
399690000.0 -0.09423578319826194 1.0177621708364928
400690000.0 -0.09235292402020229 1.0167538378674668
401690000.0 -0.08941025863004134 1.0158375714063586
402690000.0 -0.08576498161033445 1.014974277382137
403690000.0 -0.08204433885024574 1.015281804367949
404690000.0 -0.07779082903715637 1.0156165628502345
405690000.0 -0.07379818144211234 1.0170909468896556
406690000.0 -0.06864929824507414 1.0174514434013635
407690000.0 -0.06499447577817727 1.0188685624316927
408690000.0 -0.061330267711159944 1.02027389336554
409690000.0 -0.05819164241631033 1.0216370592357111
410680000.0 -0.05504512963290031 1.022991917053121
411680000.0 -0.05242708165587012 1.024311122136371
412680000.0 -0.04956646469172474 1.0244535320848802
413680000.0 -0.043307548303900274 1.0247372004973414
