!Created with skrf (http://scikit-rf.org).
# Hz S RI R 50.0 
!freq ReS11 ImS11 ReS21 ImS21 ReS12 ImS12 ReS22 ImS22
25000000.0 0.061585039071550746 0.03273155999139345 0.9010957808394875 -0.469880622620971 0.061585039071550746 0.03273155999139345 0.9010957808394875 -0.469880622620971
26000000.0 0.05757891118295969 0.03224573962309637 0.8910426765082009 -0.4837966998312156 0.05757891118295969 0.03224573962309637 0.8910426765082009 -0.4837966998312156
27000000.0 0.05721228609934371 0.03150475372547402 0.8938642940843068 -0.4981316811969135 0.05721228609934371 0.03150475372547402 0.8938642940843068 -0.4981316811969135
28000000.0 0.06074028928159309 0.02599568388002215 0.8912682573833939 -0.5003609822933521 0.06074028928159309 0.02599568388002215 0.8912682573833939 -0.5003609822933521
29000000.0 0.060244103245706886 0.03153503191869659 0.9050276327720224 -0.5218863098106962 0.060244103245706886 0.03153503191869659 0.9050276327720224 -0.5218863098106962
30000000.0 0.05667587509387938 0.031545387399545766 0.8893354315884647 -0.5343666379473875 0.05667587509387938 0.031545387399545766 0.8893354315884647 -0.5343666379473875
31000000.0 0.057933387567798686 0.03015821269464017 0.8746153376165485 -0.5424958399685474 0.057933387567798686 0.03015821269464017 0.8746153376165485 -0.5424958399685474
31990000.0 0.05655627290986132 0.030681993786952456 0.8667894466071316 -0.5571100541627543 0.05655627290986132 0.030681993786952456 0.8667894466071316 -0.5571100541627543
32990000.000000004 0.05917146370144669 0.030071357110943817 0.8695713589588622 -0.5768671814307614 0.05917146370144669 0.030071357110943817 0.8695713589588622 -0.5768671814307614
33990000.0 0.06588329006238 0.026351435984313044 0.8841250424173298 -0.605373050992062 0.06588329006238 0.026351435984313044 0.8841250424173298 -0.605373050992062
34990000.0 0.0621162944805423 0.035805062153706824 0.8823807086416481 -0.6252229010816335 0.0621162944805423 0.035805062153706824 0.8823807086416481 -0.6252229010816335
35990000.0 0.06071866374007164 0.033490854843037286 0.8559489149668866 -0.6363794000362053 0.06071866374007164 0.033490854843037286 0.8559489149668866 -0.6363794000362053
36990000.0 0.06096293411065406 0.02958886265115197 0.8297406004048857 -0.6387556122516067 0.06096293411065406 0.02958886265115197 0.8297406004048857 -0.6387556122516067
37990000.0 0.06320073974301382 0.028337271962959383 0.8124315228201067 -0.6529782878053972 0.06320073974301382 0.028337271962959383 0.8124315228201067 -0.6529782878053972
38990000.0 0.06512146740892273 0.029993849341704563 0.7914722113747021 -0.6653018997750546 0.06512146740892273 0.029993849341704563 0.7914722113747021 -0.6653018997750546
39990000.0 0.06468845786801976 0.03167654981128851 0.7700920668173913 -0.6863681423618339 0.06468845786801976 0.03167654981128851 0.7700920668173913 -0.6863681423618339
40990000.0 0.06692360975762074 0.02795358869477682 0.745704511429318 -0.7041922006506356 0.06692360975762074 0.02795358869477682 0.745704511429318 -0.7041922006506356
41990000.0 0.06856832988958457 0.02488908854942354 0.7265987768467462 -0.715523852372422 0.06856832988958457 0.02488908854942354 0.7265987768467462 -0.715523852372422
42990000.0 0.06330157913249698 0.03313548066780204 0.7203559213472932 -0.7317610559268314 0.06330157913249698 0.03313548066780204 0.7203559213472932 -0.7317610559268314
43980000.0 0.06732104139431667 0.03419824715379684 0.709073427793569 -0.7508734881638425 0.06732104139431667 0.03419824715379684 0.709073427793569 -0.7508734881638425
44980000.0 0.06668281263367316 0.03598009340365465 0.7201596142843949 -0.726979145508763 0.06668281263367316 0.03598009340365465 0.7201596142843949 -0.726979145508763
45980000.0 0.06739017550078065 0.03539563829404398 0.7133058684103563 -0.7271335186259535 0.06739017550078065 0.03539563829404398 0.7133058684103563 -0.7271335186259535
46980000.0 0.0694861957921187 0.03193069738956791 0.7019597387080241 -0.739711221397933 0.0694861957921187 0.03193069738956791 0.7019597387080241 -0.739711221397933
47980000.0 0.07240978466500524 0.02943201205869713 0.6886878544656644 -0.7552676733001882 0.07240978466500524 0.02943201205869713 0.6886878544656644 -0.7552676733001882
48980000.0 0.07206565084152695 0.0286055823856097 0.6779797143657436 -0.761750400549684 0.07206565084152695 0.0286055823856097 0.6779797143657436 -0.761750400549684
49980000.0 0.0699839545863303 0.02765210644491648 0.661654858443655 -0.7651835339176223 0.0699839545863303 0.02765210644491648 0.661654858443655 -0.7651835339176223
50980000.0 0.0699608440859358 0.02675742990475885 0.6399755989654528 -0.7683952321096286 0.0699608440859358 0.02675742990475885 0.6399755989654528 -0.7683952321096286
51980000.0 0.0772015286378572 0.028297592298602604 0.6143131446037409 -0.7817751946845091 0.0772015286378572 0.028297592298602604 0.6143131446037409 -0.7817751946845091
52980000.0 0.0782998540105171 0.02834415146194012 0.5898730229725543 -0.800376730937475 0.0782998540105171 0.02834415146194012 0.5898730229725543 -0.800376730937475
53980000.0 0.08334862767044723 0.030980518805394645 0.5768600932024036 -0.8168429670815035 0.08334862767044723 0.030980518805394645 0.5768600932024036 -0.8168429670815035
54980000.0 0.08662985368519466 0.030473201802969797 0.5748138673948567 -0.8267408321761104 0.08662985368519466 0.030473201802969797 0.5748138673948567 -0.8267408321761104
55970000.0 0.08671022295665563 0.03181726535991059 0.5581267780354924 -0.8422790412609116 0.08671022295665563 0.03181726535991059 0.5581267780354924 -0.8422790412609116
56970000.0 0.08577462817272757 0.03482946474084873 0.5394706348438423 -0.8543482415554338 0.08577462817272757 0.03482946474084873 0.5394706348438423 -0.8543482415554338
57970000.0 0.08678754802348602 0.03547036335280414 0.5196680237706194 -0.8597662654157952 0.08678754802348602 0.03547036335280414 0.5196680237706194 -0.8597662654157952
58970000.0 0.08747391385545994 0.034633372534535654 0.5019741206580917 -0.8715511668567912 0.08747391385545994 0.034633372534535654 0.5019741206580917 -0.8715511668567912
59970000.0 0.0881698325326542 0.032195797260571944 0.4868088845767182 -0.8880704004461466 0.0881698325326542 0.032195797260571944 0.4868088845767182 -0.8880704004461466
60970000.0 0.08846263427280664 0.029393309279131478 0.4686890657461717 -0.9030352852072416 0.08846263427280664 0.029393309279131478 0.4686890657461717 -0.9030352852072416
61970000.0 0.08722068284168652 0.026649393907866643 0.4515394947170015 -0.9013105888545915 0.08722068284168652 0.026649393907866643 0.4515394947170015 -0.9013105888545915
62970000.0 0.09214828321639056 0.02590171425778376 0.4381173725598843 -0.8899799287750018 0.09214828321639056 0.02590171425778376 0.4381173725598843 -0.8899799287750018
63970000.0 0.09701115195953366 0.026102974088235815 0.443436422505884 -0.8886189424192992 0.09701115195953366 0.026102974088235815 0.443436422505884 -0.8886189424192992
64970000.0 0.09400832890511338 0.0249961139004837 0.45810865468215795 -0.8811446794576439 0.09400832890511338 0.0249961139004837 0.45810865468215795 -0.8811446794576439
65970000.0 0.09435064135440105 0.024576501227310765 0.47839736852389025 -0.8676888271779242 0.09435064135440105 0.024576501227310765 0.47839736852389025 -0.8676888271779242
66970000.0 0.09717099899024015 0.022112382039212442 0.4917825356686393 -0.8614876919448456 0.09717099899024015 0.022112382039212442 0.4917825356686393 -0.8614876919448456
67960000.0 0.10093268181358692 0.015354739849644554 0.4795099546583701 -0.865771441427948 0.10093268181358692 0.015354739849644554 0.4795099546583701 -0.865771441427948
68960000.0 0.10340623854526784 0.009829397347622486 0.443258522212784 -0.8797907988443777 0.10340623854526784 0.009829397347622486 0.443258522212784 -0.8797907988443777
69960000.0 0.10470969493087219 0.00875591151762106 0.3991985403197336 -0.8907506325735873 0.10470969493087219 0.00875591151762106 0.3991985403197336 -0.8907506325735873
70960000.0 0.10550766271984695 0.00939774709250331 0.37179224905561703 -0.8892338895488083 0.10550766271984695 0.00939774709250331 0.37179224905561703 -0.8892338895488083
71960000.0 0.10627215370562536 0.007505831299136232 0.36224732647897395 -0.8788778915077663 0.10627215370562536 0.007505831299136232 0.36224732647897395 -0.8788778915077663
72960000.0 0.10553753704423237 0.013632017715395175 0.32573405675871203 -0.8791585983759679 0.10553753704423237 0.013632017715395175 0.32573405675871203 -0.8791585983759679
73960000.0 0.10420250571643723 0.018336211088645842 0.291716206349725 -0.8831022442099318 0.10420250571643723 0.018336211088645842 0.291716206349725 -0.8831022442099318
74960000.0 0.10448348525732801 0.016660736572949978 0.2785943051377117 -0.8884520746236413 0.10448348525732801 0.016660736572949978 0.2785943051377117 -0.8884520746236413
75960000.0 0.1084317217081662 0.01541281151823337 0.27155891384329867 -0.9144227845720487 0.1084317217081662 0.01541281151823337 0.27155891384329867 -0.9144227845720487
76960000.0 0.11224528378255745 0.0149767184367389 0.2629957945064606 -0.960033935319311 0.11224528378255745 0.0149767184367389 0.2629957945064606 -0.960033935319311
77960000.0 0.11535156078390481 0.014654113984130222 0.24787676575004255 -1.0001263251209933 0.11535156078390481 0.014654113984130222 0.24787676575004255 -1.0001263251209933
78960000.0 0.1172997473033779 -0.0142987024978865 0.22422215138933818 -1.0105660453745433 0.1172997473033779 -0.0142987024978865 0.22422215138933818 -1.0105660453745433
79960000.0 0.121266905221547 -0.01370943015217964 0.19980972294205573 -1.0035958462791277 0.121266905221547 -0.01370943015217964 0.19980972294205573 -1.0035958462791277
80950000.0 0.12176140496912403 -0.013077026228035117 0.18197965571842503 -1.0093786597347036 0.12176140496912403 -0.013077026228035117 0.18197965571842503 -1.0093786597347036
81950000.0 0.11376525658292463 -0.012218249654324378 0.16870614269164488 -1.0358945636306436 0.11376525658292463 -0.012218249654324378 0.16870614269164488 -1.0358945636306436
82950000.0 0.11191656429861475 -0.012296393543331759 0.15042830825551962 -1.0374859823187508 0.11191656429861475 -0.012296393543331759 0.15042830825551962 -1.0374859823187508
83950000.0 0.10870747439835958 -0.01225113558011795 0.13003679126932158 -1.0293471943645711 0.10870747439835958 -0.01225113558011795 0.13003679126932158 -1.0293471943645711
84950000.0 0.10583723843241102 -0.012189631566381814 0.10881195133208703 -1.0198636345465635 0.10583723843241102 -0.012189631566381814 0.10881195133208703 -1.0198636345465635
85950000.0 0.10492266787164291 -0.01158357037420718 0.08655097811063146 -1.0137312734977828 0.10492266787164291 -0.01158357037420718 0.08655097811063146 -1.0137312734977828
86950000.0 0.10521419772335543 -0.011151297328211797 0.06397251385269606 -1.008388318644681 0.10521419772335543 -0.011151297328211797 0.06397251385269606 -1.008388318644681
87950000.0 0.10645398140985238 -0.011076066831062324 0.041050973227876736 -1.0003099797937356 0.10645398140985238 -0.011076066831062324 0.041050973227876736 -1.0003099797937356
88950000.0 0.10831618314824334 -0.011193388667771706 0.017119495091591587 -0.99068403939288 0.10831618314824334 -0.011193388667771706 0.017119495091591587 -0.99068403939288
89950000.0 0.10949081448636153 -0.012068556159000153 -0.005832486413144997 -0.9828615676136969 0.10949081448636153 -0.012068556159000153 -0.005832486413144997 -0.9828615676136969
90950000.0 0.1101671977736434 -0.013936888712766285 -0.029057788986056123 -0.9790588728034566 0.1101671977736434 -0.013936888712766285 -0.029057788986056123 -0.9790588728034566
91950000.0 0.1106909715091937 -0.01670091541697725 -0.052969655741377214 -0.9780566686478719 0.1106909715091937 -0.01670091541697725 -0.052969655741377214 -0.9780566686478719
92940000.0 0.1109138088824942 -0.02009646862667574 -0.07489078793985648 -0.9777543905630964 0.1109138088824942 -0.02009646862667574 -0.07489078793985648 -0.9777543905630964
93940000.0 0.11121025569944977 -0.023963251902921354 -0.0925391221982035 -0.9807887020700613 0.11121025569944977 -0.023963251902921354 -0.0925391221982035 -0.9807887020700613
94940000.0 0.11073641847922161 -0.027732893951365616 -0.10201321504844223 -0.9821318351794057 0.11073641847922161 -0.027732893951365616 -0.10201321504844223 -0.9821318351794057
95940000.0 0.10965700624327292 -0.030286950923832955 -0.10668867877191666 -0.9804920956330387 0.10965700624327292 -0.030286950923832955 -0.10668867877191666 -0.9804920956330387
96940000.0 0.11128646342158659 -0.015283926361461737 -0.03506838551851233 -0.98452027687733 0.11128646342158659 -0.015283926361461737 -0.03506838551851233 -0.98452027687733
97940000.0 0.10728292233464914 -0.024985257252776408 -0.059934278112720056 -0.9799167852073346 0.10728292233464914 -0.024985257252776408 -0.059934278112720056 -0.9799167852073346
98940000.0 0.10219823455089593 -0.032203370470323324 -0.0809067263644406 -0.9716269321531136 0.10219823455089593 -0.032203370470323324 -0.0809067263644406 -0.9716269321531136
99940000.0 0.09804626364745543 -0.036074001015429645 -0.09790592126363214 -0.962195460771392 0.09804626364745543 -0.036074001015429645 -0.09790592126363214 -0.962195460771392
100940000.0 0.09641643682836709 -0.03497841402284735 -0.11559182049213602 -0.9524117296571295 0.09641643682836709 -0.03497841402284735 -0.11559182049213602 -0.9524117296571295
101940000.0 0.0980131021207995 -0.027292003947148435 -0.12981872273252507 -0.9428041684922144 0.0980131021207995 -0.027292003947148435 -0.12981872273252507 -0.9428041684922144
102940000.0 0.10064035749302894 -0.017166616952922875 -0.1395302922885005 -0.9380985444311918 0.10064035749302894 -0.017166616952922875 -0.1395302922885005 -0.9380985444311918
103940000.0 0.10097032999219473 -0.02170146708335363 -0.1470572523694721 -0.9369481021142936 0.10097032999219473 -0.02170146708335363 -0.1470572523694721 -0.9369481021142936
104930000.0 0.08983852797220347 -0.05308803843731612 -0.16094046508861184 -0.9346634411525341 0.08983852797220347 -0.05308803843731612 -0.16094046508861184 -0.9346634411525341
105930000.0 0.07970852771381386 -0.07327007755678629 -0.2027888482538724 -1.03841926334743 0.07970852771381386 -0.07327007755678629 -0.2027888482538724 -1.03841926334743
106930000.0 0.0751833747251197 -0.07427040219864064 -0.22477379746113138 -1.0326373941299354 0.0751833747251197 -0.07427040219864064 -0.22477379746113138 -1.0326373941299354
107930000.0 0.07372282869363782 -0.0707965163098901 -0.24353433260431923 -1.024629613131189 0.07372282869363782 -0.0707965163098901 -0.24353433260431923 -1.024629613131189
108930000.0 0.0745418184181154 -0.06319369562808518 -0.25887275949414146 -1.0133811033683142 0.0745418184181154 -0.06319369562808518 -0.25887275949414146 -1.0133811033683142
109930000.0 0.07797309201645954 -0.05303025645772623 -0.27227470123832725 -0.9986920407729232 0.07797309201645954 -0.05303025645772623 -0.27227470123832725 -0.9986920407729232
110930000.0 0.0827249530176737 -0.04458005330200166 -0.2856468063358501 -0.9838436515435018 0.0827249530176737 -0.04458005330200166 -0.2856468063358501 -0.9838436515435018
111930000.0 0.08950171031645328 -0.03979258933003755 -0.2995017495030376 -0.9723378367234112 0.08950171031645328 -0.03979258933003755 -0.2995017495030376 -0.9723378367234112
112930000.0 0.09398678012159835 -0.0364550694839728 -0.31510018339519397 -0.968628045351944 0.09398678012159835 -0.0364550694839728 -0.31510018339519397 -0.968628045351944
113930000.0 0.09575139542044597 -0.033344163751729196 -0.33421155570124633 -0.9684240107969623 0.09575139542044597 -0.033344163751729196 -0.33421155570124633 -0.9684240107969623
114930000.0 0.09957430193794625 -0.03200815609015388 -0.34606144760307816 -0.9617492883821969 0.09957430193794625 -0.03200815609015388 -0.34606144760307816 -0.9617492883821969
115930000.0 0.10002832160561677 -0.028437200807088614 -0.35539933524863326 -0.9520781051291048 0.10002832160561677 -0.028437200807088614 -0.35539933524863326 -0.9520781051291048
116920000.0 0.09815507908898723 -0.021940259607252818 -0.3644779105017559 -0.9411414563233261 0.09815507908898723 -0.021940259607252818 -0.3644779105017559 -0.9411414563233261
117920000.0 0.09627535920606446 -0.013907797215993226 -0.37590267571891706 -0.9303917708359006 0.09627535920606446 -0.013907797215993226 -0.37590267571891706 -0.9303917708359006
118920000.0 0.09600728687684969 -0.008500866682030024 -0.38453650144766327 -0.9206177797576571 0.09600728687684969 -0.008500866682030024 -0.38453650144766327 -0.9206177797576571
119920000.0 0.09821966360934407 -0.005972959323465737 -0.3905926770310485 -0.9130809637052618 0.09821966360934407 -0.005972959323465737 -0.3905926770310485 -0.9130809637052618
120920000.0 0.10206677163002663 -0.005438411646059396 -0.3954305953038608 -0.907262161509193 0.10206677163002663 -0.005438411646059396 -0.3954305953038608 -0.907262161509193
121920000.0 0.10673879705635458 -0.005967625227849371 -0.39942545166171767 -0.9017796473317625 0.10673879705635458 -0.005967625227849371 -0.39942545166171767 -0.9017796473317625
122920000.0 0.11117141381569223 -0.007578906658893866 -0.4049309897466607 -0.89807619987854 0.11117141381569223 -0.007578906658893866 -0.4049309897466607 -0.89807619987854
123920000.0 0.11503524884743442 -0.010104743650487951 -0.41779214784659846 -0.8971843214225408 0.11503524884743442 -0.010104743650487951 -0.41779214784659846 -0.8971843214225408
124920000.0 0.11766761997527682 -0.014656276834618641 -0.4473997557463441 -0.8930473237072406 0.11766761997527682 -0.014656276834618641 -0.4473997557463441 -0.8930473237072406
125920000.0 0.11957434165286158 -0.022204970163609835 -0.5044680135629721 -0.880850806739396 0.11957434165286158 -0.022204970163609835 -0.5044680135629721 -0.880850806739396
126920000.0 0.12083996285760315 -0.0285430885867084 -0.5540491123748733 -0.8673426694530276 0.12083996285760315 -0.0285430885867084 -0.5540491123748733 -0.8673426694530276
127920000.0 0.12281314605496513 -0.03199042837888409 -0.5830894015371931 -0.8625158919325496 0.12281314605496513 -0.03199042837888409 -0.5830894015371931 -0.8625158919325496
128919999.99999999 0.12421042425808397 -0.033607590516460305 -0.6027428368789269 -0.8592091608756032 0.12421042425808397 -0.033607590516460305 -0.6027428368789269 -0.8592091608756032
129910000.0 0.12551724911489617 -0.03447895269729602 -0.6203680859759545 -0.8585813253294613 0.12551724911489617 -0.03447895269729602 -0.6203680859759545 -0.8585813253294613
130910000.0 0.126976755820244 -0.03485603905935828 -0.638265751228455 -0.8606802265102055 0.126976755820244 -0.03485603905935828 -0.638265751228455 -0.8606802265102055
131910000.0 0.12829788817406484 -0.0346414505605177 -0.6571549156448496 -0.8667115855744489 0.12829788817406484 -0.0346414505605177 -0.6571549156448496 -0.8667115855744489
132910000.0 0.1298395988133632 -0.034232382163392756 -0.681559006615181 -0.879928353351622 0.1298395988133632 -0.034232382163392756 -0.681559006615181 -0.879928353351622
133910000.0 0.13143609539495119 -0.03364926213186321 -0.7079516539204691 -0.8938534744266323 0.13143609539495119 -0.03364926213186321 -0.7079516539204691 -0.8938534744266323
134910000.0 0.12989499079301856 -0.03214576033063423 -0.7221916525842133 -0.8908782459628932 0.12989499079301856 -0.03214576033063423 -0.7221916525842133 -0.8908782459628932
135910000.0 0.12527600143415094 -0.03002986078965766 -0.7230418172014451 -0.8681297940915148 0.12527600143415094 -0.03002986078965766 -0.7230418172014451 -0.8681297940915148
136910000.0 0.12082500116756965 -0.028606356327788126 -0.7245650297898488 -0.8414929297590946 0.12082500116756965 -0.028606356327788126 -0.7245650297898488 -0.8414929297590946
137910000.0 0.11698733696114641 -0.02771931994473296 -0.730980972413256 -0.8172706116013128 0.11698733696114641 -0.02771931994473296 -0.730980972413256 -0.8172706116013128
138910000.0 0.11376134763476146 -0.027122758714434637 -0.7392747442820033 -0.7961114797052661 0.11376134763476146 -0.027122758714434637 -0.7392747442820033 -0.7961114797052661
