!Created with skrf (http://scikit-rf.org).
# Hz S RI R 50.0 
!freq ReS11 ImS11 ReS21 ImS21 ReS12 ImS12 ReS22 ImS22
25000000.0 0.061553917864933985 0.03227542743132445 0.8986624334753877 -0.47200842270208515 0.061553917864933985 0.03227542743132445 0.8986624334753877 -0.47200842270208515
26000000.0 0.057752533800048404 0.03193373727783759 0.8902816314620917 -0.48519574895877865 0.057752533800048404 0.03193373727783759 0.8902816314620917 -0.48519574895877865
27000000.0 0.057802958819555855 0.030889840066818133 0.8928190498305326 -0.5000026923033559 0.057802958819555855 0.030889840066818133 0.8928190498305326 -0.5000026923033559
28000000.0 0.060557957191945726 0.025842650882093317 0.8911809143431502 -0.5005165303277274 0.060557957191945726 0.025842650882093317 0.8911809143431502 -0.5005165303277274
29000000.0 0.06053243985084467 0.03114952524624975 0.9041681887669463 -0.5209702292409166 0.06053243985084467 0.03114952524624975 0.9041681887669463 -0.5209702292409166
30000000.0 0.05669295863790243 0.031360776150968626 0.8883121355043477 -0.5337517796288365 0.05669295863790243 0.031360776150968626 0.8883121355043477 -0.5337517796288365
31000000.0 0.05789438599872247 0.02990711803725089 0.8735143911694399 -0.5420240932223783 0.05789438599872247 0.02990711803725089 0.8735143911694399 -0.5420240932223783
31990000.0 0.056706981327464885 0.03055910167315423 0.8656949572578779 -0.5566201273360224 0.056706981327464885 0.03055910167315423 0.8656949572578779 -0.5566201273360224
32990000.000000004 0.059244765173661465 0.029926684323246446 0.8688723843408775 -0.5757485591357254 0.059244765173661465 0.029926684323246446 0.8688723843408775 -0.5757485591357254
33990000.0 0.06582584233471808 0.02627516652941914 0.8841250424173298 -0.605373050992062 0.06582584233471808 0.02627516652941914 0.8841250424173298 -0.605373050992062
34990000.0 0.06223741364559186 0.035427647150511485 0.8824898171834947 -0.6250688870735074 0.06223741364559186 0.035427647150511485 0.8824898171834947 -0.6250688870735074
35990000.0 0.06093464150974504 0.0334298890886073 0.8598997956473936 -0.6393167938842632 0.06093464150974504 0.0334298890886073 0.8598997956473936 -0.6393167938842632
36990000.0 0.06112078497564666 0.02944172854596557 0.8297406004048857 -0.6387556122516067 0.06112078497564666 0.02944172854596557 0.8297406004048857 -0.6387556122516067
37990000.0 0.06312427553809356 0.028117940436094342 0.8123175442359831 -0.6531200739094513 0.06312427553809356 0.028117940436094342 0.8123175442359831 -0.6531200739094513
38990000.0 0.0651737173393396 0.029880145314173465 0.7913560822337721 -0.6654400276014912 0.0651737173393396 0.029880145314173465 0.7913560822337721 -0.6654400276014912
39990000.0 0.06468845786801976 0.03167654981128851 0.7702118489272602 -0.6862337254874372 0.06468845786801976 0.03167654981128851 0.7702118489272602 -0.6862337254874372
40990000.0 0.0671208353304582 0.028132328440036537 0.745704511429318 -0.7041922006506356 0.0671208353304582 0.028132328440036537 0.745704511429318 -0.7041922006506356
41990000.0 0.06858867725626544 0.024585316645220196 0.726348967642881 -0.7157774395950045 0.06858867725626544 0.024585316645220196 0.726348967642881 -0.7157774395950045
42990000.0 0.06341685789010168 0.032914315048329784 0.7202281939786557 -0.7318867706069722 0.06341685789010168 0.032914315048329784 0.7202281939786557 -0.7318867706069722
43980000.0 0.06719595667912265 0.034060966810455374 0.7089423648480846 -0.7509972333862909 0.06719595667912265 0.034060966810455374 0.7089423648480846 -0.7509972333862909
44980000.0 0.06661696147845005 0.03573467237988022 0.7195249311643563 -0.7276073264363325 0.06661696147845005 0.03573467237988022 0.7195249311643563 -0.7276073264363325
45980000.0 0.06722901787815769 0.03532596480014189 0.712925044429279 -0.7275069050143257 0.06722901787815769 0.03532596480014189 0.712925044429279 -0.7275069050143257
46980000.0 0.06935175313773262 0.031590797899643454 0.7017014880208883 -0.7399562065003107 0.06935175313773262 0.031590797899643454 0.7017014880208883 -0.7399562065003107
47980000.0 0.07230968629856935 0.029200330138367793 0.6882923028509043 -0.7556281658706213 0.07230968629856935 0.029200330138367793 0.6882923028509043 -0.7556281658706213
48980000.0 0.07189650055584557 0.028306290355001817 0.676402454060533 -0.7615826520863649 0.07189650055584557 0.028306290355001817 0.676402454060533 -0.7615826520863649
49980000.0 0.06993712131497777 0.02753486535825269 0.6606267061050224 -0.7645337395357437 0.06993712131497777 0.02753486535825269 0.6606267061050224 -0.7645337395357437
50980000.0 0.06975678833310026 0.026567799509375007 0.6402437805056018 -0.7681717916741637 0.06975678833310026 0.026567799509375007 0.6402437805056018 -0.7681717916741637
51980000.0 0.07695501253440959 0.02814630659764055 0.6136062974311598 -0.7808756606426106 0.07695501253440959 0.02814630659764055 0.6136062974311598 -0.7808756606426106
52980000.0 0.07801369555402005 0.028009778759336863 0.5895936028568847 -0.8005825866999463 0.07801369555402005 0.028009778759336863 0.5895936028568847 -0.8005825866999463
53980000.0 0.08314713994120422 0.030641629618845624 0.5761470436784847 -0.8173460613843699 0.08314713994120422 0.030641629618845624 0.5761470436784847 -0.8173460613843699
54980000.0 0.08645760887573564 0.03000624416282622 0.5745252453894112 -0.8269414296955476 0.08645760887573564 0.03000624416282622 0.5745252453894112 -0.8269414296955476
55970000.0 0.0865439898678842 0.03165347639850468 0.5578327331886247 -0.8424738129407873 0.0865439898678842 0.03165347639850468 0.5578327331886247 -0.8424738129407873
56970000.0 0.08557547757309784 0.03447053843733799 0.5391723781879928 -0.8545365002776558 0.08557547757309784 0.03447053843733799 0.5391723781879928 -0.8545365002776558
57970000.0 0.08656829103547978 0.035151737810207695 0.5190676670942728 -0.8601288525877933 0.08656829103547978 0.035151737810207695 0.5190676670942728 -0.8601288525877933
58970000.0 0.08746352984335948 0.03436466137655652 0.5002124321354259 -0.8698960809136722 0.08746352984335948 0.03436466137655652 0.5002124321354259 -0.8698960809136722
59970000.0 0.0881131978993417 0.03203575384254735 0.48634382529293796 -0.888325171235646 0.0881131978993417 0.03203575384254735 0.48634382529293796 -0.888325171235646
60970000.0 0.08859018561762996 0.029349870728755736 0.46805851402116244 -0.903362271811063 0.08859018561762996 0.029349870728755736 0.46805851402116244 -0.903362271811063
61970000.0 0.08712611090193456 0.026238567724385122 0.450280587987546 -0.9019401781450282 0.08712611090193456 0.026238567724385122 0.450280587987546 -0.9019401781450282
62970000.0 0.09165075377509388 0.02564108697850214 0.4382726966865244 -0.8899034493136071 0.09165075377509388 0.02564108697850214 0.4382726966865244 -0.8899034493136071
63970000.0 0.09684687287089612 0.025823266987591565 0.443235993852875 -0.8874418062692269 0.09684687287089612 0.025823266987591565 0.443235993852875 -0.8874418062692269
64970000.0 0.09383549898358881 0.024774888410027448 0.45810865468215795 -0.8811446794576439 0.09383549898358881 0.024774888410027448 0.45810865468215795 -0.8811446794576439
65970000.0 0.0941122073438482 0.024602114594612676 0.477544348988528 -0.8668571855604716 0.0941122073438482 0.024602114594612676 0.477544348988528 -0.8668571855604716
66970000.0 0.0967506348269538 0.022407800358213294 0.4913313943760689 -0.8617450705757485 0.0967506348269538 0.022407800358213294 0.4913313943760689 -0.8617450705757485
67960000.0 0.10054426934930367 0.01556507525867158 0.4795099546583701 -0.865771441427948 0.10054426934930367 0.01556507525867158 0.4795099546583701 -0.865771441427948
68960000.0 0.10305481691027764 0.009741548335106546 0.4435152058458062 -0.8783917795863081 0.10305481691027764 0.009741548335106546 0.4435152058458062 -0.8783917795863081
69960000.0 0.10449726377886595 0.008389294192917455 0.39717646543449564 -0.8916540917466891 0.10449726377886595 0.008389294192917455 0.39717646543449564 -0.8916540917466891
70960000.0 0.10516645070354487 0.009108401744332749 0.3705892023424538 -0.888534448677446 0.10516645070354487 0.009108401744332749 0.3705892023424538 -0.888534448677446
71960000.0 0.10578517989672834 0.0074528822536043555 0.3598832277105589 -0.8774859793424994 0.10578517989672834 0.0074528822536043555 0.3598832277105589 -0.8774859793424994
72960000.0 0.10496919946638893 0.013260693724574463 0.32535925736030136 -0.8781470120620966 0.10496919946638893 0.013260693724574463 0.32535925736030136 -0.8781470120620966
73960000.0 0.10372305759693295 0.018943193911250652 0.2910996136386094 -0.8833056853180249 0.10372305759693295 0.018943193911250652 0.2910996136386094 -0.8833056853180249
74960000.0 0.1042198690296549 0.01676795262871636 0.27781887845785963 -0.8886948556904298 0.1042198690296549 0.01676795262871636 0.27781887845785963 -0.8886948556904298
75960000.0 0.1080791986259522 0.015208777223883611 0.2706087309577526 -0.9135597653725892 0.1080791986259522 0.015208777223883611 0.2706087309577526 -0.9135597653725892
76960000.0 0.11190968781127507 0.014534530750924408 0.26219105344938964 -0.9590667057864319 0.11190968781127507 0.014534530750924408 0.26219105344938964 -0.9590667057864319
77960000.0 0.1150041135422027 0.01420223502660026 0.24724282796448538 -0.9990619145965944 0.1150041135422027 0.01420223502660026 0.24724282796448538 -0.9990619145965944
78960000.0 0.11695636896220617 -0.013739215694325044 0.22404577092712855 -1.01060516413052 0.11695636896220617 -0.013739215694325044 0.22404577092712855 -1.01060516413052
79960000.0 0.12076583733164839 -0.01314069504800977 0.19933839698385616 -1.0048913534010673 0.12076583733164839 -0.01314069504800977 0.19933839698385616 -1.0048913534010673
80950000.0 0.12166836027701451 -0.012616127315738905 0.18071436235886382 -1.0084070348274805 0.12166836027701451 -0.012616127315738905 0.18071436235886382 -1.0084070348274805
81950000.0 0.11341892017704645 -0.011740712338085416 0.16724777114403153 -1.034907736216072 0.11341892017704645 -0.011740712338085416 0.16724777114403153 -1.034907736216072
82950000.0 0.11142774522265618 -0.01200654952696913 0.14916066806087164 -1.0376689908328935 0.11142774522265618 -0.01200654952696913 0.14916066806087164 -1.0376689908328935
83950000.0 0.1084744148879704 -0.012071511710892569 0.1298571343127818 -1.0293698743881652 0.1084744148879704 -0.012071511710892569 0.1298571343127818 -1.0293698743881652
84950000.0 0.10547866612722744 -0.012092375853238517 0.10916794426253842 -1.0198255898773645 0.10547866612722744 -0.012092375853238517 0.10916794426253842 -1.0198255898773645
85950000.0 0.10456492603790363 -0.01150713180877012 0.08637404730875324 -1.0137463640530846 0.10456492603790363 -0.01150713180877012 0.08637404730875324 -1.0137463640530846
86950000.0 0.10485142760092067 -0.011112848548630752 0.06379651591624273 -1.008399468595967 0.10485142760092067 -0.011112848548630752 0.06379651591624273 -1.008399468595967
87950000.0 0.10608693661261633 -0.011037877440206869 0.04087638557664145 -1.0003171293045467 0.10608693661261633 -0.011037877440206869 0.04087638557664145 -1.0003171293045467
88950000.0 0.10781461964635684 -0.011179594800649019 0.017119495091591587 -0.99068403939288 0.10781461964635684 -0.011179594800649019 0.017119495091591587 -0.99068403939288
89950000.0 0.10885815013607826 -0.012037282934484535 -0.005997119612750541 -0.9817296258035207 0.10885815013607826 -0.012037282934484535 -0.005997119612750541 -0.9817296258035207
90950000.0 0.10939425792443849 -0.01395551287574599 -0.02953639439339299 -0.977917007061991 0.10939425792443849 -0.01395551287574599 -0.02953639439339299 -0.977917007061991
91950000.0 0.10977048419894359 -0.01677763782594456 -0.05318844665758847 -0.975788693910515 0.10977048419894359 -0.01677763782594456 -0.05318844665758847 -0.975788693910515
92940000.0 0.10996744297273704 -0.020242326650240287 -0.07548641397698669 -0.9765768954981621 0.10996744297273704 -0.020242326650240287 -0.07548641397698669 -0.9765768954981621
93940000.0 0.11036516444804757 -0.024164406975319103 -0.09273181117532812 -0.9773586009342291 0.11036516444804757 -0.024164406975319103 -0.09273181117532812 -0.9773586009342291
94940000.0 0.10983330376017848 -0.028098255898907992 -0.10217393765643816 -0.9786921593254068 0.10983330376017848 -0.028098255898907992 -0.10217393765643816 -0.9786921593254068
95940000.0 0.10864091903143126 -0.031008689106755704 -0.10707869868459319 -0.9793079799192406 0.10864091903143126 -0.031008689106755704 -0.10707869868459319 -0.9793079799192406
96940000.0 0.11077249158844638 -0.015233036777503647 -0.03489655378142111 -0.9845263824701043 0.11077249158844638 -0.015233036777503647 -0.03489655378142111 -0.9845263824701043
97940000.0 0.10650528388662943 -0.024980588810132386 -0.06010530494197475 -0.9799063097775229 0.10650528388662943 -0.024980588810132386 -0.06010530494197475 -0.9799063097775229
98940000.0 0.10132586064761749 -0.032512668244473054 -0.08124588320977581 -0.9715986311835484 0.10132586064761749 -0.032512668244473054 -0.08124588320977581 -0.9715986311835484
99940000.0 0.09706424443534406 -0.03631014425209883 -0.09846421011136627 -0.9610198229610749 0.09706424443534406 -0.03631014425209883 -0.09846421011136627 -0.9610198229610749
100940000.0 0.0953050598026641 -0.03561414385892289 -0.11628895269531621 -0.9512147370413304 0.0953050598026641 -0.03561414385892289 -0.11628895269531621 -0.9512147370413304
101940000.0 0.0968834444724602 -0.028275644425775483 -0.13047689252069272 -0.9427133081782306 0.0968834444724602 -0.028275644425775483 -0.13047689252069272 -0.9427133081782306
102940000.0 0.09980434381177952 -0.017867734539242563 -0.14051259010142433 -0.9379519143074576 0.09980434381177952 -0.017867734539242563 -0.14051259010142433 -0.9379519143074576
103940000.0 0.10032947761717723 -0.02072245660117442 -0.14770468850162374 -0.935741481123599 0.10032947761717723 -0.02072245660117442 -0.14770468850162374 -0.935741481123599
104930000.0 0.090019289691164 -0.051346096316183004 -0.1612667143658553 -0.9346072053904126 0.090019289691164 -0.051346096316183004 -0.1612667143658553 -0.9346072053904126
105930000.0 0.0796118770743053 -0.07282313727662806 -0.20260760681452655 -1.0384546408621043 0.0796118770743053 -0.07282313727662806 -0.20260760681452655 -1.0384546408621043
106930000.0 0.07490692213827355 -0.07420424710612283 -0.22477379746113138 -1.0326373941299354 0.07490692213827355 -0.07420424710612283 -0.22477379746113138 -1.0326373941299354
107930000.0 0.07331863671897842 -0.07087721190877265 -0.24371316049779684 -1.0245870927659475 0.07331863671897842 -0.07087721190877265 -0.24371316049779684 -1.0245870927659475
108930000.0 0.07417992322148152 -0.06344525696292536 -0.25887275949414146 -1.0133811033683142 0.07417992322148152 -0.06344525696292536 -0.25887275949414146 -1.0133811033683142
109930000.0 0.07739858065020491 -0.053294077696488515 -0.27262329392982326 -0.9985969381309258 0.07739858065020491 -0.053294077696488515 -0.27262329392982326 -0.9985969381309258
110930000.0 0.08205593489345013 -0.044682627861876996 -0.28581851509477146 -0.9837937817862756 0.08205593489345013 -0.044682627861876996 -0.28581851509477146 -0.9837937817862756
111930000.0 0.0887142815513298 -0.039628083623746216 -0.2998411411833059 -0.9722332316544402 0.0887142815513298 -0.039628083623746216 -0.2998411411833059 -0.9722332316544402
112930000.0 0.09356128204388854 -0.03627124468255788 -0.3149064778201412 -0.967458565989395 0.09356128204388854 -0.03627124468255788 -0.3149064778201412 -0.967458565989395
113930000.0 0.09518441769241386 -0.03320261371131874 -0.3341646362805012 -0.9671931264801358 0.09518441769241386 -0.03320261371131874 -0.3341646362805012 -0.9671931264801358
114930000.0 0.09910010356332871 -0.03191298503665186 -0.34639714034621155 -0.9616284315580353 0.09910010356332871 -0.03191298503665186 -0.34639714034621155 -0.9616284315580353
115930000.0 0.09962386000135451 -0.02854786580189427 -0.3556542266367604 -0.9507345536568153 0.09962386000135451 -0.02854786580189427 -0.3556542266367604 -0.9507345536568153
116920000.0 0.09796892702824912 -0.02224001343750592 -0.3647147271631173 -0.9398041608021473 0.09796892702824912 -0.02224001343750592 -0.3647147271631173 -0.9398041608021473
117920000.0 0.09567883162202419 -0.014128620630474315 -0.3756323422331623 -0.9292556880357653 0.09567883162202419 -0.014128620630474315 -0.3756323422331623 -0.9292556880357653
118920000.0 0.09542612736002784 -0.008785225205056335 -0.3838936953342951 -0.9208860125086634 0.09542612736002784 -0.008785225205056335 -0.3838936953342951 -0.9208860125086634
119920000.0 0.09764216422148382 -0.00616023368819947 -0.38947684696355545 -0.9135574811201197 0.09764216422148382 -0.00616023368819947 -0.38947684696355545 -0.9135574811201197
120920000.0 0.10125032708966668 -0.005341745548062463 -0.3941846260776251 -0.9065625745197369 0.10125032708966668 -0.005341745548062463 -0.3941846260776251 -0.9065625745197369
121920000.0 0.10576226743579278 -0.005875996073814425 -0.39896586072891066 -0.9007420325588947 0.10576226743579278 -0.005875996073814425 -0.39896586072891066 -0.9007420325588947
122920000.0 0.11002018040223421 -0.007577592673370958 -0.4054011658167614 -0.8978640554114528 0.11002018040223421 -0.007577592673370958 -0.4054011658167614 -0.8978640554114528
123920000.0 0.11383714686170918 -0.01013966842180135 -0.4168421423713901 -0.8963703750677174 0.11383714686170918 -0.01013966842180135 -0.4168421423713901 -0.8963703750677174
124920000.0 0.11666645723834679 -0.01498671228691637 -0.4493742075293875 -0.8907683419154847 0.11666645723834679 -0.01498671228691637 -0.4493742075293875 -0.8907683419154847
125920000.0 0.11832955407604388 -0.022786680496334533 -0.5069845562181658 -0.8767089517095609 0.11832955407604388 -0.022786680496334533 -0.5069845562181658 -0.8767089517095609
126920000.0 0.11968975450700081 -0.02906658460581907 -0.5556413922699717 -0.8635100112839146 0.11968975450700081 -0.02906658460581907 -0.5556413922699717 -0.8635100112839146
127920000.0 0.1216538886849057 -0.03239233385311576 -0.583849271104441 -0.8591081136042437 0.1216538886849057 -0.03239233385311576 -0.583849271104441 -0.8591081136042437
128919999.99999999 0.12355132001630957 -0.03433349027373672 -0.6045410370593132 -0.8579448956970751 0.12355132001630957 -0.03433349027373672 -0.6045410370593132 -0.8579448956970751
129910000.0 0.12516625217274466 -0.03518264676600589 -0.6224321656273896 -0.8585937183320901 0.12516625217274466 -0.03518264676600589 -0.6224321656273896 -0.8585937183320901
130910000.0 0.12691993236311772 -0.03562778489375068 -0.6406401347435823 -0.861993895324565 0.12691993236311772 -0.03562778489375068 -0.6406401347435823 -0.861993895324565
131910000.0 0.12827466346607833 -0.035308643358794724 -0.6597306512890568 -0.8679041970095175 0.12827466346607833 -0.035308643358794724 -0.6597306512890568 -0.8679041970095175
132910000.0 0.12980794040811158 -0.03495196513950862 -0.6835734938172999 -0.8799884011410724 0.12980794040811158 -0.03495196513950862 -0.6835734938172999 -0.8799884011410724
133910000.0 0.13154265028169346 -0.034485030761895505 -0.7113023736973827 -0.8945500664045084 0.13154265028169346 -0.034485030761895505 -0.7113023736973827 -0.8945500664045084
134910000.0 0.12969620118943742 -0.03293863897282221 -0.7250453895610226 -0.8902617152459789 0.12969620118943742 -0.03293863897282221 -0.7250453895610226 -0.8902617152459789
135910000.0 0.1249086180470997 -0.03091175783191641 -0.724175460479235 -0.8654900250472848 0.1249086180470997 -0.03091175783191641 -0.724175460479235 -0.8654900250472848
136910000.0 0.1202218020424683 -0.029284687645284354 -0.7254901256556732 -0.8390070609884621 0.1202218020424683 -0.029284687645284354 -0.7254901256556732 -0.8390070609884621
137910000.0 0.11614531339133495 -0.02827022749005778 -0.7322638357485869 -0.8161213815800807 0.11614531339133495 -0.02827022749005778 -0.7322638357485869 -0.8161213815800807
138910000.0 0.11332743915739207 -0.027772978930735784 -0.7396722911201271 -0.7940345554633685 0.11332743915739207 -0.027772978930735784 -0.7396722911201271 -0.7940345554633685
