!Created with skrf (http://scikit-rf.org).
# Hz S RI R 50.0 
!freq ReS11 ImS11 ReS21 ImS21 ReS12 ImS12 ReS22 ImS22
25000000.0 0.0 0.0 0.0010888550946951223 -0.02317507663631439 0.0 0.0 0.0010888550946951223 -0.02317507663631439
26000000.0 0.0 0.0 0.001564765719774288 -0.02057060819168851 0.0 0.0 0.001564765719774288 -0.02057060819168851
27000000.0 0.0 0.0 0.0008965382517451495 -0.020210316150252775 0.0 0.0 0.0008965382517451495 -0.020210316150252775
28000000.0 0.0 0.0 0.0012865723184044746 -0.021095694437976632 0.0 0.0 0.0012865723184044746 -0.021095694437976632
29000000.0 0.0 0.0 0.0006681526853363233 -0.02102717157279372 0.0 0.0 0.0006681526853363233 -0.02102717157279372
30000000.0 0.0 0.0 0.00039260389092635395 -0.0220511466340481 0.0 0.0 0.00039260389092635395 -0.0220511466340481
31000000.0 0.0 0.0 0.0008569357419076442 -0.021810471061846803 0.0 0.0 0.0008569357419076442 -0.021810471061846803
31990000.0 0.0 0.0 0.0006630577704008578 -0.01998762377458133 0.0 0.0 0.0006630577704008578 -0.01998762377458133
32990000.000000004 0.0 0.0 0.001535848221811495 -0.019824424085145235 0.0 0.0 0.001535848221811495 -0.019824424085145235
33990000.0 0.0 0.0 0.0025472294860771206 -0.02525234419733021 0.0 0.0 0.0025472294860771206 -0.02525234419733021
34990000.0 0.0 0.0 0.0009710760238925419 -0.026866834851876232 0.0 0.0 0.0009710760238925419 -0.026866834851876232
35990000.0 0.0 0.0 0.0006160142886821955 -0.02384268141883334 0.0 0.0 0.0006160142886821955 -0.02384268141883334
36990000.0 0.0 0.0 0.001357272760122297 -0.019361343177541648 0.0 0.0 0.001357272760122297 -0.019361343177541648
37990000.0 0.0 0.0 0.0021976101402834793 -0.024194453700035624 0.0 0.0 0.0021976101402834793 -0.024194453700035624
38990000.0 0.0 0.0 0.0018213221006082388 -0.02445110474578018 0.0 0.0 0.0018213221006082388 -0.02445110474578018
39990000.0 0.0 0.0 0.0009693677307846791 -0.024135149273958458 0.0 0.0 0.0009693677307846791 -0.024135149273958458
40990000.0 0.0 0.0 0.0003514430990113008 -0.026149342917740525 0.0 0.0 0.0003514430990113008 -0.026149342917740525
41990000.0 0.0 0.0 0.0011943138718532261 -0.024773988114257406 0.0 0.0 0.0011943138718532261 -0.024773988114257406
42990000.0 0.0 0.0 -2.2778679214509273e-05 -0.021752028413305587 0.0 0.0 -2.2778679214509273e-05 -0.021752028413305587
43980000.0 0.0 0.0 -0.0016394225034969847 -0.028960446051472036 0.0 0.0 -0.0016394225034969847 -0.028960446051472036
44980000.0 0.0 0.0 0.0004556970834400066 -0.025848331817290633 0.0 0.0 0.0004556970834400066 -0.025848331817290633
45980000.0 0.0 0.0 0.001924426657423381 -0.02301372367801047 0.0 0.0 0.001924426657423381 -0.02301372367801047
46980000.0 0.0 0.0 0.002645252221367263 -0.024037319418558984 0.0 0.0 0.002645252221367263 -0.024037319418558984
47980000.0 0.0 0.0 0.0032028394642279307 -0.027101176972086895 0.0 0.0 0.0032028394642279307 -0.027101176972086895
48980000.0 0.0 0.0 0.0037370129517938556 -0.029171949762979828 0.0 0.0 0.0037370129517938556 -0.029171949762979828
49980000.0 0.0 0.0 0.003002181076510928 -0.021747062017867306 0.0 0.0 0.003002181076510928 -0.021747062017867306
50980000.0 0.0 0.0 0.003255302480374886 -0.02032353246389039 0.0 0.0 0.003255302480374886 -0.02032353246389039
51980000.0 0.0 0.0 0.005210171570556216 -0.035889816722819955 0.0 0.0 0.005210171570556216 -0.035889816722819955
52980000.0 0.0 0.0 0.0034748994767948094 -0.031175890995885018 0.0 0.0 0.0034748994767948094 -0.031175890995885018
53980000.0 0.0 0.0 0.004159096863406989 -0.03080183098893006 0.0 0.0 0.004159096863406989 -0.03080183098893006
54980000.0 0.0 0.0 0.0035606038701780345 -0.02858623563175284 0.0 0.0 0.0035606038701780345 -0.02858623563175284
55970000.0 0.0 0.0 0.002131417579022726 -0.02649102892238794 0.0 0.0 0.002131417579022726 -0.02649102892238794
56970000.0 0.0 0.0 0.0009154652601213056 -0.028039395732658175 0.0 0.0 0.0009154652601213056 -0.028039395732658175
57970000.0 0.0 0.0 -0.00021655891813175305 -0.033534431204389085 0.0 0.0 -0.00021655891813175305 -0.033534431204389085
58970000.0 0.0 0.0 -0.0014236911070039735 -0.03996912723898917 0.0 0.0 -0.0014236911070039735 -0.03996912723898917
59970000.0 0.0 0.0 -0.0018500690767562268 -0.03823774425050648 0.0 0.0 -0.0018500690767562268 -0.03823774425050648
60970000.0 0.0 0.0 -0.0011145859917900565 -0.02739307562295828 0.0 0.0 -0.0011145859917900565 -0.02739307562295828
61970000.0 0.0 0.0 -0.0005646821244151921 -0.021421464630954495 0.0 0.0 -0.0005646821244151921 -0.021421464630954495
62970000.0 0.0 0.0 -0.0005057387471760772 -0.03863338760578213 0.0 0.0 -0.0005057387471760772 -0.03863338760578213
63970000.0 0.0 0.0 0.0005967348591153359 -0.052598341731649956 0.0 0.0 0.0005967348591153359 -0.052598341731649956
64970000.0 0.0 0.0 0.001846085227575889 -0.038017940802695875 0.0 0.0 0.001846085227575889 -0.038017940802695875
65970000.0 0.0 0.0 0.0031442844269790634 -0.02688750655195012 0.0 0.0 0.0031442844269790634 -0.02688750655195012
66970000.0 0.0 0.0 0.004188605817137949 -0.023396421865767018 0.0 0.0 0.004188605817137949 -0.023396421865767018
67960000.0 0.0 0.0 0.004831433645276613 -0.022555830913492933 0.0 0.0 0.004831433645276613 -0.022555830913492933
68960000.0 0.0 0.0 0.004949658568631385 -0.020522113157554638 0.0 0.0 0.004949658568631385 -0.020522113157554638
69960000.0 0.0 0.0 0.004614615591861724 -0.020278539246562 0.0 0.0 0.004614615591861724 -0.020278539246562
70960000.0 0.0 0.0 0.00427983824745792 -0.022079575326049868 0.0 0.0 0.00427983824745792 -0.022079575326049868
71960000.0 0.0 0.0 0.005720016854028846 -0.02630052028505551 0.0 0.0 0.005720016854028846 -0.02630052028505551
72960000.0 0.0 0.0 0.004645597273064792 -0.03161262263217294 0.0 0.0 0.004645597273064792 -0.03161262263217294
73960000.0 0.0 0.0 0.0038505865677959062 -0.04050855399237844 0.0 0.0 0.0038505865677959062 -0.04050855399237844
74960000.0 0.0 0.0 0.004319453006155187 -0.04947101841444098 0.0 0.0 0.004319453006155187 -0.04947101841444098
75960000.0 0.0 0.0 0.004926848123595421 -0.0549874636366782 0.0 0.0 0.004926848123595421 -0.0549874636366782
76960000.0 0.0 0.0 0.00479530758386792 -0.055254880688648735 0.0 0.0 0.00479530758386792 -0.055254880688648735
77960000.0 0.0 0.0 0.0035815023476270017 -0.045305110051124156 0.0 0.0 0.0035815023476270017 -0.045305110051124156
78960000.0 0.0 0.0 0.002410490027433448 -0.030559987702750823 0.0 0.0 0.002410490027433448 -0.030559987702750823
79960000.0 0.0 0.0 0.0024958024340597106 -0.025731593183842244 0.0 0.0 0.0024958024340597106 -0.025731593183842244
80950000.0 0.0 0.0 0.006808987127600752 -0.0549787202714589 0.0 0.0 0.006808987127600752 -0.0549787202714589
81950000.0 0.0 0.0 0.008955214226673966 -0.06545962465944967 0.0 0.0 0.008955214226673966 -0.06545962465944967
82950000.0 0.0 0.0 0.008116744352285755 -0.05710266188243488 0.0 0.0 0.008116744352285755 -0.05710266188243488
83950000.0 0.0 0.0 0.005974992051158003 -0.0433931816148446 0.0 0.0 0.005974992051158003 -0.0433931816148446
84950000.0 0.0 0.0 0.004251740461002673 -0.03207882870528742 0.0 0.0 0.004251740461002673 -0.03207882870528742
85950000.0 0.0 0.0 0.0032639673198384795 -0.02558553641291829 0.0 0.0 0.0032639673198384795 -0.02558553641291829
86950000.0 0.0 0.0 0.002571719010592207 -0.02205810656619227 0.0 0.0 0.002571719010592207 -0.02205810656619227
87950000.0 0.0 0.0 0.0020667894889116953 -0.020241740439701682 0.0 0.0 0.0020667894889116953 -0.020241740439701682
88950000.0 0.0 0.0 0.0015487652463062691 -0.019124076444481317 0.0 0.0 0.0015487652463062691 -0.019124076444481317
89950000.0 0.0 0.0 0.0009976359192677528 -0.018723385460457872 0.0 0.0 0.0009976359192677528 -0.018723385460457872
90950000.0 0.0 0.0 0.0007033802356995045 -0.018823353725561303 0.0 0.0 0.0007033802356995045 -0.018823353725561303
91950000.0 0.0 0.0 0.000559511481269155 -0.018741595114360635 0.0 0.0 0.000559511481269155 -0.018741595114360635
92940000.0 0.0 0.0 0.0005877971929872189 -0.018914304945267014 0.0 0.0 0.0005877971929872189 -0.018914304945267014
93940000.0 0.0 0.0 0.0006308952887103367 -0.019220565832330467 0.0 0.0 0.0006308952887103367 -0.019220565832330467
94940000.0 0.0 0.0 0.0005762678840190231 -0.019647770672010532 0.0 0.0 0.0005762678840190231 -0.019647770672010532
95940000.0 0.0 0.0 0.0007084662463985915 -0.0202878188742665 0.0 0.0 0.0007084662463985915 -0.0202878188742665
96940000.0 0.0 0.0 0.002446893316168423 -0.021115602228546845 0.0 0.0 0.002446893316168423 -0.021115602228546845
97940000.0 0.0 0.0 0.0014164055179091222 -0.02257599678749855 0.0 0.0 0.0014164055179091222 -0.02257599678749855
98940000.0 0.0 0.0 0.0009225701995801248 -0.025159860402708394 0.0 0.0 0.0009225701995801248 -0.025159860402708394
99940000.0 0.0 0.0 0.00046895187878392644 -0.0279858844223583 0.0 0.0 0.00046895187878392644 -0.0279858844223583
100940000.0 0.0 0.0 -0.00035456755953477173 -0.03330238875978909 0.0 0.0 -0.00035456755953477173 -0.03330238875978909
101940000.0 0.0 0.0 -0.0002652015592394582 -0.0410668076860342 0.0 0.0 -0.0002652015592394582 -0.0410668076860342
102940000.0 0.0 0.0 0.0025769321480435567 -0.05546663295129544 0.0 0.0 0.0025769321480435567 -0.05546663295129544
103940000.0 0.0 0.0 0.003913479416832619 -0.061180542018998745 0.0 0.0 0.003913479416832619 -0.061180542018998745
104930000.0 0.0 0.0 -0.0002569206317501601 -0.06691088875177649 0.0 0.0 -0.0002569206317501601 -0.06691088875177649
105930000.0 0.0 0.0 -0.0069739294156606485 -0.062272093770013734 0.0 0.0 -0.0069739294156606485 -0.062272093770013734
106930000.0 0.0 0.0 -0.011325162749469559 -0.06509146649983916 0.0 0.0 -0.011325162749469559 -0.06509146649983916
107930000.0 0.0 0.0 -0.01287972391399896 -0.06410726615146697 0.0 0.0 -0.01287972391399896 -0.06410726615146697
108930000.0 0.0 0.0 -0.012101489395522233 -0.05874561520630698 0.0 0.0 -0.012101489395522233 -0.05874561520630698
109930000.0 0.0 0.0 -0.009560864486900387 -0.04797817865101295 0.0 0.0 -0.009560864486900387 -0.04797817865101295
110930000.0 0.0 0.0 -0.0061316836252173585 -0.03289134140450025 0.0 0.0 -0.0061316836252173585 -0.03289134140450025
111930000.0 0.0 0.0 -0.005369804586255691 -0.031348758395912994 0.0 0.0 -0.005369804586255691 -0.031348758395912994
112930000.0 0.0 0.0 -0.008661891950099952 -0.05858745913052104 0.0 0.0 -0.008661891950099952 -0.05858745913052104
113930000.0 0.0 0.0 -0.009467830813447865 -0.08035372997167384 0.0 0.0 -0.009467830813447865 -0.08035372997167384
114930000.0 0.0 0.0 -0.00433594363390661 -0.08529815176983187 0.0 0.0 -0.00433594363390661 -0.08529815176983187
115930000.0 0.0 0.0 0.004647900602852031 -0.07893113421041704 0.0 0.0 0.004647900602852031 -0.07893113421041704
116920000.0 0.0 0.0 0.014081707183601333 -0.06921380207296397 0.0 0.0 0.014081707183601333 -0.06921380207296397
117920000.0 0.0 0.0 0.020441909534361556 -0.05923324816844826 0.0 0.0 0.020441909534361556 -0.05923324816844826
118920000.0 0.0 0.0 0.022769344075731283 -0.05085387456712926 0.0 0.0 0.022769344075731283 -0.05085387456712926
119920000.0 0.0 0.0 0.019716429647449598 -0.04182373119963596 0.0 0.0 0.019716429647449598 -0.04182373119963596
120920000.0 0.0 0.0 0.01570373907972832 -0.03515552110354458 0.0 0.0 0.01570373907972832 -0.03515552110354458
121920000.0 0.0 0.0 0.012125509934173743 -0.030041878061941734 0.0 0.0 0.012125509934173743 -0.030041878061941734
122920000.0 0.0 0.0 0.009954508690676664 -0.02858545516253402 0.0 0.0 0.009954508690676664 -0.02858545516253402
123920000.0 0.0 0.0 0.008941718573921049 -0.031060680742147233 0.0 0.0 0.008941718573921049 -0.031060680742147233
124920000.0 0.0 0.0 0.007730994461177309 -0.036340280533371364 0.0 0.0 0.007730994461177309 -0.036340280533371364
125920000.0 0.0 0.0 0.005395793293403135 -0.03839306422812444 0.0 0.0 0.005395793293403135 -0.03839306422812444
126920000.0 0.0 0.0 0.004031940534727119 -0.04053801133457318 0.0 0.0 0.004031940534727119 -0.04053801133457318
127920000.0 0.0 0.0 0.002923824274684003 -0.04049214298029036 0.0 0.0 0.002923824274684003 -0.04049214298029036
128919999.99999999 0.0 0.0 0.0019430644271873551 -0.03930701107365301 0.0 0.0 0.0019430644271873551 -0.03930701107365301
129910000.0 0.0 0.0 0.0012598832297741908 -0.037779712184695606 0.0 0.0 0.0012598832297741908 -0.037779712184695606
130910000.0 0.0 0.0 0.0007375741498305259 -0.03642595835531636 0.0 0.0 0.0007375741498305259 -0.03642595835531636
131910000.0 0.0 0.0 0.0005165841725128917 -0.03523330027665761 0.0 0.0 0.0005165841725128917 -0.03523330027665761
132910000.0 0.0 0.0 0.00046543069327819643 -0.03463066094401221 0.0 0.0 0.00046543069327819643 -0.03463066094401221
133910000.0 0.0 0.0 0.0005756100338424864 -0.03399677801323293 0.0 0.0 0.0005756100338424864 -0.03399677801323293
134910000.0 0.0 0.0 0.0005841533379859183 -0.027887189100329276 0.0 0.0 0.0005841533379859183 -0.027887189100329276
135910000.0 0.0 0.0 0.0005762498487329196 -0.02519918387495077 0.0 0.0 0.0005762498487329196 -0.02519918387495077
136910000.0 0.0 0.0 0.0006581645934710826 -0.02327160737399816 0.0 0.0 0.0006581645934710826 -0.02327160737399816
137910000.0 0.0 0.0 0.0007270283880278543 -0.021915993661541563 0.0 0.0 0.0007270283880278543 -0.021915993661541563
138910000.0 0.0 0.0 0.0008284944487870783 -0.020900614873887818 0.0 0.0 0.0008284944487870783 -0.020900614873887818
139910000.0 0.0 0.0 0.0009025532269871432 -0.02018674773224124 0.0 0.0 0.0009025532269871432 -0.02018674773224124
140910000.0 0.0 0.0 0.0011924531379910361 -0.019665411806121517 0.0 0.0 0.0011924531379910361 -0.019665411806121517
141900000.0 0.0 0.0 0.001419935428732402 -0.01928974783791337 0.0 0.0 0.001419935428732402 -0.01928974783791337
142900000.0 0.0 0.0 0.0017156940457032789 -0.018999248144827875 0.0 0.0 0.0017156940457032789 -0.018999248144827875
143900000.0 0.0 0.0 0.0019538245737719968 -0.018778543685844473 0.0 0.0 0.0019538245737719968 -0.018778543685844473
144900000.0 0.0 0.0 0.002178559908179252 -0.018601229816306294 0.0 0.0 0.002178559908179252 -0.018601229816306294
145900000.0 0.0 0.0 0.0025363489216015923 -0.019085273273664865 0.0 0.0 0.0025363489216015923 -0.019085273273664865
146900000.0 0.0 0.0 0.0027733757006182117 -0.018918329176656843 0.0 0.0 0.0027733757006182117 -0.018918329176656843
147900000.0 0.0 0.0 0.0031442290013689532 -0.018748964948139497 0.0 0.0 0.0031442290013689532 -0.018748964948139497
148900000.0 0.0 0.0 0.003582900966302538 -0.01887168299955833 0.0 0.0 0.003582900966302538 -0.01887168299955833
149900000.0 0.0 0.0 0.0038829071993422503 -0.018409790133641694 0.0 0.0 0.0038829071993422503 -0.018409790133641694
150900000.0 0.0 0.0 0.004308823075374305 -0.01827032880786793 0.0 0.0 0.004308823075374305 -0.01827032880786793
151900000.0 0.0 0.0 0.004738071726438702 -0.01816374265831822 0.0 0.0 0.004738071726438702 -0.01816374265831822
152900000.0 0.0 0.0 0.005268084244047502 -0.0180622432018023 0.0 0.0 0.005268084244047502 -0.0180622432018023
153890000.0 0.0 0.0 0.005948087295457964 -0.017964317260287056 0.0 0.0 0.005948087295457964 -0.017964317260287056
154890000.0 0.0 0.0 0.006611680499739093 -0.017941027634516785 0.0 0.0 0.006611680499739093 -0.017941027634516785
155890000.0 0.0 0.0 0.007235158793610642 -0.017961778293830555 0.0 0.0 0.007235158793610642 -0.017961778293830555
156890000.0 0.0 0.0 0.007785330572533549 -0.017999455822933313 0.0 0.0 0.007785330572533549 -0.017999455822933313
157890000.0 0.0 0.0 0.008255200421616444 -0.01816476910264595 0.0 0.0 0.008255200421616444 -0.01816476910264595
158890000.0 0.0 0.0 0.008663651319230557 -0.01843624659341368 0.0 0.0 0.008663651319230557 -0.01843624659341368
159890000.0 0.0 0.0 0.009009708491988434 -0.01895732091820847 0.0 0.0 0.009009708491988434 -0.01895732091820847
160890000.0 0.0 0.0 0.009253066248213157 -0.019852310032912233 0.0 0.0 0.009253066248213157 -0.019852310032912233
161890000.0 0.0 0.0 0.009355760052602921 -0.02117230292980575 0.0 0.0 0.009355760052602921 -0.02117230292980575
162890000.0 0.0 0.0 0.009311342079453262 -0.022988601118582037 0.0 0.0 0.009311342079453262 -0.022988601118582037
163890000.0 0.0 0.0 0.009033221035288782 -0.02535422800644119 0.0 0.0 0.009033221035288782 -0.02535422800644119
164890000.0 0.0 0.0 0.008494507703259222 -0.028512434983882128 0.0 0.0 0.008494507703259222 -0.028512434983882128
165890000.0 0.0 0.0 0.007557530206408944 -0.03255375531270974 0.0 0.0 0.007557530206408944 -0.03255375531270974
166880000.0 0.0 0.0 0.006102512186519696 -0.03797193349279946 0.0 0.0 0.006102512186519696 -0.03797193349279946
167880000.0 0.0 0.0 0.004022756574846536 -0.04516312683510376 0.0 0.0 0.004022756574846536 -0.04516312683510376
168880000.0 0.0 0.0 0.0014315418207353295 -0.05430616829313103 0.0 0.0 0.0014315418207353295 -0.05430616829313103
169880000.0 0.0 0.0 -0.001342923308212336 -0.060102372527084086 0.0 0.0 -0.001342923308212336 -0.060102372527084086
170880000.0 0.0 0.0 -0.003952061075104354 -0.06671744250770016 0.0 0.0 -0.003952061075104354 -0.06671744250770016
171880000.0 0.0 0.0 -0.006420365463991986 -0.07368133098857875 0.0 0.0 -0.006420365463991986 -0.07368133098857875
172880000.0 0.0 0.0 -0.009092354209208557 -0.08067879552507895 0.0 0.0 -0.009092354209208557 -0.08067879552507895
173880000.0 0.0 0.0 -0.011618184112584506 -0.08754038441290216 0.0 0.0 -0.011618184112584506 -0.08754038441290216
174880000.0 0.0 0.0 -0.012868311229152541 -0.09418546227169393 0.0 0.0 -0.012868311229152541 -0.09418546227169393
175880000.0 0.0 0.0 -0.011118046053970092 -0.10054510915379897 0.0 0.0 -0.011118046053970092 -0.10054510915379897
176880000.0 0.0 0.0 -0.007904724850669814 -0.10612030417121301 0.0 0.0 -0.007904724850669814 -0.10612030417121301
177880000.0 0.0 0.0 -0.005847524865728624 -0.10974490787281425 0.0 0.0 -0.005847524865728624 -0.10974490787281425
178870000.0 0.0 0.0 -0.004151721779472955 -0.11007566357245195 0.0 0.0 -0.004151721779472955 -0.11007566357245195
179870000.0 0.0 0.0 -0.006474251367058385 -0.10646293687227704 0.0 0.0 -0.006474251367058385 -0.10646293687227704
180870000.0 0.0 0.0 -0.012810324817186941 -0.09917608370004416 0.0 0.0 -0.012810324817186941 -0.09917608370004416
181870000.0 0.0 0.0 -0.01992519219120922 -0.0892133224269551 0.0 0.0 -0.01992519219120922 -0.0892133224269551
182870000.0 0.0 0.0 -0.024270208791958212 -0.07806661348413227 0.0 0.0 -0.024270208791958212 -0.07806661348413227
183870000.0 0.0 0.0 -0.02478184888058079 -0.06710199938498954 0.0 0.0 -0.02478184888058079 -0.06710199938498954
184870000.0 0.0 0.0 -0.02332847611704826 -0.05753751627168161 0.0 0.0 -0.02332847611704826 -0.05753751627168161
185870000.0 0.0 0.0 -0.022557227443850553 -0.05257925863717341 0.0 0.0 -0.022557227443850553 -0.05257925863717341
186870000.0 0.0 0.0 -0.025698483760623534 -0.05818373354623607 0.0 0.0 -0.025698483760623534 -0.05818373354623607
187870000.0 0.0 0.0 -0.03381673490321523 -0.07609656037332672 0.0 0.0 -0.03381673490321523 -0.07609656037332672
188870000.0 0.0 0.0 -0.042653915205993445 -0.09749177990966976 0.0 0.0 -0.042653915205993445 -0.09749177990966976
189870000.0 0.0 0.0 -0.048884149352722055 -0.11367152043885517 0.0 0.0 -0.048884149352722055 -0.11367152043885517
190860000.0 0.0 0.0 -0.05093551448926599 -0.12011310689372447 0.0 0.0 -0.05093551448926599 -0.12011310689372447
191860000.0 0.0 0.0 -0.049506827713426016 -0.11893251483143186 0.0 0.0 -0.049506827713426016 -0.11893251483143186
192860000.0 0.0 0.0 -0.04582774762210685 -0.11417280776194727 0.0 0.0 -0.04582774762210685 -0.11417280776194727
193860000.0 0.0 0.0 -0.04055456563357253 -0.10812280762126693 0.0 0.0 -0.04055456563357253 -0.10812280762126693
194860000.0 0.0 0.0 -0.034295353380017546 -0.1019065805454226 0.0 0.0 -0.034295353380017546 -0.1019065805454226
195860000.0 0.0 0.0 -0.027487188249423106 -0.09567013081975195 0.0 0.0 -0.027487188249423106 -0.09567013081975195
196860000.0 0.0 0.0 -0.020706271027612955 -0.0899034522260119 0.0 0.0 -0.020706271027612955 -0.0899034522260119
197860000.0 0.0 0.0 -0.014681940974213426 -0.08403712664410865 0.0 0.0 -0.014681940974213426 -0.08403712664410865
198860000.0 0.0 0.0 -0.01040420734246626 -0.07828857403477957 0.0 0.0 -0.01040420734246626 -0.07828857403477957
