!Created with skrf (http://scikit-rf.org).
# Hz S RI R 50.0 
!freq ReS11 ImS11
25000000.0 0.08122780180597819 0.020011600980217908
26000000.0 0.07804469729377939 0.020256409547430864
27000000.0 0.07758065313821437 0.019832751309379257
28000000.0 0.0775729058157271 0.0166585146959838
29000000.0 0.07968252118771683 0.020666661396457092
30000000.0 0.07580301504829677 0.020141291832610396
31000000.0 0.07535964692483822 0.01785593396937883
31990000.0 0.07554317546302122 0.019354034560017806
32990000.000000004 0.0780783442468502 0.018183765639727872
33990000.0 0.08014147336190854 0.012406555562955803
34990000.0 0.07791480940205825 0.021461314086412747
35990000.0 0.07689575357036278 0.01991523355745469
36990000.0 0.07923423849452364 0.016379779939477087
37990000.0 0.07864212784591217 0.01354145254196763
38990000.0 0.07800273299522743 0.014513286114703048
39990000.0 0.07776367716534757 0.01749628052590144
40990000.0 0.07743064703093823 0.01600693062792233
41990000.0 0.07916353708685298 0.010759612344501148
42990000.0 0.07876379978962815 0.023271100525729057
43980000.0 0.07692835396794627 0.02415212742623863
44980000.0 0.07642366167559367 0.02421365542962464
45980000.0 0.07775880375631307 0.022694076350806808
46980000.0 0.07873829736784203 0.019412854019115376
47980000.0 0.0791356444299675 0.016849674220188956
48980000.0 0.07877659622376246 0.016299510571919775
49980000.0 0.07920530709416052 0.016056925440271805
50980000.0 0.08012058277445873 0.014242796526621094
51980000.0 0.07909867563959094 0.011863720617465049
52980000.0 0.07934578783711682 0.009320987845326974
53980000.0 0.0826685301534952 0.013433804615981516
54980000.0 0.08355396319763304 0.021982329677931105
55970000.0 0.08596607809527555 0.022729269608045877
56970000.0 0.08777081709940732 0.022356187264392233
57970000.0 0.08704012535049777 0.023501526346402072
58970000.0 0.08558583852737024 0.024121577965903498
59970000.0 0.08480294148614087 0.023135837271540206
60970000.0 0.08451372729686502 0.02146375241641001
61970000.0 0.08432568387573626 0.019700790141868672
62970000.0 0.084700513990501 0.020287894913883463
63970000.0 0.08551157497715736 0.022848784925858002
64970000.0 0.08289907635545021 0.026711774364595677
65970000.0 0.07889677990545901 0.029513993294426392
66970000.0 0.07841789444514435 0.02801592209719132
67960000.0 0.08029811313545583 0.02094602564517426
68960000.0 0.08280751037682502 0.01188848961032264
69960000.0 0.08404989491910092 0.006910159232708155
70960000.0 0.08417265996033367 0.006594969027011402
71960000.0 0.08401023062161288 0.008414954080006469
72960000.0 0.08127268500736394 0.02287533547205371
73960000.0 0.08175106720685292 0.023333689090290058
74960000.0 0.08540013488257063 0.020392441067293644
75960000.0 0.08981647309936185 0.019140238703693503
76960000.0 0.09055709423668261 0.018177288675280553
77960000.0 0.09086202586522112 0.01716855802083335
78960000.0 0.09321470524156623 -0.016268570380456326
79960000.0 0.09692053983356126 -0.014917497853450631
80950000.0 0.09561019218013793 -0.013828743950446028
81950000.0 0.0905511318118032 -0.013258406724424658
82950000.0 0.08888241850323773 -0.01312501365727619
83950000.0 0.08701862150060959 -0.013129260838251224
84950000.0 0.08496443646344619 -0.01265254273812282
85950000.0 0.08404774981130436 -0.01212643985204969
86950000.0 0.08396787232671044 -0.011995257269531705
87950000.0 0.08472996366884762 -0.01220977428394151
88950000.0 0.08605398435686866 -0.012768740208710782
89950000.0 0.08686407833038182 -0.014115589744622143
90950000.0 0.08730500314210893 -0.016322916483946476
91950000.0 0.08740160578949535 -0.01990528892716279
92940000.0 0.08770147754877736 -0.02304077549111603
93940000.0 0.08773004025105233 -0.02642044478699619
94940000.0 0.08700403260463199 -0.030042843606058592
95940000.0 0.08527777933828053 -0.03407415338308925
96940000.0 0.0877485536876318 -0.023676376865994334
97940000.0 0.0830631815587401 -0.03287027140167157
98940000.0 0.07759790097276527 -0.040429343721280916
99940000.0 0.07323510828092365 -0.04489611582723384
100940000.0 0.07254437170421119 -0.04300522375914968
101940000.0 0.07663296789378574 -0.03450454715569557
102940000.0 0.08062440018276451 -0.02406582512632429
103940000.0 0.07971973701959273 -0.027808161226376978
104930000.0 0.06193127195739382 -0.05767106428589945
105930000.0 0.043136584190105326 -0.07066906939345224
106930000.0 0.04132758568827891 -0.06999260776149094
107930000.0 0.046804234067516534 -0.06327538561021136
108930000.0 0.05465021025007792 -0.05260944680372386
109930000.0 0.06037688160675186 -0.04271758181807562
110930000.0 0.06417397449316511 -0.03676765734569325
111930000.0 0.0676005746301132 -0.03383709024720014
112930000.0 0.07031653212714659 -0.03203026967495487
113930000.0 0.07687215258941327 -0.032014531332438034
114930000.0 0.084077134564894 -0.033118864064798914
115930000.0 0.08207844824317763 -0.030606261248479982
116920000.0 0.07814556985884841 -0.026770447378640115
117920000.0 0.07854048888849119 -0.022002799075894974
118920000.0 0.08140551409448735 -0.018853814356356132
119920000.0 0.08580937366575254 -0.0165864169388135
120920000.0 0.09004866883493286 -0.015101294224434538
121920000.0 0.09382320774276884 -0.014591677933562402
122920000.0 0.0966556900949393 -0.015153160898621012
123920000.0 0.09844449347705969 -0.01620912945103552
124920000.0 0.09894446250920222 -0.017393165310889257
125920000.0 0.09819004254753963 -0.018322559393760568
126920000.0 0.09724196890211025 -0.018409218835355665
127920000.0 0.09683018500613488 -0.018138769090888972
128919999.99999999 0.09667006369169408 -0.017759717783285594
129910000.0 0.09680615476798975 -0.017645026541450826
130910000.0 0.0967533748837068 -0.017932178094848927
131910000.0 0.09704704950223803 -0.018214460191947134
132910000.0 0.0978507158951771 -0.018878503198364784
133910000.0 0.09901684362321524 -0.01953403592289377
134910000.0 0.09731789504030892 -0.01979954952102508
135910000.0 0.09380111872126881 -0.019613161180040403
136910000.0 0.09129956943508158 -0.019339713558621338
137910000.0 0.08953591633256998 -0.019440153077612418
138910000.0 0.08839196270509314 -0.01975794453984544
139910000.0 0.08740854872115077 -0.01987477879923169
140910000.0 0.08684082343292793 -0.020048783821814485
141900000.0 0.08656010134409794 -0.020350310447208066
142900000.0 0.08636013471421199 -0.02074917608794864
143900000.0 0.08623548681864968 -0.021261279108652834
144900000.0 0.0862872243720367 -0.021898132682366213
145900000.0 0.08615184719737201 -0.02242481949281604
146900000.0 0.08614433681149224 -0.022856849794995745
147900000.0 0.08605318067077754 -0.02280051317947117
148900000.0 0.08589483594022629 -0.02259819317970244
149900000.0 0.08561045728400689 -0.02247545397284228
150900000.0 0.0854765820982033 -0.02258388714753074
151900000.0 0.08531490381227698 -0.022796234178796327
152900000.0 0.08544496573287401 -0.022703212917807015
153890000.0 0.08574615386630742 -0.021952073359882283
154890000.0 0.0863310792266898 -0.02086973731843672
155890000.0 0.08716896426722924 -0.019532499616236536
156890000.0 0.0882455281464513 -0.0179537556152543
157890000.0 0.08933041400590556 -0.016169671724049664
158890000.0 0.09042215448467429 -0.014111229557289514
159890000.0 0.09147625466291308 -0.011978113994683827
160890000.0 0.09266044240064567 -0.010180702676124472
161890000.0 0.09424942350839417 -0.009556888266734497
162890000.0 0.09561059948436257 -0.011265500434259603
163890000.0 0.09638350003149741 -0.016129066367669857
164890000.0 0.09520644144348288 -0.025314683093484773
165890000.0 0.0914127863884089 -0.03852030039237049
166880000.0 0.08418257373976512 -0.05354762788456912
167880000.0 0.07553260849629173 -0.06535920510510698
168880000.0 0.06706915011724897 -0.07386327420352551
169880000.0 0.05851131339184115 -0.08038629952753855
170880000.0 0.049466696292114115 -0.08585176403629449
171880000.0 0.042087168228793874 -0.08919721132552773
172880000.0 0.037981070203070684 -0.09053026313045334
173880000.0 0.0376334864044413 -0.09018673162533995
174880000.0 0.04301824063468099 -0.08812237943072872
175880000.0 0.05682101813845257 -0.0824282978017176
176880000.0 0.07773027734410955 -0.06872158409339935
177880000.0 0.09231403617674983 -0.05342650637082709
178870000.0 0.08780747230959207 -0.062056186061674845
179870000.0 0.059812951641956213 -0.08831015612097688
180870000.0 0.03150978994982834 -0.09885234075941776
181870000.0 0.013765090928641519 -0.09720500248426485
182870000.0 0.005054232100243083 -0.0901193518512271
183870000.0 0.000905833358885916 -0.08109104660491277
184870000.0 -0.0010173098350932316 -0.07285471517348281
185870000.0 -0.0014334848421587686 -0.0690090935258641
186870000.0 0.0002508455963510511 -0.0718616780294442
187870000.0 0.0056385889131708765 -0.07904928780957768
188870000.0 0.017588743038326873 -0.09264257820738361
189870000.0 0.03857261266006777 -0.10941095508739453
190860000.0 0.06207861127535898 -0.11423946489088402
191860000.0 0.07892341897426722 -0.10634800870646285
192860000.0 0.08649063089742576 -0.09307500381536447
193860000.0 0.08749084572654219 -0.07983413405100585
194860000.0 0.08461195351614965 -0.06834641819022105
195860000.0 0.08009940743321287 -0.05851662999916774
196860000.0 0.07484293451796613 -0.05082502369982062
197860000.0 0.07008433722337036 -0.04514896291000353
198860000.0 0.06698923287459242 -0.04148654024107415
199860000.0 0.0659273312189722 -0.039441067430565
200860000.0 0.06679439917010058 -0.038844061390946726
201860000.0 0.06873119300898167 -0.038902075296650955
202860000.0 0.07117365334540884 -0.03945220027432177
203850000.0 0.0738441609410476 -0.04012748979866889
204850000.0 0.07622045085570234 -0.04068083646453367
205850000.0 0.07797478983118677 -0.04079889862248051
206850000.0 0.07905967783646554 -0.04047429451614715
207850000.0 0.07957203733267296 -0.0399162144940176
208850000.0 0.07972670225421578 -0.039144017727529776
209850000.0 0.07892696937298187 -0.03800195257107952
210850000.0 0.07919688255594735 -0.03743619487925659
211850000.0 0.0785989898775298 -0.03658452856623996
212850000.0 0.07821331849163261 -0.03575932830897163
213850000.0 0.07775182392137031 -0.035106294624589356
214850000.0 0.0773679742242759 -0.034527372867703056
215840000.0 0.07694296087971719 -0.033807636913749606
216840000.0 0.08191116515418928 -0.016025796834816527
217840000.0 0.08145374053511358 -0.015361398145374676
218840000.0 0.08084741207688487 -0.01498418213951604
219840000.0 0.08027000630801583 -0.014993124405784037
220840000.0 0.07977259936251828 -0.015102031101489595
221840000.0 0.07924843892165942 -0.015361278237452862
222840000.0 0.07880044056006513 -0.01571727895935546
223840000.0 0.07841748117789414 -0.016210934938066822
224840000.0 0.07813396026553841 -0.016664906694270874
225840000.0 0.09753233434190933 -0.02155097204405261
226840000.0 0.09697822108208887 -0.02192613924800459
227840000.0 0.09618361480031368 -0.022329545922806972
228830000.0 0.09505140847124567 -0.022697039627378016
229830000.0 0.09426165816296092 -0.02310055769018382
230830000.0 0.09348317641868736 -0.023464006360209212
231830000.0 0.09268305413350553 -0.02391770009231001
232830000.0 0.09180517604927088 -0.02423883302929309
233830000.0 0.09095052997582906 -0.0253083084866073
234830000.0 0.09041089150800545 -0.025226165519313625
235830000.0 0.08980450813307526 -0.02578495691013524
236830000.0 0.08917373644941307 -0.026414464132508093
237830000.0 0.08856419494319487 -0.026958520478087653
238830000.0 0.08793418989574435 -0.02755690471991199
239830000.0 0.08740278286045176 -0.028179799961878298
240820000.0 0.08685304437402838 -0.02884166264680108
241820000.0 0.08636790794927822 -0.029620876466798774
242820000.0 0.08560977950459259 -0.03051794798060369
243820000.0 0.08496409985779727 -0.03137861020906504
244820000.0 0.08440808031416003 -0.032266076477691426
245820000.0 0.08386644991011015 -0.033086609695101445
246820000.0 0.08354305749757246 -0.03361797320624351
247820000.0 0.08313258126066343 -0.03407820763226221
248820000.0 0.08281620892203403 -0.03430359691983022
249820000.0 0.08263093145227021 -0.034480571358476805
250820000.0 0.082499742146642 -0.034527309420339505
251820000.0 0.08256458126471614 -0.03463914771553821
252810000.0 0.08245535191218925 -0.034898360633614546
253810000.0 0.08260556167448571 -0.0353365459960523
254810000.0 0.08286867424458078 -0.03577465120939617
255810000.0 0.08322097478420983 -0.036271896918908635
256810000.0 0.08379145922448286 -0.036537946621892956
257810000.0 0.08448744033471611 -0.03652597113142575
258810000.0 0.08504305683141652 -0.03630902936757315
259810000.0 0.0858619212709004 -0.03574086825227726
260810000.0 0.08651912558176406 -0.035272575642389004
261810000.0 0.0869389945779552 -0.034808324194230106
262810000.0 0.08748599785363484 -0.03460283626904237
263810000.0 0.08807583606682663 -0.03458749422299077
264800000.0 0.08873489013636927 -0.034703379868080975
265800000.0 0.08953759291239462 -0.03507137286786093
266800000.0 0.09058057998290932 -0.03546167147241789
267800000.0 0.09139416737880705 -0.03522942639745838
268800000.0 0.09230614895710641 -0.035063816704436895
269800000.0 0.09293502995735632 -0.034359272940868914
270800000.0 0.0933796899279158 -0.03347154861337664
271800000.0 0.09345176848532138 -0.03292789694416783
272800000.0 0.09322082602727765 -0.03255416980919494
273800000.0 0.092664882017042 -0.033105863580039335
274800000.0 0.09211748557881776 -0.0342764881592972
275800000.0 0.0910111109940742 -0.03559358840913158
276800000.0 0.09087123525945964 -0.03715789066483246
277790000.0 0.09035697898835035 -0.03839149104083506
278790000.0 0.0896466971875366 -0.03918431314077818
279790000.0 0.08896724916314323 -0.03961077138042323
280790000.0 0.08779095361125684 -0.039510083495478
281790000.0 0.08661793796634457 -0.03916411060756389
282790000.0 0.08550088781453585 -0.038730955487907774
283790000.0 0.0847771870955631 -0.0382427474944051
284790000.0 0.08451344215785037 -0.037786989122386754
285790000.0 0.0844501507768414 -0.03740552330799088
286790000.0 0.08494417778227163 -0.037075893461220755
287790000.0 0.08553011661540354 -0.036799699853906874
288790000.0 0.08631582001264403 -0.03660333842498091
289780000.0 0.08708048928310601 -0.03646227869390938
290780000.0 0.08777355227551208 -0.036500661064711726
291780000.0 0.0884523685321773 -0.03658392272936148
292780000.0 0.08910358711986686 -0.03703551696750843
293780000.0 0.08975273461633401 -0.03750757580206762
294780000.0 0.09043933341833504 -0.037905801069016656
295780000.0 0.09099278278622014 -0.038343315688573736
296780000.0 0.09146415421885257 -0.03869241979176367
297780000.0 0.09183472863914154 -0.03869810202044246
298780000.0 0.09195818708340445 -0.03899605706426115
299780000.0 0.09196159440101087 -0.0392818680210599
300780000.0 0.09205379670595135 -0.0393592542205563
301770000.0 0.09202172941463223 -0.039726052136150644
302770000.0 0.0920163114257335 -0.040028928540750006
303770000.0 0.09227146525517001 -0.040312411947571944
304770000.0 0.09236388097495095 -0.04067956946412116
305770000.0 0.09224857646776187 -0.04122614433521872
306770000.0 0.09218114640763936 -0.04166012685747494
307770000.0 0.09211916475511517 -0.04207824553535972
308770000.0 0.091973674633169 -0.04267324871317745
309770000.0 0.09187661544449087 -0.0428818203406744
310770000.0 0.09180914351810586 -0.0430260868280695
311770000.0 0.09176403637358564 -0.043122205529077307
312770000.0 0.09188480869530259 -0.043139809172547415
313760000.0 0.09179411898749007 -0.043058131642876134
314760000.0 0.09192993420809094 -0.04304356398943089
315760000.0 0.09201325727021727 -0.04314133220171562
316760000.0 0.09221782138952637 -0.04325687894831918
317760000.0 0.09248378099774168 -0.04351956392899359
318760000.0 0.09283421869794103 -0.043882534141221216
319760000.0 0.09310924734555488 -0.044131889045581664
320760000.0 0.09334619887217792 -0.04446387239481494
321760000.0 0.09359896177189228 -0.044764790757046945
322760000.0 0.09392280006001742 -0.04491967018020092
323760000.0 0.09411572746852287 -0.04507250577020394
324760000.0 0.09428532628769479 -0.04527516879641501
325750000.0 0.09451059519629992 -0.04536304431986831
326750000.0 0.0946590634926531 -0.045332712185661546
327750000.0 0.09495478872627332 -0.04555585857573981
328750000.0 0.09518961497468578 -0.04562765101216996
329750000.0 0.09544892279174837 -0.04564955610481194
330750000.0 0.09590549741176727 -0.04582679034068918
331750000.0 0.09611054311680221 -0.04596598371096236
332750000.0 0.09664264691932559 -0.045992697364711316
333750000.0 0.0971129086758317 -0.046154148139041194
334750000.0 0.09752958911616334 -0.046143683651581884
335750000.0 0.09794769224396785 -0.0461324532142208
336750000.0 0.09856097436885976 -0.04600162919628628
337740000.0 0.09912051235373841 -0.045989184330395796
338740000.0 0.09962393603714007 -0.0458008265716019
339740000.0 0.10035127820068546 -0.04573271225230707
340740000.0 0.1009344136319136 -0.04567971602764013
341740000.0 0.10150416700865475 -0.04566037609550338
342740000.0 0.10218611593182363 -0.04571005863245051
343740000.0 0.1028721049402753 -0.045758591365288454
344740000.0 0.10347402299398245 -0.04600469967297908
345740000.0 0.10437594710663903 -0.04623126052916012
346740000.0 0.10512380662391765 -0.0464966839974951
347740000.0 0.10579588631237861 -0.04661743884902606
348740000.0 0.10652090035398586 -0.0466264240503063
349730000.0 0.1074973569123466 -0.04674118106108056
350730000.0 0.1083898182042682 -0.04672488993137093
351730000.0 0.10921145315729426 -0.04653758140998373
352730000.0 0.11032309978245919 -0.04637556088205278
353730000.0 0.11121579120975705 -0.046750813804760455
354730000.0 0.11262004928341728 -0.04628072331824773
355730000.0 0.11429239312379257 -0.045528687202669706
356730000.0 0.11636598308626 -0.04452895776850243
357730000.0 0.11854284410273337 -0.043239812471225554
358730000.0 0.12104762306535304 -0.04142026272860058
359730000.0 0.12413509458122793 -0.0386637764547418
360730000.0 0.12717504794283999 -0.03584311244774094
361730000.0 0.13067304742559596 -0.0322173183661205
362720000.0 0.13776678121060645 -0.028906474238825336
363720000.0 0.14143843693395097 -0.026392840801838627
364720000.0 0.14487385010488252 -0.024269562157457635
365720000.0 0.1483086360004188 -0.024472559937714976
366720000.0 0.15123147820955157 -0.026067850650063597
367720000.0 0.15417954511846552 -0.027852415046335677
368720000.0 0.16163638627588828 -0.03022022952858352
369720000.0 0.16423889580126122 -0.03186531503572643
370720000.0 0.1665054874835171 -0.03439071766525211
371720000.0 0.16778095130730994 -0.03781107038857208
372720000.0 0.17386590616203443 -0.043672097051296
373720000.0 0.17387613060735194 -0.046915380633114366
374710000.0 0.17306709523096173 -0.05129766708650714
375710000.0 0.17035934785416876 -0.05446690459000144
376710000.0 0.16939284390238987 -0.05740222584163937
377710000.0 0.16796580571356995 -0.059018325471214224
378710000.0 0.16764484197891225 -0.05356678028434556
379710000.0 0.16449294288680857 -0.052876251092685594
380710000.0 0.160432813854702 -0.05138582025304339
381710000.0 0.15592634595727303 -0.049163388034653574
382710000.0 0.14469913510004456 -0.04070034402199595
383710000.0 0.14014519986958973 -0.03865505596787064
384710000.0 0.13541867087630458 -0.03661483954851572
385710000.0 0.130771810179401 -0.03555442442068464
386700000.0 0.12681936107243655 -0.03310488678057746
387700000.0 0.1191028027154719 -0.03082425781233782
388700000.0 0.1157096130213765 -0.02945099982114657
389700000.0 0.11288053418640243 -0.028458375310315896
390700000.0 0.11022281110955169 -0.027624710808322128
391700000.0 0.10395547306226224 -0.025976832666245127
392700000.0 0.10194508514585342 -0.025455565474477762
393700000.0 0.10021275696421968 -0.024967269653144282
394700000.0 0.0988321473164762 -0.022635583449053816
395700000.0 0.09756886572771047 -0.022435882451711256
396700000.0 0.09611172426117913 -0.022136140072576374
397700000.0 0.0947624457652324 -0.021964755547224227
398690000.0 0.09332817918775616 -0.022233908496478806
399690000.0 0.09196844744054614 -0.021791271479848495
