!Created with skrf (http://scikit-rf.org).
# Hz S RI R 50.0 
!freq ReS11 ImS11
25000000.0 1.0411259458741808 -0.10006563395934705
26000000.0 1.0285598403062461 -0.09306329104135048
27000000.0 1.0274409937379616 -0.09223894302877944
28000000.0 1.0213756695415106 -0.1057290785918902
29000000.0 1.0045814821440426 -0.10842291935268336
30000000.0 1.0127796483317753 -0.11915347143086127
31000000.0 1.022328696384432 -0.12860635189457967
31990000.0 1.02356956833945 -0.1374825807135211
32990000.000000004 1.0105270334790866 -0.145439141915996
33990000.0 0.9966871032544813 -0.1432696895469189
34990000.0 0.9915783014726696 -0.13812208413745947
35990000.0 1.0050770183660644 -0.1421488923417894
36990000.0 1.001854523854173 -0.14811967892328204
37990000.0 0.9952925724763447 -0.15265674210495744
38990000.0 1.0008771256925395 -0.15458623973966162
39990000.0 0.9987895454088751 -0.15283627740040212
40990000.0 0.9987636125649065 -0.16051242474354274
41990000.0 0.987320431550887 -0.17924852661590995
42990000.0 0.980927603244465 -0.18836427744034367
43980000.0 0.9772676440391208 -0.19509997523105996
44980000.0 0.9836002323236759 -0.20441005124380607
45980000.0 0.9860460822519722 -0.204020855336449
46980000.0 0.9845901865700203 -0.20533294613848815
47980000.0 0.97868929795241 -0.21088503064778844
48980000.0 0.9767471755999566 -0.21439439115216477
49980000.0 0.9896571774702941 -0.20945563578544474
50980000.0 1.0016351603089002 -0.19143450959015457
51980000.0 1.0035502704354826 -0.18762804721622497
52980000.0 1.0059443120846003 -0.20009476456884934
53980000.0 0.9884819182721925 -0.20938715566291724
54980000.0 0.9822533574888667 -0.19948466602785261
55970000.0 0.9866864031492951 -0.1950112717260347
56970000.0 0.9911722942878847 -0.19625739920770077
57970000.0 0.9922723980506994 -0.20260161479643304
58970000.0 0.9981453218231642 -0.21453052443844925
59970000.0 0.9998455635668595 -0.22862791351646505
60970000.0 1.0079129152375201 -0.25111407273833275
61970000.0 1.0173284435281031 -0.2629096002255531
62970000.0 1.0058079369918693 -0.28689154772536174
63970000.0 0.9876680970925931 -0.32549298192654524
64970000.0 0.9847991992657137 -0.35941115252330436
65970000.0 0.9906109387492178 -0.3751112132852827
66970000.0 1.0017860353420962 -0.3767461756131044
67960000.0 1.019302807137616 -0.35376237331274707
68960000.0 1.0397242680086225 -0.32363898819687004
69960000.0 1.0512482795090137 -0.307207353392977
70960000.0 1.0494476297018813 -0.3088692341758023
71960000.0 1.0532561702097354 -0.3181973812990969
72960000.0 1.0513094002494863 -0.29788697422233573
73960000.0 1.0232291182998963 -0.27858059054812745
74960000.0 0.9828175216697745 -0.2675782781110878
75960000.0 0.9435917494529144 -0.26274558394066644
76960000.0 0.9213121050730113 -0.26366001124462785
77960000.0 0.9198251883061437 -0.2688014498494161
78960000.0 0.9310360485744991 -0.2779078130256619
79960000.0 0.9380450136136359 -0.28965596154500967
80950000.0 0.9315803113073509 -0.29891837494430407
81950000.0 0.9278674557192478 -0.3066831763213066
82950000.0 0.9362569603468959 -0.317269798685286
83950000.0 0.944318957796242 -0.3290314664992078
84950000.0 0.9514224302934126 -0.3367294866635438
85950000.0 0.9567967742937097 -0.33900745293100554
86950000.0 0.9604379401265013 -0.3427522851778271
87950000.0 0.963675037805016 -0.3511300262505672
88950000.0 0.9649788795264753 -0.3646351331017685
89950000.0 0.9618077221316356 -0.37944800021954583
90950000.0 0.9549041350878084 -0.3933881213540418
91950000.0 0.9529587601627811 -0.4072579204512292
92940000.0 0.9501714737230448 -0.4167005929355181
93940000.0 0.9453669804410916 -0.4187315984187851
94940000.0 0.9468214739320681 -0.41838786041030485
95940000.0 0.9522825527732061 -0.41485498901854245
96940000.0 0.9975147689616795 -0.3023076401952039
97940000.0 0.994506399132438 -0.31604922942172337
98940000.0 0.9895929299031562 -0.33111316255793927
99940000.0 0.9817772106442583 -0.34285195049396733
100940000.0 0.9756785046412612 -0.3493434812934647
101940000.0 0.9709705212925833 -0.35186981685144103
102940000.0 0.968172308856729 -0.34913622776835895
103940000.0 0.966162977178797 -0.3442251811710271
104930000.0 0.9611525666553175 -0.3511613470511739
105930000.0 0.9530652474024303 -0.36603833622593207
106930000.0 0.9528341769245632 -0.3795640988129846
107930000.0 0.9460768849072391 -0.3868575281224532
108930000.0 0.937801689895884 -0.39152189745890525
109930000.0 0.9295718858396012 -0.3930489754607238
110930000.0 0.9220105244174268 -0.39308063185801545
111930000.0 0.9184893113616028 -0.3925270038316369
112930000.0 0.9231413100307482 -0.39337233070784033
113930000.0 0.9326062269788183 -0.3918400409364605
114930000.0 0.9362452234965473 -0.3799794273215067
115930000.0 0.9399887019810513 -0.36101610197421635
116920000.0 0.9431089659737054 -0.3393541934003517
117920000.0 0.9404935131810634 -0.326042783323153
118920000.0 0.9340721228938392 -0.3271074053599144
119920000.0 0.9263016283490466 -0.33202883847514475
120920000.0 0.9184747636251925 -0.34030095518464215
121920000.0 0.9078938978500417 -0.3554341906780208
122920000.0 0.9004323938174174 -0.36507859489452227
123920000.0 0.8998015459989328 -0.3725260274381208
124920000.0 0.9080526098905634 -0.3791019835508454
125920000.0 0.9212072616127102 -0.38610522526192925
126920000.0 0.933724704560788 -0.39518916257830583
127920000.0 0.9432331684557941 -0.40583012002080665
128919999.99999999 0.9468953586234187 -0.41526384268328187
129910000.0 0.9499405065087033 -0.4231394396554479
130910000.0 0.946546829008546 -0.427780110247888
131910000.0 0.9408875748121267 -0.4315667698071311
132910000.0 0.9333788600234171 -0.43365611818429983
133910000.0 0.9271980474290572 -0.4357134488354314
134910000.0 0.9236953023921134 -0.4376153648577048
135910000.0 0.9214849542062962 -0.43952577690588784
136910000.0 0.9185220156471163 -0.44027914166988547
137910000.0 0.9157183450943954 -0.4407054778635943
138910000.0 0.9108975994606225 -0.4399529015447331
139910000.0 0.9071438407602059 -0.4397030191407805
140910000.0 0.9019037381143382 -0.4398878448277329
141900000.0 0.8959949284467192 -0.4414670452257019
142900000.0 0.8897200617916176 -0.4437919628637489
143900000.0 0.8833070270745133 -0.446384006578959
144900000.0 0.8773014675625798 -0.4481652622170012
145900000.0 0.8734175428044753 -0.4482976907651468
146900000.0 0.8719545269991893 -0.44620167453916326
147900000.0 0.8711888579488375 -0.4427443503956161
148900000.0 0.8709569616307935 -0.4407154807928903
149900000.0 0.8701851856736154 -0.4397528127146626
150900000.0 0.869490364727871 -0.43863990806388214
151900000.0 0.8679484028222633 -0.43672239045440026
152900000.0 0.865259413982839 -0.43461264758397733
153890000.0 0.8610572729456106 -0.43306669173165974
154890000.0 0.8552111842945828 -0.43237301805389977
155890000.0 0.850529383580513 -0.43187155532450194
156890000.0 0.8482722037282567 -0.4314705891253853
157890000.0 0.8486484098026621 -0.43073016778211975
158890000.0 0.8497731491862627 -0.428506937890464
159890000.0 0.8526158136468122 -0.42528438073549124
160890000.0 0.8567278602681979 -0.4219338962399027
161890000.0 0.8604667502329143 -0.41930592872699435
162890000.0 0.8646884430702102 -0.4181929262620054
163890000.0 0.8669011070531194 -0.4187031095769713
164890000.0 0.8658754354562488 -0.4208200965410288
165890000.0 0.8642086550258985 -0.4267432335237008
166880000.0 0.8604542851862466 -0.4367222212945615
167880000.0 0.8539991364147291 -0.45159691739413793
168880000.0 0.8477574001949795 -0.4724372836022691
169880000.0 0.8405279791171429 -0.49629515446446165
170880000.0 0.8357232674695676 -0.5216096121195227
171880000.0 0.8328245892609507 -0.5451927626217138
172880000.0 0.8349314253122557 -0.5669928598140916
173880000.0 0.8411903513086398 -0.5868225171961877
174880000.0 0.8496956233445293 -0.6016180363738736
175880000.0 0.8618984846641999 -0.6136520884024658
176880000.0 0.875839035157392 -0.6194403711730487
177880000.0 0.8878031401287139 -0.6174989679323085
178870000.0 0.8927995171477676 -0.6124576619888459
179870000.0 0.8856004217845505 -0.6141339485611987
180870000.0 0.8650775234042158 -0.6239135872252338
181870000.0 0.8401052720838815 -0.635136164203605
182870000.0 0.816736352772184 -0.6417853631006394
183870000.0 0.7979817123799746 -0.6443501071081982
184870000.0 0.7828090038667584 -0.6443806030535114
185870000.0 0.7727082997537583 -0.6456262612598217
186870000.0 0.7707892896406371 -0.6479160877088648
187870000.0 0.7721323606861384 -0.6571361470104387
188870000.0 0.7780100259281771 -0.6701397585179498
189870000.0 0.7804511809424828 -0.678196751236794
190860000.0 0.7765794684080647 -0.6772148008171204
191860000.0 0.7700450152345226 -0.6703343224882402
192860000.0 0.7636105856947835 -0.6616935522751826
193860000.0 0.7580953836866152 -0.6539087301076071
194860000.0 0.7538958490586024 -0.6482238374428604
195860000.0 0.7498285013934884 -0.6424537774932781
196860000.0 0.7460013734140515 -0.6364701322513205
197860000.0 0.7426281697209481 -0.6300173528068983
198860000.0 0.7383009614906837 -0.6230296871409283
199860000.0 0.7332370870011105 -0.6170056488636929
200860000.0 0.7281895183982192 -0.6127582118529049
201860000.0 0.7229453360420721 -0.6105037318842608
202860000.0 0.7184311941575973 -0.6107845259330308
203850000.0 0.7132914326619874 -0.6117967248274319
204850000.0 0.7088737299181302 -0.6136127051022021
205850000.0 0.7051619728039014 -0.6162364913366821
206850000.0 0.7021420648577557 -0.6196751906450041
207850000.0 0.7002372605020005 -0.6234503154506682
208850000.0 0.7001429722230769 -0.6284229692472031
209850000.0 0.7000283279615276 -0.6334124076659168
210850000.0 0.7000046042489455 -0.6382964425179147
211850000.0 0.6999619804463053 -0.6431972478579084
212850000.0 0.6981777327576181 -0.64674605091924
213850000.0 0.6970657387759427 -0.6511625207711212
214850000.0 0.6949032666947622 -0.6550727358796563
215840000.0 0.6923754266592632 -0.6593402081085707
216840000.0 0.7216817818654432 -0.6271272974394984
217840000.0 0.7213533198687865 -0.6275050831543362
218840000.0 0.722074629361393 -0.6283539764771181
219840000.0 0.7227966214289577 -0.6292039737115976
220840000.0 0.7236292509999825 -0.6299287887137526
221840000.0 0.7243527587256406 -0.6307808716831202
222840000.0 0.7245254702792661 -0.6322665710401199
223840000.0 0.7247559316129053 -0.6353701491035332
224840000.0 0.7244224094866871 -0.6391138188386273
225840000.0 0.7543664300576547 -0.670464523488146
226840000.0 0.7516689421710974 -0.6734873342754862
227840000.0 0.7487231532857179 -0.6767606872359005
228830000.0 0.7468597958487594 -0.6805438480013095
229830000.0 0.7455980910144886 -0.6853724629184907
230830000.0 0.7430948667660461 -0.6898016505579164
231830000.0 0.7410562042985044 -0.6954114665664426
232830000.0 0.7386152941852738 -0.7014099108321852
233830000.0 0.7362565776354012 -0.7072790688843481
234830000.0 0.7333870547824166 -0.7119435701643584
235830000.0 0.7308649243139562 -0.71621575691858
236830000.0 0.7286969042500451 -0.7200994725652303
237830000.0 0.7263837498463358 -0.724105325061485
238830000.0 0.7239233644922667 -0.7282320088635598
239830000.0 0.7214414224405005 -0.7323522261867482
240820000.0 0.7189379284585367 -0.7364658717150694
241820000.0 0.7162836225427447 -0.7406978663907217
242820000.0 0.7127852258971155 -0.7440650367686433
243820000.0 0.7087154461289519 -0.7463083421720071
244820000.0 0.7055831086587866 -0.7492704464695589
245820000.0 0.7028321559235821 -0.751851505137217
246820000.0 0.7004666803089861 -0.7540558036075299
247820000.0 0.6979622897502177 -0.7563744887712186
248820000.0 0.6953177978454308 -0.7588062237334837
249820000.0 0.6914696181038565 -0.7607149771451627
250820000.0 0.6876104529199306 -0.7642050603397668
251820000.0 0.6834656613713079 -0.7679141872240278
252810000.0 0.6778464060313134 -0.7713048335267262
253810000.0 0.6729868066132079 -0.7755486151852865
254810000.0 0.6670599864764383 -0.7790974574886489
255810000.0 0.6621516377947978 -0.7832733127005476
256810000.0 0.6572171485002826 -0.7874182456232396
257810000.0 0.6525930719803843 -0.7927857079907935
258810000.0 0.6486735823383873 -0.7990471254898377
259810000.0 0.643359873495665 -0.8033316863867196
260810000.0 0.6390350183886874 -0.8082881927083275
261810000.0 0.6356671539307004 -0.812447098362693
262810000.0 0.6332537803727358 -0.814329581845063
263810000.0 0.631388813029983 -0.8142749682873185
264800000.0 0.6315309212047917 -0.8141647577492848
265800000.0 0.6299523066960102 -0.8138880859587913
266800000.0 0.630361945477911 -0.812072242418716
267800000.0 0.6301840431188235 -0.8092156360461875
268800000.0 0.6294389702513558 -0.8068055098843911
269800000.0 0.6262665884274988 -0.8033172325036942
270800000.0 0.6209976936150932 -0.8000086191886576
271800000.0 0.6138173818765152 -0.7982102526546121
272800000.0 0.6061303391716486 -0.7968131838853836
273800000.0 0.5993232082092413 -0.7961957928315849
274800000.0 0.5940668714578352 -0.7958417165916288
275800000.0 0.5904809495261005 -0.7956633655427019
276800000.0 0.5893694186633676 -0.7964870566207518
277790000.0 0.5894915088715695 -0.7978163113959592
278790000.0 0.5904316475471405 -0.7999647268671964
279790000.0 0.5916527820090542 -0.8019121111205892
280790000.0 0.5930166825310369 -0.8037607094542734
281790000.0 0.5923343397079626 -0.8028358782181193
282790000.0 0.5909720085309244 -0.8009894069372533
283790000.0 0.5887950584252246 -0.7983304359318704
284790000.0 0.5860704442586875 -0.796089602571366
285790000.0 0.5830800312303173 -0.7940577084985333
286790000.0 0.5806080374841438 -0.7944634435076671
287790000.0 0.5770569623756181 -0.7942507700958149
288790000.0 0.5737590141791886 -0.7952439072585153
289780000.0 0.5712578544870063 -0.7970424970292156
290780000.0 0.5688904707458319 -0.7987339423601894
291780000.0 0.5673105340969211 -0.8012414002824846
292780000.0 0.5666543091521372 -0.8044754503280775
293780000.0 0.5650557535098625 -0.8069832480732738
294780000.0 0.5643223319342626 -0.8116511113995265
295780000.0 0.561848142383071 -0.8147494402019502
296780000.0 0.559574776468911 -0.819077026476083
297780000.0 0.5568460554556952 -0.8236962821212511
298780000.0 0.5527286818546284 -0.82784234558762
299780000.0 0.5487279242983473 -0.8318736163120941
300780000.0 0.5445541817185445 -0.8359821532331736
301770000.0 0.5406452171501813 -0.8398826185814222
302770000.0 0.5374467997386615 -0.8432976564954222
303770000.0 0.5352883939431858 -0.8473972655066335
304770000.0 0.5330887681117353 -0.8501458899300265
305770000.0 0.532085028660453 -0.8535015972658184
306770000.0 0.5307578329499791 -0.855691246010453
307770000.0 0.528964514623624 -0.8568009850634355
308770000.0 0.5270191349593512 -0.8579989610269797
309770000.0 0.525071042183609 -0.8591925199842572
310770000.0 0.5222183123296655 -0.8595740157353843
311770000.0 0.5190676670942728 -0.8601288525877933
312770000.0 0.5156185533744412 -0.8608537484775524
313760000.0 0.511281278276719 -0.8607535608765287
314760000.0 0.5073879725734074 -0.861717729472852
315760000.0 0.5027657423758706 -0.8617610026247223
316760000.0 0.4993023704446868 -0.8637722849338497
317760000.0 0.4922387946101657 -0.8664969806650598
318760000.0 0.48834551225592326 -0.8673814648424691
319760000.0 0.48516312014063867 -0.8691655145875081
320760000.0 0.4819742105316714 -0.8709378882992402
321760000.0 0.47908342635828527 -0.8725313836656955
322760000.0 0.476034804708885 -0.8741983811461455
323760000.0 0.47243615727780947 -0.8748469420152967
324760000.0 0.46883941116261674 -0.8754822055141392
325750000.0 0.4652446105271015 -0.8761041936531404
326750000.0 0.46180480764707943 -0.8766323417796246
327750000.0 0.4585203165209414 -0.8770684720968112
328750000.0 0.45539139687754054 -0.8774143243677602
329750000.0 0.4525714314042104 -0.8775925804119649
330750000.0 0.44960104874676804 -0.8778417401461219
331750000.0 0.44760813344736594 -0.8788595921128302
332750000.0 0.44556028748485293 -0.8786273370786415
333750000.0 0.44336189080469934 -0.8784691742134899
334750000.0 0.4418279983577726 -0.8792416483131433
335750000.0 0.4407534725653447 -0.8797807867206688
336750000.0 0.4388654194972953 -0.8794589373923472
337740000.0 0.4371334774432466 -0.8790582156617075
338740000.0 0.43571077087991267 -0.8785035017135087
339740000.0 0.43463715146882115 -0.8790351670705407
340740000.0 0.4332173427290421 -0.8784778685173127
341740000.0 0.43245056130884174 -0.8788555874201409
342740000.0 0.43199033434098005 -0.8790818975225809
343740000.0 0.4310334575619434 -0.8782962084382698
344740000.0 0.43106952523366243 -0.8795337946496189
345740000.0 0.43106952523366243 -0.8795337946496189
346740000.0 0.4318734407416968 -0.8803962798453846
347740000.0 0.4327951526004383 -0.8799435403872387
348740000.0 0.4341768301735457 -0.8792626220442425
349730000.0 0.4369800461843019 -0.8791344964570187
350730000.0 0.4407063901027008 -0.8785378516105379
351730000.0 0.44504761242297347 -0.8776163620499904
352730000.0 0.4500016938346349 -0.8763609089818242
353730000.0 0.4640937489683753 -0.8702667498792792
354730000.0 0.47024504864172345 -0.8682506734493963
355730000.0 0.4763902717698313 -0.8661925478315298
356730000.0 0.4817748931488458 -0.8645131217859664
357730000.0 0.4865537749823139 -0.8631415683828721
358730000.0 0.4902782077355701 -0.8623447018337452
359730000.0 0.5014818389299673 -0.8585272621648989
360730000.0 0.5030883651220663 -0.8602430733808557
361730000.0 0.5036232016357609 -0.8639234171928353
362720000.0 0.50392235839623 -0.8717646714825401
363720000.0 0.5014660602175889 -0.8798771031804711
364720000.0 0.49688050754205165 -0.8905222776852988
365720000.0 0.49027753399283014 -0.9022277074293208
366720000.0 0.4805223177652825 -0.9195452766228077
367720000.0 0.47103673966601817 -0.9365523099738363
368720000.0 0.4621445955500031 -0.9585524169493713
369720000.0 0.4517115515456085 -0.979838100713965
370720000.0 0.44025490628346015 -1.0000818576284718
371720000.0 0.4287931358741396 -1.0215555186996097
372720000.0 0.41704518863305395 -1.041632719547628
373720000.0 0.4060203652253757 -1.062705652790197
374710000.0 0.3883075243977168 -1.083309190254925
375710000.0 0.37621343636498344 -1.098829528584896
376710000.0 0.36537164123719573 -1.1152188272592893
377710000.0 0.3537642044199871 -1.1274835913338301
378710000.0 0.33476739602391686 -1.1403807851687613
379710000.0 0.3239240834045824 -1.1477813273064348
380710000.0 0.31361270787290063 -1.1534908009913774
381710000.0 0.3038844466201584 -1.1575155041622136
382710000.0 0.29458162268254484 -1.1599179138418643
383710000.0 0.2827208150345597 -1.1501663554930444
384710000.0 0.2742531730623365 -1.149414441409702
385710000.0 0.2662112313396417 -1.1485139143789183
386700000.0 0.2580967225617429 -1.1461982142743774
387700000.0 0.24696548426057227 -1.1307894308888264
388700000.0 0.2389503750296646 -1.127074609776532
389700000.0 0.23119088312060834 -1.123287856141137
390700000.0 0.22381784219036188 -1.118067597039884
391700000.0 0.21695917460263703 -1.114081805007548
392700000.0 0.20870484489852584 -1.0971899570989634
393700000.0 0.20355086164637506 -1.0929384612902633
394700000.0 0.199236101055258 -1.0898367800706243
395700000.0 0.19529050971354628 -1.0853790201870457
396700000.0 0.1915641083307359 -1.0808973738386303
397700000.0 0.18805438894502186 -1.0763938179229697
398690000.0 0.18515896212606028 -1.073072647546083
399690000.0 0.1820707193164892 -1.0685259978620576
400690000.0 0.17880018129889952 -1.0627695465188223
401690000.0 0.17576264791887813 -1.0582570011773984
402690000.0 0.1727484849908043 -1.0537588663895314
403690000.0 0.16958640981651144 -1.0505431037521038
404690000.0 0.1662515627129707 -1.046125648379514
405690000.0 0.1629484684439335 -1.042948862707806
406690000.0 0.15966506238002773 -1.0397744235327429
407690000.0 0.15622034682290226 -1.036629655504343
408690000.0 0.1529722878257356 -1.034676686424051
409690000.0 0.14973715296056964 -1.0327191672263552
410680000.0 0.14687471831519278 -1.0307059382486532
411680000.0 0.14418969253487643 -1.029875372977059
412680000.0 0.14168939041653492 -1.0290144988644327
413680000.0 0.13921299919923555 -1.0269416503361808
