!Created with skrf (http://scikit-rf.org).
# Hz S RI R 50.0 
!freq ReS11 ImS11
25000000.0 1.0398403758351262 -0.100857965633955
26000000.0 1.027212544539184 -0.09474917712387404
27000000.0 1.0239623829038682 -0.09120607222926783
28000000.0 1.020163517891493 -0.10596353422983135
29000000.0 1.004332892745661 -0.11070196139550949
30000000.0 1.011593525937868 -0.11919292805617361
31000000.0 1.0209493325972576 -0.13006223681954446
31990000.0 1.0233523485173956 -0.13909022975819804
32990000.000000004 1.0102202103422737 -0.14755526425484233
33990000.0 0.9941942351414771 -0.1443284756662307
34990000.0 0.9875989128577038 -0.1416114567180511
35990000.0 0.9934242981056279 -0.14156211634877802
36990000.0 1.00057226882206 -0.14882246854903897
37990000.0 0.9913238065133246 -0.15559170765737096
38990000.0 0.9969098384312514 -0.15735997614734637
39990000.0 0.9973183890606448 -0.15474953601092747
40990000.0 0.9964105587505903 -0.16049107908059432
41990000.0 0.9862156247319273 -0.17887015349970875
42990000.0 0.9781096226888795 -0.1908339970349927
43980000.0 0.9721970124332194 -0.197089002171751
44980000.0 0.9804388199830151 -0.20821986108128082
45980000.0 0.9833856353385693 -0.2054399627298519
46980000.0 0.9844465972040993 -0.20602026966579903
47980000.0 0.9776366571268191 -0.21030113323969082
48980000.0 0.9730426201230166 -0.2151838930893033
49980000.0 0.9864225727706748 -0.21345232718946813
50980000.0 0.9988617936532842 -0.19343547725039364
51980000.0 1.0000901095222894 -0.18698112074495352
52980000.0 1.0047519440723323 -0.2000398948589788
53980000.0 0.9878933455974377 -0.2121466979049671
54980000.0 0.9784130516285273 -0.20101732319754506
55970000.0 0.9836556790224479 -0.19245076098909597
56970000.0 0.9860576649744323 -0.1922060545920831
57970000.0 0.9880637978067253 -0.19994655369484648
58970000.0 0.9971834439429147 -0.21341355382263655
59970000.0 1.0004801138152424 -0.22583493016684292
60970000.0 1.0081811230250193 -0.24502252305828154
61970000.0 1.019185958141817 -0.2605451337181577
62970000.0 1.0081265637472767 -0.2875529010454058
63970000.0 0.9851695690495047 -0.32543222619870993
64970000.0 0.9821581764522958 -0.35961324044033016
65970000.0 0.9853628038274539 -0.3819992049911359
66970000.0 0.9988489147321871 -0.3810238579513148
67960000.0 1.01588968730029 -0.35974540591543586
68960000.0 1.03625650773157 -0.32633278388127124
69960000.0 1.0512482795090137 -0.307207353392977
70960000.0 1.052405575193636 -0.30774492671490983
71960000.0 1.0541352970036015 -0.3196679935121843
72960000.0 1.0521020642398793 -0.3042705203787647
73960000.0 1.023034383019485 -0.2792948712863666
74960000.0 0.9830506535089817 -0.2667205062487259
75960000.0 0.9437749505118297 -0.26208676865177044
76960000.0 0.916895613299546 -0.26308878148697457
77960000.0 0.9129789638623971 -0.2687043215933527
78960000.0 0.9252567977763307 -0.2777663747930645
79960000.0 0.9358371174664846 -0.2891531101128853
80950000.0 0.9326012050041907 -0.2994254897978202
81950000.0 0.9244011822454836 -0.30643256609578773
82950000.0 0.9317345448464388 -0.31646262686302884
83950000.0 0.9408912062477769 -0.3283896868455785
84950000.0 0.9497392203151844 -0.3380001571978939
85950000.0 0.9548060828272001 -0.34111822338106135
86950000.0 0.9589737890521594 -0.3433623271836284
87950000.0 0.9623824326899337 -0.35122995587239897
88950000.0 0.9638049635274687 -0.36438379420404976
89950000.0 0.9609654029832196 -0.3783406077855722
90950000.0 0.9553840365681818 -0.39222119256988736
91950000.0 0.950379936311984 -0.404195618340782
92940000.0 0.948854788618418 -0.41375584026512996
93940000.0 0.9460235559277913 -0.417246103459811
94940000.0 0.9459507183364333 -0.4174112093624749
95940000.0 0.950025959891408 -0.41703223995543065
96940000.0 0.9974091829182412 -0.30265582011161135
97940000.0 0.9960928519220934 -0.31502280361660634
98940000.0 0.9902842407627934 -0.32903983927526326
99940000.0 0.982493124287667 -0.3407949706574282
100940000.0 0.9759221546132826 -0.34866224412203417
101940000.0 0.9707246332192218 -0.35254759634929445
102940000.0 0.9684920285169422 -0.35173675937817883
103940000.0 0.9667938285648555 -0.3459719489209604
104930000.0 0.964347382657285 -0.349279257021179
105930000.0 0.9502875525651399 -0.3634497683574719
106930000.0 0.9501793512791178 -0.37985227188170684
107930000.0 0.9449928874462227 -0.3894979613513409
108930000.0 0.9367046993412211 -0.3941392038271119
109930000.0 0.9286087119674507 -0.3953191724572303
110930000.0 0.9213230653385813 -0.3946892442840508
111930000.0 0.9164717113262867 -0.3943158882041075
112930000.0 0.9187912101488983 -0.3947438563842672
113930000.0 0.9298165226581884 -0.3954500194708741
114930000.0 0.9358569430960987 -0.38707067611772566
115930000.0 0.9390266157423081 -0.36989242082214235
116920000.0 0.9418005271164517 -0.3463285087528575
117920000.0 0.9395793640743315 -0.328667861979906
118920000.0 0.9335661833191489 -0.32510214136287674
119920000.0 0.92762701062797 -0.3283077602108502
120920000.0 0.9191266163211633 -0.33526159109694237
121920000.0 0.9093056720153269 -0.3486856150483586
122920000.0 0.9008777493480932 -0.36397823700798043
123920000.0 0.8995412545147607 -0.3731541165884515
124920000.0 0.9050372528179305 -0.3804426298875351
125920000.0 0.916817681423116 -0.38765614134527693
126920000.0 0.9296093380644075 -0.3959368160339907
127920000.0 0.939769087737823 -0.4049229677152426
128919999.99999999 0.9460951771210743 -0.4141256295600417
129910000.0 0.9499405065087033 -0.4231394396554479
130910000.0 0.9518610600081883 -0.4305820001914207
131910000.0 0.9429054947307755 -0.4328907964329418
132910000.0 0.9353028070385013 -0.4351455818116693
133910000.0 0.9281138139150987 -0.43653937078251315
134910000.0 0.9224798337876179 -0.4374338643137647
135910000.0 0.9192124710403283 -0.43883578808245133
136910000.0 0.917081013363853 -0.4405730150688671
137910000.0 0.9129974352919665 -0.44096709772585646
138910000.0 0.9098198735379964 -0.44217732867714793
139910000.0 0.9048700527761241 -0.4417256765523302
140910000.0 0.9007490249714755 -0.4422475131244272
141900000.0 0.8941157402457807 -0.442676473732529
142900000.0 0.8881540897285994 -0.44436673877504995
143900000.0 0.8819791762209512 -0.44648623009945443
144900000.0 0.8759010365397365 -0.4484141282897588
145900000.0 0.8719431679802652 -0.4486952085728171
146900000.0 0.870484028783304 -0.4466000749306166
147900000.0 0.8708021589408199 -0.44350443741347495
148900000.0 0.8685697731192764 -0.44046000104938665
149900000.0 0.8676471437298326 -0.4398017682357089
150900000.0 0.8665721180754428 -0.43944697115825493
151900000.0 0.8645790575107145 -0.4384362711712187
152900000.0 0.86159805820326 -0.43692457804220936
153890000.0 0.8581708976657573 -0.4363170106458121
154890000.0 0.8522585752265334 -0.4357474166014517
155890000.0 0.8475085085648104 -0.4353732399774202
156890000.0 0.8453317405883525 -0.4348145835596683
157890000.0 0.8457108659676852 -0.4340767269809448
158890000.0 0.8475934050767838 -0.4328025191337768
159890000.0 0.8500771282737133 -0.4303363872183046
160890000.0 0.8530771708082902 -0.4268168380909719
161890000.0 0.8581114961593076 -0.4241051170184515
162890000.0 0.8617891046722033 -0.42162674348462953
163890000.0 0.8646589272468209 -0.4207886803023575
164890000.0 0.8635906545611884 -0.420455239602673
165890000.0 0.8630368446388985 -0.4241056221437725
166880000.0 0.8594536217987707 -0.43132081553664686
167880000.0 0.854175721545971 -0.444087446457079
168880000.0 0.8480147512269615 -0.4627367313046
169880000.0 0.8400625014221144 -0.48598826140891666
170880000.0 0.8329642383067635 -0.5110412544242091
171880000.0 0.8292409494221741 -0.5360495177861822
172880000.0 0.8290375725550417 -0.5591929034707469
173880000.0 0.8331269746209059 -0.5799013404025138
174880000.0 0.8411766624704498 -0.5971305056178182
175880000.0 0.8533837474883489 -0.6109627558731848
176880000.0 0.8672253344391242 -0.618814216852897
177880000.0 0.8813996610018048 -0.6201477657996088
178870000.0 0.8915746234040737 -0.6164351108116847
179870000.0 0.8889291980617343 -0.6136892518973137
180870000.0 0.8727746835722222 -0.6216252675143523
181870000.0 0.8468697821204819 -0.6342313896350126
182870000.0 0.8212933318658083 -0.6437447913313105
183870000.0 0.799612895652542 -0.6479760352693962
184870000.0 0.782354291601265 -0.6486009313703459
185870000.0 0.770110370991735 -0.6487229009582226
186870000.0 0.7632642935241915 -0.6514286507997797
187870000.0 0.7628903850372735 -0.6589741673907833
188870000.0 0.7689911069712818 -0.6715430788805634
189870000.0 0.7750432626557233 -0.682571653558972
190860000.0 0.7738507705289139 -0.6839233189342677
191860000.0 0.7684676229348414 -0.6774953440085008
192860000.0 0.7617713451490675 -0.6673502408489774
193860000.0 0.7567459728890426 -0.6589895305450768
194860000.0 0.7510602714249696 -0.6515071475770545
195860000.0 0.7459334128119669 -0.6452368304953282
196860000.0 0.7405043322781283 -0.6394117649622718
197860000.0 0.7361819984484053 -0.6341111428183828
198860000.0 0.7305281159117325 -0.6270235204853192
199860000.0 0.72585721456321 -0.6205982141631154
200860000.0 0.7208898661160066 -0.6146109301273405
201860000.0 0.7168586548016648 -0.6109580027087855
202860000.0 0.7136425982396292 -0.6097238022135967
203850000.0 0.7106191966441548 -0.6099353887949532
204850000.0 0.7069629528628628 -0.610880308790137
205850000.0 0.7034803852361053 -0.6132527517623882
206850000.0 0.6995615725830326 -0.6160958005468437
207850000.0 0.6961097517769249 -0.6199932602596335
208850000.0 0.694958193338181 -0.6228938107480376
209850000.0 0.6936104296741525 -0.6276052478068309
210850000.0 0.6925683085328892 -0.631958586338359
211850000.0 0.6923021006229806 -0.637050556317035
212850000.0 0.6922376846962082 -0.6419173825502613
213850000.0 0.6913578809564441 -0.6460565346693811
214850000.0 0.6909145733340855 -0.6513126668202728
215840000.0 0.6897667272712452 -0.6557091297577881
216840000.0 0.7185386248601143 -0.6257178076116433
217840000.0 0.7197570115446755 -0.6276628742312129
218840000.0 0.7202570187637557 -0.6287631258206839
219840000.0 0.719927700444704 -0.6291401653071044
220840000.0 0.7203171208792628 -0.6303679365975156
221840000.0 0.7207061316804553 -0.6315973941062257
222840000.0 0.7208737884385337 -0.6330802104752979
223840000.0 0.7207077274142489 -0.6349423586438
224840000.0 0.7202050170763921 -0.6371835742674291
225840000.0 0.7531476796225968 -0.6700875058899349
226840000.0 0.7511561777424599 -0.672319187224367
227840000.0 0.74954941345534 -0.6758454444936897
228830000.0 0.7475720500579447 -0.6797613652450701
229830000.0 0.7448372971000523 -0.6827568268105184
230830000.0 0.743801237029165 -0.687322083193383
231830000.0 0.7418898045805663 -0.6910975444797086
232830000.0 0.7397184122354771 -0.695127895456254
233830000.0 0.7380099327989766 -0.7003452761098583
234830000.0 0.7343328338062045 -0.7041998692654614
235830000.0 0.7318483155517382 -0.7084676836963671
236830000.0 0.7298382288511379 -0.7122192959591122
237830000.0 0.7281855453137409 -0.7155859424202196
238830000.0 0.7260171034496598 -0.7194577018278184
239830000.0 0.72382994605975 -0.7233247937393262
240820000.0 0.7205401609395546 -0.72660197118099
241820000.0 0.7180617618333078 -0.7307049574521635
242820000.0 0.715305355469665 -0.7350511018015272
243820000.0 0.7117046909901443 -0.7385379520687113
244820000.0 0.708216523504473 -0.7418835688020469
245820000.0 0.7052327138006727 -0.744720547056788
246820000.0 0.7023680004185545 -0.7474229497488449
247820000.0 0.6998855947417114 -0.7497479763869082
248820000.0 0.6979359961805647 -0.7531747749537964
249820000.0 0.6947749913159095 -0.7560916662900317
250820000.0 0.6908065988943023 -0.7597191186980524
251820000.0 0.6868098023738121 -0.7649247051683609
252810000.0 0.6814529268282785 -0.769700862498433
253810000.0 0.6754199393833225 -0.7734305410796033
254810000.0 0.6701397585179498 -0.7780100259281771
255810000.0 0.6649650998682965 -0.7824374175283321
256810000.0 0.6597611916686505 -0.7868303923713299
257810000.0 0.6550057152420287 -0.7923288598895897
258810000.0 0.6496493182075613 -0.7982540250632877
259810000.0 0.6452644758855683 -0.8048458078318101
260810000.0 0.6407909034370672 -0.8099278605546083
261810000.0 0.6373926738306654 -0.8126048858930475
262810000.0 0.6355472927526448 -0.8140489910963846
263810000.0 0.6348160129308309 -0.8131123218540716
264800000.0 0.6352189687262039 -0.8112905884879613
265800000.0 0.6361838817826244 -0.8090264481074032
266800000.0 0.6374245204772752 -0.806540445302016
267800000.0 0.6373619564903814 -0.8035742717645806
268800000.0 0.6358629745825265 -0.8002490217275252
269800000.0 0.6290141164019389 -0.7981871003270381
270800000.0 0.6220519161684487 -0.7947595873251725
271800000.0 0.6133519102611001 -0.7927264499544937
272800000.0 0.6045905588720946 -0.7922034489597115
273800000.0 0.5971227183970947 -0.792120928226996
274800000.0 0.592295383746431 -0.7928910163454791
275800000.0 0.589676937672624 -0.7934219118053439
276800000.0 0.5898015243936547 -0.7947478513538869
277790000.0 0.5918560792708887 -0.796063745683237
278790000.0 0.5947400064852293 -0.7981956336504961
279790000.0 0.5968089595478269 -0.7995151550502138
280790000.0 0.5977758254559828 -0.8002275465909504
281790000.0 0.5977758254559828 -0.8002275465909504
282790000.0 0.5954363370307385 -0.7976763212206969
283790000.0 0.593244570459163 -0.795029550005443
284790000.0 0.5899662302122258 -0.7917887880783372
285790000.0 0.5864299101205827 -0.7887653893939431
286790000.0 0.5838442972693498 -0.787869351434439
287790000.0 0.5801666530968937 -0.7877821563917229
288790000.0 0.5774132456240078 -0.7898025165019378
289780000.0 0.5742381313498907 -0.792114032067751
290780000.0 0.5714339355716241 -0.7955274280583028
291780000.0 0.5688904707458319 -0.7987339423601894
292780000.0 0.5667510238706996 -0.8016372624606992
293780000.0 0.5653899435078383 -0.8053645559878163
294780000.0 0.5642957377678635 -0.8088989702762563
295780000.0 0.5630466976695064 -0.8125365451469085
296780000.0 0.5617171950288875 -0.8176092578793446
297780000.0 0.5591440752129448 -0.8221380649326483
298780000.0 0.5563993730052509 -0.8267622307170892
299780000.0 0.5525538217974102 -0.8307163723971033
300780000.0 0.5482453794319816 -0.8349413558771873
301770000.0 0.5440533998273548 -0.83905059331145
302770000.0 0.5398329662169421 -0.8431403244201511
303770000.0 0.5361754926176477 -0.8468362482762637
304770000.0 0.5329403815440666 -0.8502389185231813
305770000.0 0.5304308501496271 -0.8531682127729726
306770000.0 0.5285052320195355 -0.8557228955613352
307770000.0 0.5273186009823997 -0.8578149443759092
308770000.0 0.5265763930482755 -0.8596313135030409
309770000.0 0.5246210980770956 -0.8594673287502335
310770000.0 0.5231202463252416 -0.8603816557907881
311770000.0 0.5210176119348434 -0.8603023319238484
312770000.0 0.5183168655197852 -0.8605814970091035
313760000.0 0.5148751848783073 -0.8599531000437896
314760000.0 0.5108430318658599 -0.8596740061174911
315760000.0 0.506821098047355 -0.8593822152718779
316760000.0 0.5023595208881362 -0.8593409432034587
317760000.0 0.49848196432830866 -0.8602725300137914
318760000.0 0.4949059062816123 -0.861015464180979
319760000.0 0.49148178977984436 -0.8616593039455529
320760000.0 0.48801891700838657 -0.8636252905068815
321760000.0 0.4851523490472952 -0.8652388710495069
322760000.0 0.4819778313786939 -0.8670112316577134
323760000.0 0.4782459209690803 -0.8677723100539799
324760000.0 0.47521391668908747 -0.8694364130889627
325750000.0 0.47178467378952127 -0.8700052913551813
326750000.0 0.46866136619389254 -0.8703986125868336
327750000.0 0.4660767823966232 -0.871785325562791
328750000.0 0.45990756630330626 -0.8737703749695094
329750000.0 0.457244446423826 -0.8738848551105197
330750000.0 0.4548891726506861 -0.8738339704146685
331750000.0 0.45253672053605926 -0.8737782171854124
332750000.0 0.45116363519181385 -0.8744879819310023
333750000.0 0.4486025436844308 -0.8732610041813552
334750000.0 0.44707773322242694 -0.8740426328736298
335750000.0 0.4456488253147537 -0.8735040943689072
336750000.0 0.4442761790590429 -0.8742030399766189
337740000.0 0.44203613015675247 -0.8728104782430645
338740000.0 0.441121882954923 -0.8732728987396481
339740000.0 0.43954830978117854 -0.8728057455069513
340740000.0 0.4384816486267563 -0.8733421035533543
341740000.0 0.43771934700189963 -0.8737244183846911
342740000.0 0.4369567120347188 -0.8741060678368752
343740000.0 0.4361937443059935 -0.8744870516192641
344740000.0 0.4357358041849165 -0.8747153222464782
345740000.0 0.4359320409086676 -0.8758751777531134
346740000.0 0.4359320409086676 -0.8758751777531134
347740000.0 0.4367402789526278 -0.876731749314643
348740000.0 0.43831542154047454 -0.8772068568037191
349730000.0 0.4398457679580203 -0.8764405164031863
350730000.0 0.4433111206919999 -0.8772263842706832
351730000.0 0.44673169365376114 -0.8767603151069802
352730000.0 0.45869765031005405 -0.8718408299945151
353730000.0 0.46394185169903424 -0.8703477362635216
354730000.0 0.469790369212792 -0.8684967741519225
355730000.0 0.47548293601049185 -0.8666909475231949
356730000.0 0.48117123177618304 -0.8648492534076038
357730000.0 0.48711426329802177 -0.8641358690927946
358730000.0 0.49853340688636744 -0.8575987103415008
359730000.0 0.5029794871131955 -0.8576507040749665
360730000.0 0.5060881088371176 -0.8584817263719733
361730000.0 0.5088756104740331 -0.8621779695298297
362720000.0 0.509409277415693 -0.8672264077752246
363720000.0 0.5079542891325635 -0.8734540193161354
364720000.0 0.5047412783885395 -0.8820417493815699
365720000.0 0.49969100920689774 -0.8929935292983323
366720000.0 0.4904827475556195 -0.9075074063469712
367720000.0 0.4830449382281731 -0.9263411488759943
368720000.0 0.4730347104727937 -0.94504042795453
369720000.0 0.46195004229888675 -0.9654610814867642
370720000.0 0.45001354711025937 -0.9860960208604291
371720000.0 0.4380746934874751 -1.0065418537237547
372720000.0 0.4264697553865578 -1.028066211034532
373720000.0 0.4150607799170837 -1.0493939346076304
374710000.0 0.4039787408485121 -1.0690987162438705
375710000.0 0.39321038480486825 -1.0886056589543995
376710000.0 0.376069842822679 -1.1059632045905732
377710000.0 0.364906495804546 -1.1210690792868208
378710000.0 0.3536056636710468 -1.1318173698745184
379710000.0 0.3425108790082436 -1.1423725683347883
380710000.0 0.32467080553599537 -1.1504272365272437
381710000.0 0.3143770647076467 -1.1547099031615462
382710000.0 0.3046924707673424 -1.1573030707343843
383710000.0 0.29525361068618544 -1.1583260611278128
384710000.0 0.28642483193576895 -1.159123983555148
385710000.0 0.27442293861467937 -1.1465795576301878
386700000.0 0.2658926069901194 -1.14441486627485
387700000.0 0.2574061813995213 -1.1422013062250325
388700000.0 0.24847863540749515 -1.1386710738106873
389700000.0 0.23734230178798962 -1.1233545167659167
390700000.0 0.22902596063898162 -1.1196954931968035
391700000.0 0.2213558283200667 -1.115884151119068
392700000.0 0.2141317483279417 -1.1119704029397728
393700000.0 0.20797553651151224 -1.1091660187859211
394700000.0 0.20258629915039028 -1.1048919974310698
395700000.0 0.19539588921148 -1.0892367262190086
396700000.0 0.1912802937303555 -1.0848044522841
397700000.0 0.1876011347112314 -1.0815922312160235
398690000.0 0.18429592764945926 -1.0770436924823887
399690000.0 0.18139055307447938 -1.0724453473163558
400690000.0 0.17832094053596081 -1.0678937249157805
401690000.0 0.17546051544837984 -1.0633260183776805
402690000.0 0.17262196713770495 -1.058773840537225
403690000.0 0.16980516537318113 -1.0542371618254383
404690000.0 0.16646032772341707 -1.0498032548849383
405690000.0 0.1633241034581259 -1.0453531081394225
406690000.0 0.16003067091999673 -1.0409442826718907
407690000.0 0.15712480524329372 -1.0377143658631078
408690000.0 0.15405571464357043 -1.0345159269231927
409690000.0 0.15099874537613098 -1.032535458097332
410680000.0 0.14813385324443942 -1.0305257277449014
411680000.0 0.14528045811302814 -1.0285136414847873
412680000.0 0.14261769499204824 -1.0264743569210093
413680000.0 0.14032326553890181 -1.024384820451356
414680000.0 0.13837576120520245 -1.0234492024234219
