!Created with skrf (http://scikit-rf.org).
# Hz S RI R 50.0 
!freq ReS11 ImS11 ReS21 ImS21 ReS12 ImS12 ReS22 ImS22
25000000.0 0.07902909408712867 0.020924661609065826 0.9928773307813172 -0.31324354748624994 0.07902909408712867 0.020924661609065826 0.9928773307813172 -0.31324354748624994
26000000.0 0.07678077277915259 0.019257507059832302 0.974607143997924 -0.32704498785620967 0.07678077277915259 0.019257507059832302 0.974607143997924 -0.32704498785620967
27000000.0 0.07464157053388652 0.01927582772257966 0.9673490498506496 -0.32273205849761 0.07464157053388652 0.01927582772257966 0.9673490498506496 -0.32273205849761
28000000.0 0.0743712038121294 0.013060121222338626 0.961409323280367 -0.33291782738226905 0.0743712038121294 0.013060121222338626 0.961409323280367 -0.33291782738226905
29000000.0 0.07451165794613752 0.020453989731985596 0.9715897142838533 -0.36055906511841446 0.07451165794613752 0.020453989731985596 0.9715897142838533 -0.36055906511841446
30000000.0 0.06972749660573903 0.020257710416650736 0.9511097471681882 -0.36129270061960667 0.06972749660573903 0.020257710416650736 0.9511097471681882 -0.36129270061960667
31000000.0 0.06790502446584047 0.019138403854108796 0.9441641653842109 -0.3759194522311044 0.06790502446584047 0.019138403854108796 0.9441641653842109 -0.3759194522311044
31990000.0 0.06608266125481628 0.023284343302039538 0.9426649352464296 -0.3950987712935142 0.06608266125481628 0.023284343302039538 0.9426649352464296 -0.3950987712935142
32990000.000000004 0.06378826787117077 0.026369807546698532 0.9479423623741219 -0.40687626600833465 0.06378826787117077 0.026369807546698532 0.9479423623741219 -0.40687626600833465
33990000.0 0.06656875911578174 0.020530107437766516 0.9538234585963399 -0.4173101051406734 0.06656875911578174 0.020530107437766516 0.9538234585963399 -0.4173101051406734
34990000.0 0.06071866374007164 0.033490854843037286 0.9517609853169202 -0.4452298807701907 0.06071866374007164 0.033490854843037286 0.9517609853169202 -0.4452298807701907
35990000.0 0.06051404783646234 0.029973641319654645 0.9383955419522126 -0.4397763285869964 0.06051404783646234 0.029973641319654645 0.9383955419522126 -0.4397763285869964
36990000.0 0.06043687326526331 0.026504774791991512 0.9272535308159694 -0.44386754646287974 0.06043687326526331 0.026504774791991512 0.9272535308159694 -0.44386754646287974
37990000.0 0.05960268542176426 0.025965477718891343 0.9089333516763954 -0.45714585078468956 0.05960268542176426 0.025965477718891343 0.9089333516763954 -0.45714585078468956
38990000.0 0.056107240375507225 0.029021140588654893 0.893452592530433 -0.47685887970347757 0.056107240375507225 0.029021140588654893 0.893452592530433 -0.47685887970347757
39990000.0 0.05318334278316083 0.03245051171114713 0.8824635497542358 -0.49927385419389547 0.05318334278316083 0.03245051171114713 0.8824635497542358 -0.49927385419389547
40990000.0 0.05374303708440696 0.029643278408150946 0.8693526019764697 -0.505772189524731 0.05374303708440696 0.029643278408150946 0.8693526019764697 -0.505772189524731
41990000.0 0.05504652169791516 0.025016561815969098 0.8551063666895419 -0.5117706029735828 0.05504652169791516 0.025016561815969098 0.8551063666895419 -0.5117706029735828
42990000.0 0.04612203719833514 0.03540347506580683 0.8476539567689434 -0.5456477457523761 0.04612203719833514 0.03540347506580683 0.8476539567689434 -0.5456477457523761
43980000.0 0.04725662693327289 0.03716059522243419 0.8373497183950338 -0.5508731608838395 0.04725662693327289 0.03716059522243419 0.8373497183950338 -0.5508731608838395
44980000.0 0.04451000515550598 0.03233841166721296 0.8480865859378143 -0.5211344237767354 0.04451000515550598 0.03233841166721296 0.8480865859378143 -0.5211344237767354
45980000.0 0.045433410902315945 0.027580521182476336 0.8535507972753275 -0.5210096318405764 0.045433410902315945 0.027580521182476336 0.8535507972753275 -0.5210096318405764
46980000.0 0.04762293529704384 0.025878672409053508 0.859423216076147 -0.5291343153901941 0.04762293529704384 0.025878672409053508 0.859423216076147 -0.5291343153901941
47980000.0 0.04900640042104496 0.02757989082539276 0.862209154095424 -0.5423318084088983 0.04900640042104496 0.02757989082539276 0.862209154095424 -0.5423318084088983
48980000.0 0.04827825707912047 0.030085652106920307 0.8530261082091163 -0.5480536076334894 0.04827825707912047 0.030085652106920307 0.8530261082091163 -0.5480536076334894
49980000.0 0.04504579835079321 0.029917025734237233 0.8382081829336573 -0.5579591632007991 0.04504579835079321 0.029917025734237233 0.8382081829336573 -0.5579591632007991
50980000.0 0.042491435574225155 0.027763268176568268 0.8282903727870558 -0.5786834558339821 0.042491435574225155 0.027763268176568268 0.8282903727870558 -0.5786834558339821
51980000.0 0.048959531352320375 0.029220493897528524 0.8128612665523436 -0.5923141190270739 0.048959531352320375 0.029220493897528524 0.8128612665523436 -0.5923141190270739
52980000.0 0.04806100949398875 0.027680971463433717 0.8041463504928764 -0.5983012930517392 0.04806100949398875 0.027680971463433717 0.8041463504928764 -0.5983012930517392
53980000.0 0.042275819250831494 0.03471339429210595 0.8006602708968598 -0.6048758545843695 0.042275819250831494 0.03471339429210595 0.8006602708968598 -0.6048758545843695
54980000.0 0.03729491432479434 0.03743839214955136 0.7875656499891683 -0.6329927571977572 0.03729491432479434 0.03743839214955136 0.7875656499891683 -0.6329927571977572
55970000.0 0.03761356799370628 0.03512434542293331 0.7823393385396873 -0.6522833549856205 0.03761356799370628 0.03512434542293331 0.7823393385396873 -0.6522833549856205
56970000.0 0.040175258468102125 0.036009244994692595 0.7813052243759416 -0.6644727384822364 0.040175258468102125 0.036009244994692595 0.7813052243759416 -0.6644727384822364
57970000.0 0.04139275693847138 0.03902020300214895 0.7806603848870084 -0.6743236475850334 0.04139275693847138 0.03902020300214895 0.7806603848870084 -0.6743236475850334
58970000.0 0.040766795337079685 0.04333637973780234 0.7784383041775172 -0.6877357987040229 0.040766795337079685 0.04333637973780234 0.7784383041775172 -0.6877357987040229
59970000.0 0.03829638796028896 0.045623684216980855 0.7769458099460195 -0.6966242184569506 0.03829638796028896 0.045623684216980855 0.7769458099460195 -0.6966242184569506
60970000.0 0.03284018001626242 0.04525043583904396 0.7685162514833872 -0.6988057623086348 0.03284018001626242 0.04525043583904396 0.7685162514833872 -0.6988057623086348
61970000.0 0.025514242492891935 0.04062591841943289 0.7571049783096013 -0.6971698336819422 0.025514242492891935 0.04062591841943289 0.7571049783096013 -0.6971698336819422
62970000.0 0.026818963734236978 0.049353295812907025 0.7606353897842127 -0.7038630663339733 0.026818963734236978 0.049353295812907025 0.7606353897842127 -0.7038630663339733
63970000.0 0.025453793567639344 0.053702291300609994 0.7627403354064974 -0.7033437242016302 0.025453793567639344 0.053702291300609994 0.7627403354064974 -0.7033437242016302
64970000.0 0.023245899757167503 0.050285685168553466 0.7524298106052753 -0.6970016168817204 0.023245899757167503 0.050285685168553466 0.7524298106052753 -0.6970016168817204
65970000.0 0.02187748211393079 0.044835623053962666 0.7425171455859679 -0.6955648461431976 0.02187748211393079 0.044835623053962666 0.7425171455859679 -0.6955648461431976
66970000.0 0.021248784267017068 0.04118640116961303 0.7359465995971682 -0.6991199632273285 0.021248784267017068 0.04118640116961303 0.7359465995971682 -0.6991199632273285
67960000.0 0.02108008199837693 0.03926480689242055 0.7223751993721379 -0.7081433919855626 0.02108008199837693 0.03926480689242055 0.7223751993721379 -0.7081433919855626
68960000.0 0.018660709414341677 0.03814178371567156 0.6963455484739355 -0.7289386599647665 0.018660709414341677 0.03814178371567156 0.6963455484739355 -0.7289386599647665
69960000.0 0.01711973017899695 0.03901833545106039 0.6821914159266074 -0.7374739033435252 0.01711973017899695 0.03901833545106039 0.6821914159266074 -0.7374739033435252
70960000.0 0.019314142019330308 0.03965254089815434 0.683314607903464 -0.7332782124842728 0.019314142019330308 0.03965254089815434 0.683314607903464 -0.7332782124842728
71960000.0 0.016191951113351147 0.04434248378714424 0.6682116076941313 -0.745518936996723 0.016191951113351147 0.04434248378714424 0.6682116076941313 -0.745518936996723
72960000.0 0.008624782934229646 0.051705969408181666 0.6232968578965885 -0.7864049184663359 0.008624782934229646 0.051705969408181666 0.6232968578965885 -0.7864049184663359
73960000.0 0.00725344991507522 0.055244430058222625 0.6108947043571573 -0.8033673183808876 0.00725344991507522 0.055244430058222625 0.6108947043571573 -0.8033673183808876
74960000.0 0.0065411459715800395 0.05831563012616658 0.6121597810803895 -0.8038655895952319 0.0065411459715800395 0.05831563012616658 0.6121597810803895 -0.8038655895952319
75960000.0 0.004527795020498715 0.060785289036279756 0.6144234023568322 -0.8109414586242325 0.004527795020498715 0.060785289036279756 0.6144234023568322 -0.8109414586242325
76960000.0 0.0021752011396904466 0.05932096771316832 0.6231083841115761 -0.826592551918699 0.0021752011396904466 0.05932096771316832 0.6231083841115761 -0.826592551918699
77960000.0 7.361515205386522e-05 0.052722934749202616 0.6246025235826919 -0.8419486486518366 7.361515205386522e-05 0.052722934749202616 0.6246025235826919 -0.8419486486518366
78960000.0 -0.0009618133170095085 0.03722674769591231 0.6122771384353077 -0.840565676819729 -0.0009618133170095085 0.03722674769591231 0.6122771384353077 -0.840565676819729
79960000.0 -0.0011448096199886467 0.0302126240569109 0.6088259598448406 -0.846023979705111 -0.0011448096199886467 0.0302126240569109 0.6088259598448406 -0.846023979705111
80950000.0 -0.001715252790755612 0.05037887070402741 0.6218225820473795 -0.8711197494612699 -0.001715252790755612 0.05037887070402741 0.6218225820473795 -0.8711197494612699
81950000.0 -0.002549775006932611 0.061606757832397205 0.6181167262875404 -0.8752630085753976 -0.002549775006932611 0.061606757832397205 0.6181167262875404 -0.8752630085753976
82950000.0 -0.00328505119946429 0.055621650701370366 0.5988376768958483 -0.8619354652590869 -0.00328505119946429 0.055621650701370366 0.5988376768958483 -0.8619354652590869
83950000.0 -0.0035587818270979383 0.0425585570035775 0.5829564961625683 -0.8539418029377175 -0.0035587818270979383 0.0425585570035775 0.5829564961625683 -0.8539418029377175
84950000.0 -0.003639596548836959 0.03570718259194961 0.5702681257372075 -0.8524999346577075 -0.003639596548836959 0.03570718259194961 0.5702681257372075 -0.8524999346577075
85950000.0 -0.0032459991402562244 0.02875748201265783 0.5569991812662661 -0.8528073216657568 -0.0032459991402562244 0.02875748201265783 0.5569991812662661 -0.8528073216657568
86950000.0 -0.003022072145676168 0.02433188889974648 0.5432234033446081 -0.8533471312071399 -0.003022072145676168 0.02433188889974648 0.5432234033446081 -0.8533471312071399
87950000.0 -0.0030278378356270565 0.0214897539408458 0.5256309021252338 -0.8520665424771193 -0.0030278378356270565 0.0214897539408458 0.5256309021252338 -0.8520665424771193
88950000.0 -0.00325685995508916 0.01980176501119017 0.5085276004798397 -0.8517105055776583 -0.00325685995508916 0.01980176501119017 0.5085276004798397 -0.8517105055776583
89950000.0 -0.003601103107502078 0.019003753436655398 0.4962428539454032 -0.8536584021876129 -0.003601103107502078 0.019003753436655398 0.4962428539454032 -0.8536584021876129
90950000.0 -0.0037141076391873744 0.018689126764368402 0.48663665993372984 -0.8604777638988437 -0.0037141076391873744 0.018689126764368402 0.48663665993372984 -0.8604777638988437
91950000.0 -0.003514147350009559 0.018705447517210583 0.4779429821594628 -0.8679391965019808 -0.003514147350009559 0.018705447517210583 0.4779429821594628 -0.8679391965019808
92940000.0 -0.003004612778072841 0.018927614814126106 0.47160401038769334 -0.8765966017952682 -0.003004612778072841 0.018927614814126106 0.47160401038769334 -0.8765966017952682
93940000.0 -0.0025161071275087788 0.01926762558927062 0.46815997229635303 -0.8849471613703147 -0.0025161071275087788 0.01926762558927062 0.46815997229635303 -0.8849471613703147
94940000.0 -0.00225170575280081 0.019641046738786756 0.46884200599259684 -0.891122078703876 -0.00225170575280081 0.019641046738786756 0.46884200599259684 -0.891122078703876
95940000.0 -0.002073745538047366 0.020170505708780602 0.47084982715529244 -0.8953175037653321 -0.002073745538047366 0.020170505708780602 0.47084982715529244 -0.8953175037653321
96940000.0 0.00025305560483258644 0.02101205392659594 0.4419229444423532 -0.9125351551046538 0.00025305560483258644 0.02101205392659594 0.4419229444423532 -0.9125351551046538
97940000.0 -0.0011479931798468953 0.02212668045169966 0.4222244865036542 -0.9192494086359152 -0.0011479931798468953 0.02212668045169966 0.4222244865036542 -0.9192494086359152
98940000.0 -0.003111603377623289 0.023925324286020334 0.41163451095833387 -0.9202204748095907 -0.003111603377623289 0.023925324286020334 0.41163451095833387 -0.9202204748095907
99940000.0 -0.0050865972901738875 0.02624162445587371 0.40862382077148535 -0.9164923578240669 -0.0050865972901738875 0.02624162445587371 0.40862382077148535 -0.9164923578240669
100940000.0 -0.008022356338638015 0.03021388786190424 0.403080965002425 -0.9139068877491116 -0.008022356338638015 0.03021388786190424 0.403080965002425 -0.9139068877491116
101940000.0 -0.012361806433500985 0.03586062352994575 0.39671385149446303 -0.9154362552269579 -0.012361806433500985 0.03586062352994575 0.39671385149446303 -0.9154362552269579
102940000.0 -0.016001945780193337 0.044180792933883085 0.3855444481604451 -0.9239376150858659 -0.016001945780193337 0.044180792933883085 0.3855444481604451 -0.9239376150858659
103940000.0 -0.012540137653294467 0.05515106578596486 0.3649706410315919 -0.9409504871347408 -0.012540137653294467 0.05515106578596486 0.3649706410315919 -0.9409504871347408
104930000.0 -0.010991817056261335 0.061397324108991 0.3447009720520897 -0.958493430172767 -0.010991817056261335 0.061397324108991 0.3447009720520897 -0.958493430172767
105930000.0 -0.013733830819973232 0.059965054308149246 0.3485522594146637 -0.9772290090284713 -0.013733830819973232 0.059965054308149246 0.3485522594146637 -0.9772290090284713
106930000.0 -0.01857569150243986 0.060986695080634694 0.34867039411208073 -0.9658239242537872 -0.01857569150243986 0.060986695080634694 0.34867039411208073 -0.9658239242537872
107930000.0 -0.02097509122476889 0.05897002899092432 0.3439496843948083 -0.9537897633814202 -0.02097509122476889 0.05897002899092432 0.3439496843948083 -0.9537897633814202
108930000.0 -0.019535701724604712 0.054621168532741814 0.33666956537752557 -0.9465233699308182 -0.019535701724604712 0.054621168532741814 0.33666956537752557 -0.9465233699308182
109930000.0 -0.01500873945205935 0.04597363351660986 0.32832360276758826 -0.9433470600411412 -0.01500873945205935 0.04597363351660986 0.32832360276758826 -0.9433470600411412
110930000.0 -0.010614329303420397 0.03560505972528953 0.31987560116966884 -0.9450317545605914 -0.010614329303420397 0.03560505972528953 0.31987560116966884 -0.9450317545605914
111930000.0 -0.010344056931948068 0.03537391599435623 0.31169858879824547 -0.951393308689462 -0.010344056931948068 0.03537391599435623 0.31169858879824547 -0.951393308689462
112930000.0 -0.01671800039233071 0.05561817643064828 0.302247247578171 -0.9568585424101225 -0.01671800039233071 0.05561817643064828 0.302247247578171 -0.9568585424101225
113930000.0 -0.02277299331034559 0.07420907381466592 0.2865489013979876 -0.9437356361209274 -0.02277299331034559 0.07420907381466592 0.2865489013979876 -0.9437356361209274
114930000.0 -0.022222290549306613 0.07916438313194904 0.26919576101397713 -0.9277865827059026 -0.022222290549306613 0.07916438313194904 0.26919576101397713 -0.9277865827059026
115930000.0 -0.016281788885644112 0.07320052323984308 0.25547700179426347 -0.9224705912256573 -0.016281788885644112 0.07320052323984308 0.25547700179426347 -0.9224705912256573
116920000.0 -0.011539054644612865 0.06544123082156816 0.24455247522058832 -0.924287470613842 -0.011539054644612865 0.06544123082156816 0.24455247522058832 -0.924287470613842
117920000.0 -0.009276716424936216 0.05877002589080309 0.2371240180018269 -0.9262210543692685 -0.009276716424936216 0.05877002589080309 0.2371240180018269 -0.9262210543692685
118920000.0 -0.008996119702550395 0.05434115396724343 0.23615395174132034 -0.9264688621573897 -0.008996119702550395 0.05434115396724343 0.23615395174132034 -0.9264688621573897
119920000.0 -0.008485642219239163 0.049747604250979814 0.2414860828821941 -0.9250933537997472 -0.008485642219239163 0.049747604250979814 0.2414860828821941 -0.9250933537997472
120920000.0 -0.011672188296901316 0.04698924170149592 0.24459333685799764 -0.9231386347242649 -0.011672188296901316 0.04698924170149592 0.24459333685799764 -0.9231386347242649
121920000.0 -0.013149028066636835 0.048363100525218354 0.24833287944593127 -0.9210016577717677 -0.013149028066636835 0.048363100525218354 0.24833287944593127 -0.9210016577717677
122920000.0 -0.015168824414727477 0.05321531921886632 0.2491017046335154 -0.9219323077670002 -0.015168824414727477 0.05321531921886632 0.2491017046335154 -0.9219323077670002
123920000.0 -0.015306528324241083 0.056649885245184654 0.23149495835902364 -0.933331804982867 -0.015306528324241083 0.056649885245184654 0.23149495835902364 -0.933331804982867
124920000.0 -0.012875233811678531 0.06289040900859137 0.1658091805450563 -0.9539755356259705 -0.012875233811678531 0.06289040900859137 0.1658091805450563 -0.9539755356259705
125920000.0 -0.010983286760159803 0.06766319899322118 0.12538113071439305 -0.9680267228152497 -0.010983286760159803 0.06766319899322118 0.12538113071439305 -0.9680267228152497
126920000.0 -0.00991548624236042 0.06993231018047154 0.11207574576293791 -0.9776077349698755 -0.00991548624236042 0.06993231018047154 0.11207574576293791 -0.9776077349698755
127920000.0 -0.00892816934219204 0.07097257320683971 0.10281715200738861 -0.9831916670766184 -0.00892816934219204 0.07097257320683971 0.10281715200738861 -0.9831916670766184
128919999.99999999 -0.008133203896409182 0.07308484264083243 0.09361067473094911 -0.9921456999843068 -0.008133203896409182 0.07308484264083243 0.09361067473094911 -0.9921456999843068
129910000.0 -0.0072864764821214826 0.07099447845464775 0.08410103957954417 -1.0057427122260232 -0.0072864764821214826 0.07099447845464775 0.08410103957954417 -1.0057427122260232
130910000.0 -0.00682008368428552 0.07296440517294629 0.07591835071393757 -1.024023095645862 -0.00682008368428552 0.07296440517294629 0.07591835071393757 -1.024023095645862
131910000.0 -0.006764292371778108 0.07564330097656774 0.06840929936397211 -1.0521653363621715 -0.006764292371778108 0.07564330097656774 0.06840929936397211 -1.0521653363621715
132910000.0 -0.006942650456684461 0.07903708897225577 0.06201943587666807 -1.0921969240392428 -0.006942650456684461 0.07903708897225577 0.06201943587666807 -1.0921969240392428
133910000.0 -0.007212223469484777 0.08049403306519642 0.05322534395392051 -1.1040682600844292 -0.007212223469484777 0.08049403306519642 0.05322534395392051 -1.1040682600844292
134910000.0 -0.007342602475057866 0.07900093681384575 0.04321128853472816 -1.0805703010739467 -0.007342602475057866 0.07900093681384575 0.04321128853472816 -1.0805703010739467
135910000.0 -0.007437251995906623 0.07780814566486663 0.03179135237164339 -1.064894419924669 -0.007437251995906623 0.07780814566486663 0.03179135237164339 -1.064894419924669
136910000.0 -0.007566128613272076 0.07716534891154322 0.018259587062112025 -1.0566597537811697 -0.007566128613272076 0.07716534891154322 0.018259587062112025 -1.0566597537811697
137910000.0 -0.007638606151527993 0.07680021569860297 0.004043886719025771 -1.0531659234150168 -0.007638606151527993 0.07680021569860297 0.004043886719025771 -1.0531659234150168
