!Created with skrf (http://scikit-rf.org).
# Hz S RI R 50.0 
!freq ReS11 ImS11
25000000.0 0.08116216887415297 0.019875270675268675
26000000.0 0.07823624504850879 0.019884011197897452
27000000.0 0.07770799944818411 0.019706445517424283
28000000.0 0.07772089686181302 0.01595380893603149
29000000.0 0.07976839019110885 0.020332707700298068
30000000.0 0.07609342773798881 0.020104750827883735
31000000.0 0.07544333669997048 0.0178896708300535
31990000.0 0.07565044721461879 0.01929711917955292
32990000.000000004 0.07825833341906742 0.01822568354868018
33990000.0 0.08022510183690611 0.01247685808612317
34990000.0 0.07806692164983933 0.02053873620080537
35990000.0 0.07700170408392962 0.019870985932588552
36990000.0 0.07895819503302479 0.016337084824341288
37990000.0 0.07891895614996383 0.013560756839192365
38990000.0 0.07808497007836854 0.014570891965223758
39990000.0 0.07784713833151818 0.01754361030895942
40990000.0 0.07733317083359185 0.0160290063212505
41990000.0 0.0792224199637217 0.011007112696715405
42990000.0 0.07903507958427806 0.022677873556104265
43980000.0 0.07691941458487407 0.023869394533641855
44980000.0 0.07660830338810529 0.024242733805051216
45980000.0 0.07800127224897575 0.022528659080921307
46980000.0 0.07897383598648608 0.019237144009846007
47980000.0 0.07934157442366407 0.01677775138474702
48980000.0 0.07896673828682631 0.01629574017253536
49980000.0 0.07941864600595216 0.01594149709438594
50980000.0 0.08015514527709156 0.014046982687608378
51980000.0 0.07918356395683356 0.011918849145184544
52980000.0 0.0795237961587211 0.009384114788182867
53980000.0 0.08295108266251933 0.012885983656180563
54980000.0 0.08382047959897741 0.021349993089201418
55970000.0 0.08618806002754806 0.022691422518885576
56970000.0 0.08799656680143217 0.022315586062012976
57970000.0 0.08712806021482551 0.023574222434899855
58970000.0 0.08558583852737024 0.024121577965903498
59970000.0 0.08505484049166853 0.022981411515042637
60970000.0 0.08463727332833197 0.02138508975429722
61970000.0 0.08443313893369167 0.0196792781876262
62970000.0 0.08490286180483146 0.020305027889757063
63970000.0 0.08552352685068017 0.022804008039884322
64970000.0 0.0831135109781841 0.026700831319144233
65970000.0 0.07896866059732184 0.029321124178634007
66970000.0 0.07857795301217763 0.02756380526309276
67960000.0 0.08059921790127905 0.020544483028090525
68960000.0 0.08303135319784462 0.011684073988686918
69960000.0 0.08414429665533187 0.0069474917520430295
70960000.0 0.08447190677930327 0.006514589609661813
71960000.0 0.08426482138669282 0.007802177824029527
72960000.0 0.08179120621724574 0.021717105876635626
73960000.0 0.0820848523601417 0.02287217933134672
74960000.0 0.08565374641322641 0.020200339190317912
75960000.0 0.08992662110474532 0.0191308982613591
76960000.0 0.09053800937449497 0.018272109858463472
77960000.0 0.09103220605987032 0.01741472580683572
78960000.0 0.09321470524156623 -0.016268570380456326
79960000.0 0.09680120508035558 -0.014951020371542438
80950000.0 0.09614998170475174 -0.013992490165626086
81950000.0 0.09076912906205202 -0.013225604930153179
82950000.0 0.08916448850811763 -0.013341632236227868
83950000.0 0.08729889033770127 -0.013311831242868149
84950000.0 0.08526282725347072 -0.012666557058325855
85950000.0 0.08433428963743048 -0.01219783446770494
86950000.0 0.08426048802565352 -0.012022053003900956
87950000.0 0.08522339651543663 -0.012250514249689303
88950000.0 0.08643319641922056 -0.01294837412702242
89950000.0 0.08723763881693732 -0.014348254929742649
90950000.0 0.08763551926594931 -0.016226463269309217
91950000.0 0.0881342091127413 -0.018492478541558333
92940000.0 0.08812242744702407 -0.023085611449303312
93940000.0 0.08815811276580957 -0.026465473639758784
94940000.0 0.0873680011889 -0.029963870050984172
95940000.0 0.08559896671956045 -0.033839193813528484
96940000.0 0.08785065969727276 -0.02409915487933551
97940000.0 0.08308976167350621 -0.033082231712963726
98940000.0 0.07770593900434056 -0.04065822728944049
99940000.0 0.07348641843470138 -0.045244513973518044
100940000.0 0.07335494146679218 -0.04393681141409408
101940000.0 0.07655124138046414 -0.03561513364252779
102940000.0 0.08081484305061891 -0.02543430862865056
103940000.0 0.08043999794004725 -0.027211790151222798
104930000.0 0.06398215021506702 -0.05613059820282076
105930000.0 0.04462448922786848 -0.0699655481261643
106930000.0 0.042398320083116 -0.06956876567935306
107930000.0 0.04786969530579393 -0.06270163572844051
108930000.0 0.055352639753183615 -0.052252963902759485
109930000.0 0.0610055557283205 -0.04241575842875328
110930000.0 0.06463074355675896 -0.03665571415356728
111930000.0 0.06786262291574263 -0.033702062742048844
112930000.0 0.07020491933357767 -0.03184636380376227
113930000.0 0.07622814403650736 -0.031574731094451115
114930000.0 0.0833919352450475 -0.03259702087557381
115930000.0 0.08180717919987085 -0.030180261774246278
116920000.0 0.07809543272399726 -0.02632754667308487
117920000.0 0.07900250898089778 -0.02174608249737611
118920000.0 0.08177541146978796 -0.018533895375371166
119920000.0 0.0862659455745721 -0.01634690566343564
120920000.0 0.09051152920144094 -0.01488672220700888
121920000.0 0.09427665197476254 -0.014527409223671666
122920000.0 0.09710448794366805 -0.01520615701274209
123920000.0 0.09875655798223118 -0.016437598251606244
124920000.0 0.09914197523897186 -0.017606322815451214
125920000.0 0.09850722907542506 -0.018506315750729047
126920000.0 0.09743703076531045 -0.01860473308734317
127920000.0 0.09715884338837508 -0.01823544244024
128919999.99999999 0.09709126607057608 -0.01797727537716627
129910000.0 0.09711315698988925 -0.017858642631258144
130910000.0 0.09699518309292741 -0.01787195273435837
131910000.0 0.09715884338837508 -0.01823544244024
132910000.0 0.09807628509140838 -0.0189220226427914
133910000.0 0.09911380258136654 -0.019643038841755004
134910000.0 0.09733513634868832 -0.019714616108216895
135910000.0 0.09405492070992134 -0.019477837708483863
136910000.0 0.09170399919251279 -0.019509015874934758
137910000.0 0.09003228823837214 -0.019646674653126698
138910000.0 0.08890572204031592 -0.0198564917252346
139910000.0 0.08789918704143244 -0.02005088723962789
140910000.0 0.0872451764570484 -0.02012609795403158
141900000.0 0.08693101431294496 -0.020565641813527914
142900000.0 0.08685140727906615 -0.020899280521720038
143900000.0 0.0867407888645501 -0.02135374486677477
144900000.0 0.0866893463695783 -0.021984080060024478
145900000.0 0.0867686952339838 -0.022504549523334492
146900000.0 0.08665768159251594 -0.022928310946650644
147900000.0 0.08643837883009035 -0.022951017739875366
148900000.0 0.08637482359417557 -0.022788960523789162
149900000.0 0.08608888945456607 -0.022665313085951887
150900000.0 0.08597400686958619 -0.02269926040175321
151900000.0 0.08593425826065462 -0.022849278701730737
152900000.0 0.08599773033462836 -0.022609216202486866
153890000.0 0.08638279575443684 -0.02193843533368008
154890000.0 0.08698058598664196 -0.02080192807147136
155890000.0 0.08794925978358549 -0.019352991553188828
156890000.0 0.08891357269570746 -0.01779896317081017
157890000.0 0.09001147706542593 -0.015936253600290596
158890000.0 0.09120291585133583 -0.013907139254279504
159890000.0 0.09225392449487546 -0.011785270597264879
160890000.0 0.09352496936358347 -0.010209613305562956
161890000.0 0.09499850850795963 -0.00976687129137159
162890000.0 0.09640976242592345 -0.01113793850788414
163890000.0 0.09701162492667259 -0.016477960787035645
164890000.0 0.09581001684327832 -0.026138774431920787
165890000.0 0.09179403451291408 -0.03938090737994065
166880000.0 0.08428831597706862 -0.05423686654420394
167880000.0 0.0757567469396703 -0.06615670665713147
168880000.0 0.06727461939250926 -0.07445429654567332
169880000.0 0.05856315202205114 -0.081199812844742
170880000.0 0.04946905730894752 -0.08637784332739354
171880000.0 0.04207800890623372 -0.08970462973942181
172880000.0 0.0379022593163391 -0.09105432980636691
173880000.0 0.03737068477293704 -0.0910286245211596
174880000.0 0.042522563737716915 -0.08899047033779209
175880000.0 0.05536123440174636 -0.08424737772905372
176880000.0 0.0755067816456781 -0.07185389454777344
177880000.0 0.09135603021515246 -0.05552350035098529
178870000.0 0.08927451664782661 -0.06014843504903674
179870000.0 0.0630813758557504 -0.08615821432549096
180870000.0 0.03364606675182168 -0.09827211921206465
181870000.0 0.015020031146025495 -0.09724801914170238
182870000.0 0.0058832207256733875 -0.09048654161456121
183870000.0 0.0014998311092695679 -0.08183273550852943
184870000.0 -0.0004240225039712164 -0.07361948864894652
185870000.0 -0.0007132170289771109 -0.0692591207555833
186870000.0 0.0012302431393608109 -0.07119265119775425
187870000.0 0.007005511398762167 -0.07757761343278657
188870000.0 0.0188962292818077 -0.08943692023567129
189870000.0 0.039981599708291606 -0.10552962851698357
190860000.0 0.06330031285791142 -0.11084236878778694
191860000.0 0.0797704374198232 -0.10380872019697729
192860000.0 0.08667464365769234 -0.09130409668477746
193860000.0 0.08754477751916462 -0.07835658603556445
194860000.0 0.08452478335277028 -0.06725813831631736
195860000.0 0.07997186238394544 -0.05752913087556764
196860000.0 0.07468566251969394 -0.05012993921578405
197860000.0 0.07022324486957082 -0.04475437341929823
198860000.0 0.06732445574299299 -0.04128881221025824
199860000.0 0.06655697218780532 -0.0394244264865693
200860000.0 0.06750509246614607 -0.03886419672426182
201860000.0 0.06958384763313674 -0.03906460492117596
202860000.0 0.07225439358302502 -0.03964011773596486
203850000.0 0.07478948685836555 -0.04021949088801794
204850000.0 0.07733167391579704 -0.04072063414483793
205850000.0 0.07910696651636734 -0.04083015005339874
206850000.0 0.07998281679998573 -0.04047233917870448
207850000.0 0.08038840961954231 -0.03966062052838877
208850000.0 0.08048461825628149 -0.03899447107233186
209850000.0 0.08004003592896713 -0.03826291344684346
210850000.0 0.07973931644023477 -0.037471490228319144
211850000.0 0.07899382964817912 -0.03668447393389053
212850000.0 0.07867739853586678 -0.035938307761216676
213850000.0 0.07814760011572094 -0.03518652125067953
214850000.0 0.07788115144642824 -0.03457724430503469
215840000.0 0.07748180933649837 -0.03378657252071668
216840000.0 0.08227799010272095 -0.0161572133579676
217840000.0 0.0816468803259032 -0.015368310624465583
218840000.0 0.08111661503151672 -0.015092658903126572
219840000.0 0.08052928737871985 -0.0151433947163466
220840000.0 0.08013816376256487 -0.015185725889194287
221840000.0 0.07970054724311053 -0.015477781546200966
222840000.0 0.07924153519533494 -0.015877173122480444
223840000.0 0.07897809561499011 -0.01624060702253404
224840000.0 0.07867848654205863 -0.016766690577956336
225840000.0 0.09825362987748847 -0.021494621617895338
226840000.0 0.09765814276622921 -0.022044036205508984
227840000.0 0.09673888886829086 -0.022458455798219555
228830000.0 0.09582052733812109 -0.022880695205768697
229830000.0 0.09502032079984084 -0.023304062908509726
230830000.0 0.09399395833619771 -0.023714318500423003
231830000.0 0.09332970431338372 -0.024067200929391974
232830000.0 0.09255655144451766 -0.02440265735362356
233830000.0 0.09187968716008833 -0.024808246539130788
234830000.0 0.09105972177711308 -0.025321569998870776
235830000.0 0.09039976455540776 -0.026058370375662374
236830000.0 0.08987956624353331 -0.02629965367282727
237830000.0 0.08934225383086161 -0.026974016756551072
238830000.0 0.08873735302238756 -0.027485771887466932
239830000.0 0.08820373130349798 -0.028115480370145243
240820000.0 0.08763164341712615 -0.028845718123101383
241820000.0 0.08713429060739492 -0.02966293211656619
242820000.0 0.08639872509761674 -0.030493608620503158
243820000.0 0.08583836493040345 -0.03142936983757961
244820000.0 0.08527970399058081 -0.03232661130254183
245820000.0 0.08474116220165934 -0.0331414704839029
246820000.0 0.08430161267032875 -0.033684109774668076
247820000.0 0.08388894991860692 -0.03414907795024114
248820000.0 0.08360054158383531 -0.034304127455385656
249820000.0 0.08351044719638064 -0.03452287535311106
250820000.0 0.08336612870706482 -0.03459958705830893
251820000.0 0.08329348071204971 -0.03477411265697226
252810000.0 0.08327964782484468 -0.03507597428092006
253810000.0 0.08345060480080348 -0.03547425908811667
254810000.0 0.08359576149565201 -0.03593285818141119
255810000.0 0.08398980677252961 -0.03634563494536812
256810000.0 0.08454642576801415 -0.03665660431923295
257810000.0 0.08519457561257521 -0.03649684234625189
258810000.0 0.08592797658428726 -0.03613844397581611
259810000.0 0.08668815781847562 -0.035712581289342675
260810000.0 0.0872422944745374 -0.035212755545774285
261810000.0 0.08784727881557243 -0.0348699073992466
262810000.0 0.08838056517318767 -0.03470716173540408
263810000.0 0.08906618912265472 -0.03476127687341191
264800000.0 0.08970798076095388 -0.03493961106803887
265800000.0 0.09053803848710439 -0.03526290330881509
266800000.0 0.0914191888314329 -0.03547752383184958
267800000.0 0.09248973062027803 -0.03554052841458959
268800000.0 0.09322186947731566 -0.0352256090843531
269800000.0 0.09373529536348994 -0.03450644927176406
270800000.0 0.09406807350145811 -0.033588661568300086
271800000.0 0.0940546801533441 -0.03293748055728422
272800000.0 0.09384409441577735 -0.03284534807019191
273800000.0 0.093373846618401 -0.03348784593393039
274800000.0 0.09286889365612135 -0.034537631958312796
275800000.0 0.09228979339163734 -0.03605653152937394
276800000.0 0.09182941876426699 -0.0372134018818051
277790000.0 0.09120444517037667 -0.03813294364092366
278790000.0 0.09072288068878064 -0.03897762559088406
279790000.0 0.08985335416745122 -0.039274642311486634
280790000.0 0.08885206889975153 -0.039318171563451965
281790000.0 0.08767283026921754 -0.038961141540215224
282790000.0 0.08669611520910558 -0.03845464111066228
283790000.0 0.0860467748131742 -0.03804088120113998
284790000.0 0.08569746974652058 -0.0374937518970635
285790000.0 0.08601096245004616 -0.037042172585488274
286790000.0 0.08642164653030834 -0.03663042097861534
287790000.0 0.08709956894990832 -0.03641667846025537
288790000.0 0.08778666281836567 -0.03618305138147065
289780000.0 0.08862378345664176 -0.036166696103601605
290780000.0 0.0894423577035388 -0.03620971420918043
291780000.0 0.09019155204606678 -0.03643975237538747
292780000.0 0.0907010096575674 -0.036977468305134154
293780000.0 0.09145443228373784 -0.03722879521060378
294780000.0 0.09204905749689293 -0.03758326702806836
295780000.0 0.09252097183857821 -0.03794561595290051
296780000.0 0.09289471202581165 -0.03825050768824344
297780000.0 0.0931825828719581 -0.03846418045425667
298780000.0 0.09339066074609577 -0.038569149880240336
299780000.0 0.09332996127596473 -0.038715799943998604
300780000.0 0.09332205770661194 -0.03903746236900316
301770000.0 0.09335435554673686 -0.03926173153297639
302770000.0 0.0933033547561754 -0.03968182168837534
303770000.0 0.093292551112754 -0.04000451363646785
304770000.0 0.09334590107960214 -0.040471773107075094
305770000.0 0.0933903467249686 -0.040956620916290716
306770000.0 0.0931311669339193 -0.04154259746112475
307770000.0 0.09295633718063631 -0.04193233878822461
308770000.0 0.09291631198304165 -0.04230523917203535
309770000.0 0.09278294784982792 -0.04259693512717969
310770000.0 0.09261669057542764 -0.04267728066718975
311770000.0 0.0927382895778879 -0.04269407382882137
312770000.0 0.09269352960704264 -0.04279116571117633
313760000.0 0.09269352960704264 -0.04279116571117633
314760000.0 0.09270846089417513 -0.04275880695910779
315760000.0 0.09292217596837185 -0.04285737618907549
316760000.0 0.09317600454588293 -0.043152069947781126
317760000.0 0.09335301776973261 -0.04333302810855566
318760000.0 0.09375350107126813 -0.04359850718896579
319760000.0 0.09398603934584991 -0.043946291588468536
320760000.0 0.09415652136153947 -0.04414622291967163
321760000.0 0.09453687379879805 -0.044465524362563076
322760000.0 0.09470808032367974 -0.044667230525691576
323760000.0 0.09500444133738449 -0.04488810895094822
324760000.0 0.09510603730320294 -0.04495641787618799
325750000.0 0.09542721486940853 -0.045128616178485174
326750000.0 0.09553714277806939 -0.04518060233782188
327750000.0 0.09589141209369152 -0.04528671799045607
328750000.0 0.09609661428497075 -0.045424661470324014
329750000.0 0.0963260847675266 -0.045512564749554965
330750000.0 0.09670713102666513 -0.04556878489151467
331750000.0 0.09707362254199264 -0.04565868697213155
332750000.0 0.09756967490722296 -0.04576728828434401
333750000.0 0.0979712800903898 -0.04578888716325284
334750000.0 0.09840743186404961 -0.04603459254125885
335750000.0 0.09903049991319635 -0.04588442183591471
336750000.0 0.09950131967133274 -0.045765493716959295
337740000.0 0.10009657242348556 -0.045679946634981185
338740000.0 0.1006704292726804 -0.045644947931868386
339740000.0 0.10130249286220687 -0.04548464875308608
340740000.0 0.10190521435839422 -0.04539243774334637
341740000.0 0.10258098096914052 -0.04545763369721862
342740000.0 0.10326871695804635 -0.04550387794469312
343740000.0 0.10371348354124053 -0.0454622828100508
344740000.0 0.10459264706716033 -0.04573888896778564
345740000.0 0.10534174905474011 -0.04600078529714369
346740000.0 0.10611232429899616 -0.0462270646496619
347740000.0 0.1067735472414077 -0.04638214886135877
348740000.0 0.10765176519741411 -0.04638444998063432
349730000.0 0.10855225815956876 -0.04634625419504119
350730000.0 0.10948309063973327 -0.046247468149072636
351730000.0 0.11060354385311422 -0.04606246216463905
352730000.0 0.11159554422075564 -0.04583694269792681
353730000.0 0.11247432198438578 -0.04626673508942233
354730000.0 0.11400144744026629 -0.04587451932353819
355730000.0 0.1156363609153311 -0.045224291744093474
356730000.0 0.11767640373676216 -0.04432543735019853
357730000.0 0.11987406984760832 -0.04299195682636494
358730000.0 0.12251145922103704 -0.041253466552997185
359730000.0 0.12549968469088207 -0.03832120682271438
360730000.0 0.12863807411195097 -0.03514313573313341
361730000.0 0.13195943575852473 -0.031534541838773175
362720000.0 0.13910611836419556 -0.02804871355820601
363720000.0 0.14240998679419734 -0.025700587926844695
364720000.0 0.14597915235441997 -0.023826525499546964
365720000.0 0.14938369672557036 -0.024355444571605496
366720000.0 0.15251441644546146 -0.025932804328769217
367720000.0 0.15528727419958355 -0.027828684023634156
368720000.0 0.1630024725811798 -0.030151873299111898
369720000.0 0.16579216674203084 -0.03198656158485525
370720000.0 0.1678709144782863 -0.034581101657396536
371720000.0 0.1690985604378295 -0.03829412336293951
372720000.0 0.17524198286659481 -0.044147827332923884
373720000.0 0.1750978617731618 -0.04717946470727515
374710000.0 0.17393772280436184 -0.051291633559785166
375710000.0 0.1714666968864919 -0.054392440208164375
376710000.0 0.17042472555649574 -0.05692410856675278
377710000.0 0.16860951312675895 -0.058419237417297216
378710000.0 0.168244845541133 -0.05233801515269615
379710000.0 0.16493912570802258 -0.05146757231357159
380710000.0 0.1607074352797351 -0.04987023364496647
381710000.0 0.15610271650349833 -0.04796382538375378
382710000.0 0.1450005099063079 -0.03961325320041865
383710000.0 0.14028941539770992 -0.037485482879398416
384710000.0 0.13583973223262938 -0.03566222803073418
385710000.0 0.13124370007655836 -0.03377091387122741
386700000.0 0.12730071051463374 -0.03244854422576543
387700000.0 0.11968576631244525 -0.03026292914071025
388700000.0 0.11653111123315163 -0.029011267294200234
389700000.0 0.11364618432137502 -0.028166690448836698
390700000.0 0.1110736784521783 -0.027467384023531948
391700000.0 0.10511110824933609 -0.025953970372134972
392700000.0 0.10316140729957893 -0.025606311540289556
393700000.0 0.1018677391684931 -0.02318117946066202
394700000.0 0.10031846173908751 -0.022994422934183866
395700000.0 0.09882028180554202 -0.022687328735177162
396700000.0 0.09746050986773061 -0.022393057324134765
397700000.0 0.09616409197394214 -0.022413473447929957
398690000.0 0.09474324181961817 -0.02204744300746201
399690000.0 0.0935319248347454 -0.021851620266130512
