!Created with skrf (http://scikit-rf.org).
# Hz S RI R 50.0 
!freq ReS11 ImS11
25000000.0 0.05225550792861042 0.04884854395502504
26000000.0 0.05057811209869753 0.046151797342944764
27000000.0 0.053091626142758225 0.044108832466658504
28000000.0 0.05678192297897532 0.03924440203218632
29000000.0 0.060472745291118075 0.03882281249054823
30000000.0 0.057386153805781395 0.03792547878397852
31000000.0 0.058991996217548845 0.035375937752708496
31990000.0 0.06019005269792441 0.03346008680239086
32990000.000000004 0.06369923263845334 0.02975759787248552
33990000.0 0.0695862412634127 0.02480591940934322
34990000.0 0.07059470641472276 0.02916913555381009
35990000.0 0.07093591280374045 0.028329266094228072
36990000.0 0.07178076957393353 0.024534068002380484
37990000.0 0.07309259188205158 0.022179361007506372
38990000.0 0.07436540775128744 0.02317648432937599
39990000.0 0.07431231814347401 0.026198658638253637
40990000.0 0.07498630230468786 0.02507551384173065
41990000.0 0.07641203061723752 0.021018686093177575
42990000.0 0.07373621257041656 0.028289915351491147
43980000.0 0.07263794319011732 0.033702002536361304
44980000.0 0.07345382565139529 0.033924876386615926
45980000.0 0.07382761683316658 0.03124676248678146
46980000.0 0.07464739319523621 0.02742052521229305
47980000.0 0.07574320152500687 0.02569661023498392
48980000.0 0.07426331735751358 0.02551293228290396
49980000.0 0.07276262014384362 0.025196316310181578
50980000.0 0.07323787629305975 0.024065225164918026
51980000.0 0.07582696755266417 0.023661032026713155
52980000.0 0.07591153369778333 0.022760110715536606
53980000.0 0.07919206901834694 0.025746344687335117
54980000.0 0.08249856639489773 0.027924224126705567
55970000.0 0.08425929802204561 0.02904570612112768
56970000.0 0.0843647121009529 0.03179466171803575
57970000.0 0.08443744765228407 0.0330566775922581
58970000.0 0.08470384391439043 0.03207451121100321
59970000.0 0.0845092723888835 0.02895047068669631
60970000.0 0.08420356615657906 0.0252302456878968
61970000.0 0.08208938530637856 0.021734939886043178
62970000.0 0.08443888789734458 0.021350643103932747
63970000.0 0.09148187877624077 0.022419321487252848
64970000.0 0.08848475366882445 0.024572259680587284
65970000.0 0.08587484553625642 0.027455710986333953
66970000.0 0.0875504089868957 0.02664992884598601
67960000.0 0.09140812039264372 0.019346038616860694
68960000.0 0.09464689598642732 0.009964491412832094
69960000.0 0.09601408725372677 0.005317592332623045
70960000.0 0.0965838262376008 0.005061743847771787
71960000.0 0.09631085292269917 0.005941242629325704
72960000.0 0.09482470363552217 0.01305681743976651
73960000.0 0.09220587918617265 0.022204766578491176
74960000.0 0.09402483660647977 0.020157178386545366
75960000.0 0.09758807046315263 0.018421817488805677
76960000.0 0.09869257075617241 0.01749097997031191
77960000.0 0.09866321334815885 0.016988899687580973
78960000.0 0.09879925303146958 0.016178998152007042
79960000.0 0.10014633145851397 0.015074201733940352
80950000.0 0.10073192215295333 0.014300403007075971
81950000.0 0.09336179911013197 0.014002994260400877
82950000.0 0.08969556776390294 0.013309080470934345
83950000.0 0.08746963664962053 0.013541015177802675
84950000.0 0.08474614017493204 0.013422469981271312
85950000.0 0.08282849766257454 0.013044660739138307
86950000.0 0.08193602414136 0.013153361218686044
87950000.0 0.0818660304590116 0.013582194974559439
88950000.0 0.08267321322623693 0.014562640712474872
89950000.0 0.08336069050444825 0.016188578394985238
90950000.0 0.08330935568122536 0.017905608907005356
91950000.0 0.08349429615218333 0.019767991425505636
92940000.0 0.08366791654370301 0.02154454282032033
93940000.0 0.08311540272826791 0.02603085821884617
94940000.0 0.08229263847480572 0.029432626261205967
95940000.0 0.08032034689470824 0.03368111674225734
96940000.0 0.08090477329080914 0.030313449867401174
97940000.0 0.07563359281147582 0.03903740820261739
98940000.0 0.0698561457719617 0.046377172151013814
99940000.0 0.065606393651311 0.051128375891070325
100940000.0 0.0655399358715995 0.050746440329238376
101940000.0 0.06966805070246165 0.04508753347392154
102940000.0 0.07347614001955897 0.0369064574532152
103940000.0 0.0743903962107654 0.0356898100098999
104930000.0 0.06575337616803924 0.0510955143106518
105930000.0 0.047952104332858916 0.06195333519431017
106930000.0 0.04302217761622722 0.06429003176046032
107930000.0 0.04710103627136538 0.05912933915479011
108930000.0 0.054277725742020985 0.05049096183328453
109930000.0 0.05917855050258621 0.04264952230776795
110930000.0 0.061159375318407094 0.03882789478145757
111930000.0 0.0627809919265169 0.03648075748872063
112930000.0 0.06516749581598122 0.035870580999357055
113930000.0 0.07391750907958562 0.039584404129754315
114930000.0 0.07996306958364223 0.04164387907487232
115930000.0 0.07972111640171281 0.04030496833325051
116920000.0 0.07693486734132643 0.03754026529689873
117920000.0 0.07730508939148452 0.036541948347190815
118920000.0 0.08076624309393172 0.036705202266748393
119920000.0 0.08525806519297624 0.03742567403711489
120920000.0 0.09015855593927566 0.037991782057346886
121920000.0 0.09589712525689215 0.03833670016793981
122920000.0 0.10129491066897846 0.037872615208912934
123920000.0 0.10711970452289533 0.03632054438610251
124920000.0 0.11350477585688212 0.030859838745475647
125920000.0 0.11920660490850038 0.02410122876267436
126920000.0 0.12253316775372741 0.020065575738873954
127920000.0 0.1260609579911466 0.018075835912722837
128919999.99999999 0.12967547066170618 0.01686491801248525
129910000.0 0.13343200440907962 0.01635975120485134
130910000.0 0.13692952556929477 0.016158212357833546
131910000.0 0.1409279399044011 0.016630040677201807
132910000.0 0.14525455585716074 0.01675514541152354
133910000.0 0.1484669417896563 0.017125694845235104
134910000.0 0.14625846551491453 0.01689681370612513
135910000.0 0.14214515753656262 0.01750359897739459
136910000.0 0.13907283068032741 0.015722420348689526
137910000.0 0.1365875134244705 0.014958765573503377
138910000.0 0.13459908461824424 0.014360732698676477
139910000.0 0.13311187069127275 0.013685335999632342
140910000.0 0.1317930439858335 0.01301532079380967
141900000.0 0.13079242725830661 0.012317462879286796
142900000.0 0.13025188057214188 0.011601756691267081
143900000.0 0.12984621949650224 0.01106326385311343
144900000.0 0.13016659498807068 0.010838885516639021
145900000.0 0.12988589623362648 0.010587279358033939
146900000.0 0.13005019191048833 0.010417901323906669
147900000.0 0.12978309794821327 0.009986265139568611
148900000.0 0.12920564484797464 0.009692343403153253
149900000.0 0.12891016589005963 0.009647552710630228
150900000.0 0.12859840258502525 -0.009827377894508554
151900000.0 0.12870961682842574 -0.010310512178861586
152900000.0 0.12882106767474363 -0.010772124500125638
153890000.0 0.12908932209037494 -0.011134949639447797
154890000.0 0.12938690371110792 -0.011160618349352145
155890000.0 0.12998803237713216 -0.011166759721205921
156890000.0 0.13074627049171067 -0.011139950734563349
157890000.0 0.1317864154532401 -0.011437114506402623
158890000.0 0.13280752968712892 -0.012039690975751855
159890000.0 0.13363564810599404 -0.013103089860281435
160890000.0 0.13438034283350092 -0.014930693934917607
161890000.0 0.13473937440555905 -0.017188809632819588
162890000.0 0.13512545870558024 -0.020122308961777805
163890000.0 0.13545170050432317 -0.0240056871790183
164890000.0 0.1356300735443644 -0.028903294612412075
165890000.0 0.13566292829940813 -0.03505955866222665
166880000.0 0.13524075354269208 -0.04297884456135009
167880000.0 0.13360905203469758 -0.05338571627598429
168880000.0 0.12942521900304246 -0.06694443446632957
169880000.0 0.12366487747298706 -0.080523883432946
170880000.0 0.11842169733209115 -0.09060574213315965
171880000.0 0.11590225578284145 -0.09598494767607776
172880000.0 0.11641957983162116 -0.0967220655254349
173880000.0 0.11811002622513259 -0.09492896389523124
174880000.0 0.11929530421908438 -0.09230170474588655
175880000.0 0.1191205921334963 -0.08911358833433648
176880000.0 0.11814502816876425 -0.0844276839569509
177880000.0 0.11740874411577779 -0.07824270058623796
178870000.0 0.11723355576622216 -0.07257462505339639
179870000.0 0.11147727684372881 -0.07485315060905802
180870000.0 0.08261552065763708 -0.10000708153512042
181870000.0 0.046053197284345 -0.11608026554138622
182870000.0 0.02423895949615052 -0.11860839452628591
183870000.0 0.013206878608927356 -0.11811415581392688
184870000.0 0.008880792288939796 -0.11701805936375878
185870000.0 0.007544233861046735 -0.11603365963112859
186870000.0 0.007078036613995906 -0.11539435238847419
187870000.0 0.007049313115811362 -0.11459875466234055
188870000.0 0.006882790264553176 -0.11032055021537417
189870000.0 0.006975951806515633 -0.1081679788374936
190860000.0 0.007766988455073225 -0.11601896190830845
191860000.0 0.008135484432053284 -0.12120593725480103
192860000.0 0.00795069865226716 -0.12065885021625232
193860000.0 0.007564447266224074 -0.11697520629467453
194860000.0 0.007864427860933776 -0.11218517838436447
195860000.0 0.009461569966655274 -0.1068573000932105
196860000.0 0.012848797667952527 -0.10128219336300463
197860000.0 0.01811051605906603 -0.09511902689437647
198860000.0 0.024003630862164626 -0.0885312211701888
199860000.0 0.02954911297169814 -0.08171763701454027
200860000.0 0.03349745237707748 -0.0748844927010166
201860000.0 0.035546770436518084 -0.06860597625113905
202860000.0 0.03593673005118836 -0.06290171727167501
203850000.0 0.03524471564746678 -0.057694817055589674
204850000.0 0.03367901469168059 -0.05292659750971467
205850000.0 0.03196697921567259 -0.048406899648497065
206850000.0 0.030047120489123735 -0.0440639496386785
207850000.0 0.0267916528033803 -0.037881249646592924
208850000.0 0.024500532995521754 -0.03354939306344533
209850000.0 0.022912226269817402 -0.030284405869779877
210850000.0 0.022109690424677152 -0.028116594628127788
211850000.0 0.021096620228851233 -0.02596864452347824
212850000.0 0.020501142592871238 -0.024268416480344262
213850000.0 0.019943608305223456 -0.02267737478465556
214850000.0 0.019439421924042428 -0.02121440640157987
215840000.0 0.019027404485124806 -0.019869342555314376
216840000.0 0.023732573236918034 -0.0115495230059553
217840000.0 0.02317622746785259 -0.011183871604239618
218840000.0 0.02247948224286171 -0.010881530847049273
219840000.0 0.021982962305356228 -0.01073130762496384
220840000.0 0.021649218248726666 -0.010775037511001133
221840000.0 0.021380958778024508 -0.010997756550230331
222840000.0 0.02127831353982159 -0.011195062318127695
223840000.0 0.021282463341172283 -0.011541010295710094
224840000.0 0.021462834305114732 -0.011970604536428819
225840000.0 0.028794895094880563 -0.01650434264114263
226840000.0 0.029452433521559438 -0.01722440678422954
227840000.0 0.030040105571010448 -0.017950160348799
228830000.0 0.030693951439294844 -0.018684234494775093
229830000.0 0.031553819553289404 -0.019533712921316275
230830000.0 0.03268875368637337 -0.02051356770877574
231830000.0 0.033629638540232445 -0.021391450634566402
232830000.0 0.03493945623302278 -0.022473813430988723
233830000.0 0.036362416907297024 -0.023785835822106704
234830000.0 0.03804144581346907 -0.025150449052146015
235830000.0 0.03969121143058596 -0.0265508908922646
236830000.0 0.041482942264057854 -0.02802275422132801
237830000.0 0.043374890951889976 -0.029543993268510933
238830000.0 0.04496654151072921 -0.030927763805245513
239830000.0 0.0459142942696161 -0.031792564631011384
240820000.0 0.046869927588821775 -0.03269691437340782
241820000.0 0.04774969804993456 -0.03340986474148253
242820000.0 0.04870784314758918 -0.03416898340226406
243820000.0 0.049658375989847924 -0.03486166132696788
244820000.0 0.050652268323216725 -0.035533014885892805
245820000.0 0.051820309084445786 -0.03612346315089302
246820000.0 0.05283180128090632 -0.03659611718907405
247820000.0 0.05402538446435342 -0.03710285839565022
248820000.0 0.05513720617843262 -0.03749934892138928
249820000.0 0.05627021402716684 -0.03789760875240541
250820000.0 0.057398034266150706 -0.038337651603038286
251820000.0 0.058486221852369825 -0.038872868340074127
252810000.0 0.05962209990999989 -0.03937328030626925
253810000.0 0.06059082677793383 -0.039861314256726156
254810000.0 0.061745192652244055 -0.0404049218878279
255810000.0 0.06279055977625209 -0.04083901765847966
256810000.0 0.06389433046770186 -0.04105093382624341
257810000.0 0.06510090983805084 -0.04112328761247057
258810000.0 0.06630816275629633 -0.04087286199631202
259810000.0 0.06763268794624981 -0.04060569384774495
260810000.0 0.06898267758390096 -0.04011664744759615
261810000.0 0.07022577521211233 -0.039618649639895254
262810000.0 0.07150273717999218 -0.03924398218563421
263810000.0 0.07264708456279094 -0.039116424829783634
264800000.0 0.07377251944510854 -0.03924206181500663
265800000.0 0.07474421807897134 -0.0394748669981079
266800000.0 0.07583982390795126 -0.03991816367497503
267800000.0 0.07703567129523166 -0.04020482091425558
268800000.0 0.07786852506480081 -0.040345968907668915
269800000.0 0.07885669126165894 -0.04042250102806752
270800000.0 0.07950967008132086 -0.04026778750815997
271800000.0 0.07972052569103948 -0.04007781540600123
272800000.0 0.07941104005661707 -0.0404619458796679
273800000.0 0.07897830465100163 -0.04107847002090383
274800000.0 0.07828637303338351 -0.042382273441648244
275800000.0 0.07739450687242405 -0.04357397712121131
276800000.0 0.07682016683115281 -0.04478223138737175
277790000.0 0.07637115784472752 -0.045743409954445174
278790000.0 0.075904196377722 -0.046514151363396206
279790000.0 0.07532521475582872 -0.04686757854785404
280790000.0 0.07467243229912238 -0.046950967667674585
281790000.0 0.07399981222494184 -0.04669040436520025
282790000.0 0.07340584083584055 -0.046315636328570664
283790000.0 0.07324122155943659 -0.04601541556471112
284790000.0 0.0735817418530131 -0.045658179543222016
285790000.0 0.07414465402549078 -0.04550713383251046
286790000.0 0.07500758550396694 -0.045444103244878624
287790000.0 0.07593279304657172 -0.045480846164167074
288790000.0 0.07698016329757931 -0.045725650269348966
289780000.0 0.07800845033593289 -0.046023875537426
290780000.0 0.07913250113062288 -0.046389639805283205
291780000.0 0.08020654450090463 -0.046868920372610534
292780000.0 0.08146296795878985 -0.047279434976792885
293780000.0 0.08265121138680384 -0.04762257849609137
294780000.0 0.08386768881893662 -0.04772095479816307
295780000.0 0.08509877281205294 -0.04781381083033564
296780000.0 0.08636967114199488 -0.04785578631678225
297780000.0 0.08757134845468131 -0.04780494852360015
298780000.0 0.0889124880556454 -0.04775440658510876
299780000.0 0.09026045232734375 -0.04770980024687119
300780000.0 0.09159040380141428 -0.04771958868008456
301770000.0 0.09309988946852894 -0.04792903652671874
302770000.0 0.09453089780832746 -0.04806203386479621
303770000.0 0.09594714123526962 -0.04825638472772434
304770000.0 0.09741607811521223 -0.04837895494843306
305770000.0 0.0987820873085317 -0.04845699704350691
306770000.0 0.10000984281278043 -0.048260539500217366
307770000.0 0.10150625755377506 -0.048111901057154224
308770000.0 0.10274695769260443 -0.047606391498142
309770000.0 0.10412122389169452 -0.047121965330555134
310770000.0 0.1055444433533599 -0.046528643403932514
311770000.0 0.1068678246401288 -0.04582568808680832
312770000.0 0.10850710284581049 -0.04505609035455198
313760000.0 0.10990874502699412 -0.04413847315223728
314760000.0 0.11155229300322504 -0.043335492595078025
315760000.0 0.11321106514339087 -0.04248560313407454
316760000.0 0.1147521819922764 -0.04153970997877368
317760000.0 0.11656437982374067 -0.04066045860882073
318760000.0 0.11812167329532923 -0.039637613418220946
319760000.0 0.11964729529269374 -0.0386911504332292
320760000.0 0.12117643763198734 -0.03771905771097407
321760000.0 0.12273445448722636 -0.036635384721855284
322760000.0 0.12396472991729893 -0.03559314878221412
323760000.0 0.12534272351840595 -0.03454867547998179
324760000.0 0.12641162194121067 -0.03347021047282637
325750000.0 0.12763945572692134 -0.032345159132035034
326750000.0 0.12872083236555346 -0.03114084670552016
327750000.0 0.12978483007117694 -0.02996318895407121
328750000.0 0.13072696518713034 -0.028574798569994595
329750000.0 0.13181348273351493 -0.027177319512000826
330750000.0 0.1328895148789927 -0.0257589025181216
331750000.0 0.13396746723380543 -0.024249411479608806
332750000.0 0.13489712474926127 -0.022574036813123113
333750000.0 0.13597239996855234 -0.02085527830650495
334750000.0 0.13702357010893657 -0.01915986651342337
335750000.0 0.1382232211216038 -0.017412636753116936
336750000.0 0.13924399143099186 -0.015643325053399874
337740000.0 0.14040578327789693 -0.013890623167882098
338740000.0 0.14121808571851452 -0.012181149046193076
339740000.0 0.1423269580472443 -0.010651656682185123
340740000.0 0.1432529574005857 -0.009213540507643492
341740000.0 0.14399364557636316 -0.007924449802079148
342740000.0 0.144883060368526 -0.006832511684205421
343740000.0 0.1455899793317562 -0.006000211511355981
344740000.0 0.14612044963176757 -0.005332456697658498
345740000.0 0.1466395104894536 -0.004967022312930343
346740000.0 0.1469784161415233 -0.00495281998455553
347740000.0 0.14730651621338048 -0.005272766798800353
348740000.0 0.14762266014524866 -0.005903332115884167
349730000.0 0.14790695291968795 -0.007182104950340588
350730000.0 0.14800746703344872 -0.008508139055683586
351730000.0 0.1480519465877811 -0.010482640034999408
352730000.0 0.14802585826265519 -0.012976618041436029
353730000.0 0.14773838339692114 -0.01591908921557197
354730000.0 0.14778479815503773 -0.017047009424856145
355730000.0 0.14744660531333562 -0.021011015672156852
356730000.0 0.14686942871847453 -0.025738488969303544
357730000.0 0.14630488607783332 -0.03133834225729896
358730000.0 0.14540470702923247 -0.037414747029311524
359730000.0 0.14425321267958247 -0.043470209919637584
360730000.0 0.14412222116844786 -0.04680034024018014
361730000.0 0.14302055321478857 -0.053160454614176476
362720000.0 0.1421675902461422 -0.05917865612044231
363720000.0 0.14362625715993682 -0.06657770486092789
364720000.0 0.14293680391626806 -0.07342800550572164
365720000.0 0.14182965737198824 -0.08057045915056289
366720000.0 0.14022278604506597 -0.08912546682044989
367720000.0 0.13894807481349739 -0.09798077020149148
368720000.0 0.1370501228748592 -0.1074996542409728
369720000.0 0.13790819018949377 -0.12064448807531111
370720000.0 0.13482869457885618 -0.1318497439324781
371720000.0 0.13082468092653635 -0.14367366478590138
372720000.0 0.12543943679916436 -0.1554587981804911
373720000.0 0.11860490576607573 -0.16676999982014792
374710000.0 0.1104030418402957 -0.17709420013362032
375710000.0 0.1006848564890353 -0.18582496842157317
376710000.0 0.09068248612856172 -0.19279742834011956
377710000.0 0.07995106048877827 -0.19828425779220904
378710000.0 0.06940040272515134 -0.20143918627369187
379710000.0 0.056118436684813575 -0.20401483152381059
380710000.0 0.046288041887287835 -0.20373757729554284
381710000.0 0.03754411033414763 -0.20237276591520773
382710000.0 0.029448084091885762 -0.20014713666779824
383710000.0 0.02197567611466062 -0.19716002943010857
384710000.0 0.015364662008989323 -0.19392830023763638
385710000.0 0.008875400184083584 -0.1834392491738321
386700000.0 0.0035871832559244126 -0.180266086258153
387700000.0 -0.0021007582841396414 -0.17699842953480543
388700000.0 -0.006495635857946376 -0.16756137687065706
389700000.0 -0.010709751434635076 -0.16427786686926746
390700000.0 -0.014659407825430307 -0.1607688939509029
391700000.0 -0.018552110035562258 -0.15721613067223578
392700000.0 -0.022436479256172617 -0.15360878453217866
393700000.0 -0.02653026684802282 -0.14954469842884233
394700000.0 -0.03064061486696101 -0.14540013772608185
395700000.0 -0.0351139006273298 -0.14072952206413109
396700000.0 -0.03888151280709191 -0.13244936821844194
397700000.0 -0.04362750493662714 -0.1269914100307586
398690000.0 -0.04855686510139245 -0.12109424402288772
399690000.0 -0.05353007731691252 -0.1145866969093361
