!Created with skrf (http://scikit-rf.org).
# Hz S RI R 50.0 
!freq ReS11 ImS11 ReS21 ImS21 ReS12 ImS12 ReS22 ImS22
25000000.0 0.08033239955756569 -0.019642353579393486 1.0038933194867778 -0.2848302940757029 0.08033239955756569 -0.019642353579393486 1.0038933194867778 -0.2848302940757029
26000000.0 0.07817248350743457 -0.017774700994674004 0.9864606864710662 -0.2976421866029028 0.07817248350743457 -0.017774700994674004 0.9864606864710662 -0.2976421866029028
27000000.0 0.07681574542660313 -0.017550828950677468 0.9804687208425685 -0.3010696950417969 0.07681574542660313 -0.017550828950677468 0.9804687208425685 -0.3010696950417969
28000000.0 0.07534905831692466 -0.011408925714799402 0.9764140180673196 -0.3061767681789909 0.07534905831692466 -0.011408925714799402 0.9764140180673196 -0.3061767681789909
29000000.0 0.07635695549925749 -0.016704358591102322 0.9856034821047123 -0.33169221781797115 0.07635695549925749 -0.016704358591102322 0.9856034821047123 -0.33169221781797115
30000000.0 0.07236093081360145 -0.018323569005749978 0.9689477941201524 -0.332689947130978 0.07236093081360145 -0.018323569005749978 0.9689477941201524 -0.332689947130978
31000000.0 0.06965635606996327 -0.017328545953773995 0.9615679592057185 -0.34656497089254396 0.06965635606996327 -0.017328545953773995 0.9615679592057185 -0.34656497089254396
31990000.0 0.06678071700416027 -0.024227026479647605 0.9577660049557215 -0.36362990581562316 0.06678071700416027 -0.024227026479647605 0.9577660049557215 -0.36362990581562316
32990000.000000004 0.06546890800441806 -0.025630625325524164 0.9595481477269184 -0.3721841981749478 0.06546890800441806 -0.025630625325524164 0.9595481477269184 -0.3721841981749478
33990000.0 0.0673356189713978 -0.017539614978092515 0.9670268879194169 -0.3824826131196366 0.0673356189713978 -0.017539614978092515 0.9670268879194169 -0.3824826131196366
34990000.0 0.06476395738251628 -0.02652202891635699 0.9662793512248851 -0.406583392219771 0.06476395738251628 -0.02652202891635699 0.9662793512248851 -0.406583392219771
35990000.0 0.06313940393282019 -0.02689217237371684 0.9576312524436865 -0.4023544538997493 0.06313940393282019 -0.02689217237371684 0.9576312524436865 -0.4023544538997493
36990000.0 0.06303149392306066 -0.024018979481394545 0.9417228441943813 -0.40634955216619595 0.06303149392306066 -0.024018979481394545 0.9417228441943813 -0.40634955216619595
37990000.0 0.062196794392815516 -0.02382530601214084 0.9237563654116101 -0.4207853345865892 0.062196794392815516 -0.02382530601214084 0.9237563654116101 -0.4207853345865892
38990000.0 0.05824505795144249 -0.02681436993998417 0.9086187806699961 -0.44198574085760894 0.05824505795144249 -0.02681436993998417 0.9086187806699961 -0.44198574085760894
39990000.0 0.05513130015270123 -0.030685688015877014 0.8998766795495701 -0.4620767835366699 0.05513130015270123 -0.030685688015877014 0.8998766795495701 -0.4620767835366699
40990000.0 0.05560655696240165 -0.028885293434257876 0.8862118700610693 -0.46823531652499 0.05560655696240165 -0.028885293434257876 0.8862118700610693 -0.46823531652499
41990000.0 0.05660615744751268 -0.02353968950330162 0.8703549159042848 -0.4759132548294691 0.05660615744751268 -0.02353968950330162 0.8703549159042848 -0.4759132548294691
42990000.0 0.049749094369607054 -0.03424276680789699 0.8656750339087859 -0.5074824179405891 0.049749094369607054 -0.03424276680789699 0.8656750339087859 -0.5074824179405891
43980000.0 0.047991511406714 -0.0378063012057044 0.8547488750528647 -0.5123674550718421 0.047991511406714 -0.0378063012057044 0.8547488750528647 -0.5123674550718421
44980000.0 0.046441061760774234 -0.03307719390133173 0.8669974721749422 -0.48434994464072245 0.046441061760774234 -0.03307719390133173 0.8669974721749422 -0.48434994464072245
45980000.0 0.048741989967466225 -0.026995888615486945 0.8745414295104665 -0.48257367509256355 0.048741989967466225 -0.026995888615486945 0.8745414295104665 -0.48257367509256355
46980000.0 0.0508403018039957 -0.023880291787439608 0.8797434394300485 -0.4898600478876266 0.0508403018039957 -0.023880291787439608 0.8797434394300485 -0.4898600478876266
47980000.0 0.05216705320822242 -0.025218538855374614 0.8818176918526471 -0.5027759727525629 0.05216705320822242 -0.025218538855374614 0.8818176918526471 -0.5027759727525629
48980000.0 0.0513533422283362 -0.027975501195089774 0.8715621411052177 -0.5088917588703965 0.0513533422283362 -0.027975501195089774 0.8715621411052177 -0.5088917588703965
49980000.0 0.04797910855922123 -0.02832957341702871 0.8569733847564067 -0.519819591875434 0.04797910855922123 -0.02832957341702871 0.8569733847564067 -0.519819591875434
50980000.0 0.045453307978440174 -0.027192470129960244 0.8479773279504113 -0.5408455468449188 0.045453307978440174 -0.027192470129960244 0.8479773279504113 -0.5408455468449188
51980000.0 0.05061966407533222 -0.028058937978455212 0.8350348869994937 -0.5543758001321287 0.05061966407533222 -0.028058937978455212 0.8350348869994937 -0.5543758001321287
52980000.0 0.050695517133853736 -0.024485342668107292 0.8254718578960699 -0.5603584827350591 0.050695517133853736 -0.024485342668107292 0.8254718578960699 -0.5603584827350591
53980000.0 0.04729744140019805 -0.02847537579423342 0.8233345332418424 -0.5675563816674406 0.04729744140019805 -0.02847537579423342 0.8233345332418424 -0.5675563816674406
54980000.0 0.04174254254137215 -0.034865062867192466 0.8114106558477928 -0.5962584450666792 0.04174254254137215 -0.034865062867192466 0.8114106558477928 -0.5962584450666792
55970000.0 0.042215256633900834 -0.03389344114403572 0.8087212247136941 -0.6154115586004052 0.042215256633900834 -0.03389344114403572 0.8087212247136941 -0.6154115586004052
56970000.0 0.044631814972800325 -0.03388967078786593 0.8103674450323677 -0.6267751053480305 0.044631814972800325 -0.03388967078786593 0.8103674450323677 -0.6267751053480305
57970000.0 0.0465308087804042 -0.035976069998023406 0.8104678198618926 -0.6343466230268745 0.0465308087804042 -0.035976069998023406 0.8104678198618926 -0.6343466230268745
58970000.0 0.04694106860667777 -0.03954205442187166 0.8093228264387924 -0.6453804055305141 0.04694106860667777 -0.03954205442187166 0.8093228264387924 -0.6453804055305141
59970000.0 0.04572820861912947 -0.04136211913926782 0.8078099973364512 -0.6529852451879073 0.04572820861912947 -0.04136211913926782 0.8078099973364512 -0.6529852451879073
60970000.0 0.04068076575350798 -0.04154183024095145 0.7994267044336659 -0.6557223676686545 0.04068076575350798 -0.04154183024095145 0.7994267044336659 -0.6557223676686545
61970000.0 0.034506360933003126 -0.04034468969301624 0.788907395925011 -0.655428863018742 0.034506360933003126 -0.04034468969301624 0.788907395925011 -0.655428863018742
62970000.0 0.033614124172132206 -0.045162574319717104 0.7912832258888529 -0.6599745552865315 0.033614124172132206 -0.045162574319717104 0.7912832258888529 -0.6599745552865315
63970000.0 0.03344699164058531 -0.05070576629828329 0.7929918572086284 -0.6616343670268859 0.03344699164058531 -0.05070576629828329 0.7929918572086284 -0.6616343670268859
64970000.0 0.02997066452849333 -0.04873567703960714 0.7800398888606535 -0.6568545787427524 0.02997066452849333 -0.04873567703960714 0.7800398888606535 -0.6568545787427524
65970000.0 0.02855252678261833 -0.045410919711711774 0.7689816796401634 -0.6572367675796503 0.02855252678261833 -0.045410919711711774 0.7689816796401634 -0.6572367675796503
66970000.0 0.02844988127367713 -0.04175291077487799 0.7641877314164743 -0.6610269244593766 0.02844988127367713 -0.04175291077487799 0.7641877314164743 -0.6610269244593766
67960000.0 0.028881140428421555 -0.039766073001979145 0.7541993210241117 -0.6689036380806015 0.028881140428421555 -0.039766073001979145 0.7541993210241117 -0.6689036380806015
68960000.0 0.027113825311855657 -0.03964325498339212 0.7344974804893205 -0.687090172695505 0.027113825311855657 -0.03964325498339212 0.7344974804893205 -0.687090172695505
69960000.0 0.02667727886315528 -0.041142260419966964 0.7223150725176488 -0.6965576823678195 0.02667727886315528 -0.041142260419966964 0.7223150725176488 -0.6965576823678195
70960000.0 0.0306708213210489 -0.041178053685399875 0.7233169130389268 -0.6921834160031122 0.0306708213210489 -0.041178053685399875 0.7233169130389268 -0.6921834160031122
71960000.0 0.030991192958069107 -0.04507560976452694 0.715173454539314 -0.7005941535583947 0.030991192958069107 -0.04507560976452694 0.715173454539314 -0.7005941535583947
72960000.0 0.01902909295963832 -0.054096302368029515 0.6739148888322459 -0.7434853000981431 0.01902909295963832 -0.054096302368029515 0.6739148888322459 -0.7434853000981431
73960000.0 0.016566003677732175 -0.05807845548398687 0.6617658742290253 -0.7604699997873614 0.016566003677732175 -0.05807845548398687 0.6617658742290253 -0.7604699997873614
74960000.0 0.017167508591228585 -0.061321790607042195 0.663152260030574 -0.7561802260547683 0.017167508591228585 -0.061321790607042195 0.663152260030574 -0.7561802260547683
75960000.0 0.016642898168325124 -0.06393881655896062 0.6653142217056665 -0.7589126263610986 0.016642898168325124 -0.06393881655896062 0.6653142217056665 -0.7589126263610986
76960000.0 0.013930505098015643 -0.06304470526870211 0.672822057228972 -0.7709987207233702 0.013930505098015643 -0.06304470526870211 0.672822057228972 -0.7709987207233702
77960000.0 0.011392990447261567 -0.057910041607900156 0.6747405747226198 -0.7850123961190646 0.011392990447261567 -0.057910041607900156 0.6747405747226198 -0.7850123961190646
78960000.0 0.008719547665709336 -0.047230463444957765 0.6640890303431654 -0.7847313355483728 0.008719547665709336 -0.047230463444957765 0.6640890303431654 -0.7847313355483728
79960000.0 0.007230103878838644 -0.03736973978295761 0.6616303663022036 -0.7898992439454139 0.007230103878838644 -0.03736973978295761 0.6616303663022036 -0.7898992439454139
80950000.0 0.009753421908838657 -0.04624330204363348 0.6732989976579996 -0.8098415122819613 0.009753421908838657 -0.04624330204363348 0.6732989976579996 -0.8098415122819613
81950000.0 0.01302770598165283 -0.05940168915660791 0.6726263373257734 -0.8182861752698003 0.01302770598165283 -0.05940168915660791 0.6726263373257734 -0.8182861752698003
82950000.0 0.011617027517953397 -0.05575339312670223 0.650874297798908 -0.8049111464642448 0.011617027517953397 -0.05575339312670223 0.650874297798908 -0.8049111464642448
83950000.0 0.00846648183386732 -0.04524024558515677 0.6352708309477731 -0.7992173676417637 0.00846648183386732 -0.04524024558515677 0.6352708309477731 -0.7992173676417637
84950000.0 0.0058804999049310224 -0.03587081480890393 0.6232495842113565 -0.7997351148391852 0.0058804999049310224 -0.03587081480890393 0.6232495842113565 -0.7997351148391852
85950000.0 0.004524340725985788 -0.032192357015429066 0.6108918216799555 -0.8019101415216301 0.004524340725985788 -0.032192357015429066 0.6108918216799555 -0.8019101415216301
86950000.0 0.003211215911679339 -0.02741837162185219 0.5971922221249835 -0.8035338747752481 0.003211215911679339 -0.02741837162185219 0.5971922221249835 -0.8035338747752481
87950000.0 0.002251531407996835 -0.024133378521222014 0.5812119850127023 -0.8052776627405015 0.002251531407996835 -0.024133378521222014 0.5812119850127023 -0.8052776627405015
88950000.0 0.0014298062780210806 -0.02211025848243151 0.5646869151534812 -0.8058576450687145 0.0014298062780210806 -0.02211025848243151 0.5646869151534812 -0.8058576450687145
89950000.0 0.000730834707476347 -0.02092836779123814 0.5533820807011772 -0.8109237303118008 0.000730834707476347 -0.02092836779123814 0.5533820807011772 -0.8109237303118008
90950000.0 0.00029932369367390374 -0.02041518525012058 0.5438279838329309 -0.8200786427297436 0.00029932369367390374 -0.02041518525012058 0.5438279838329309 -0.8200786427297436
91950000.0 0.0001694780759412087 -0.02022948187452624 0.5359423358864989 -0.8306642122785439 0.0001694780759412087 -0.02022948187452624 0.5359423358864989 -0.8306642122785439
92940000.0 0.00024390233652836504 -0.020252027420405178 0.5293546454151962 -0.8402756363292717 0.00024390233652836504 -0.020252027420405178 0.5293546454151962 -0.8402756363292717
93940000.0 0.0003535826543966902 -0.020461391556402704 0.5271041217277413 -0.8498007089062861 0.0003535826543966902 -0.020461391556402704 0.5271041217277413 -0.8498007089062861
94940000.0 0.0002722238854525252 -0.02079518514443182 0.5288039034553347 -0.8555383603032068 0.0002722238854525252 -0.02079518514443182 0.5288039034553347 -0.8555383603032068
95940000.0 0.00011567431663656606 -0.02137930796511772 0.5314061038878398 -0.8607557987208106 0.00011567431663656606 -0.02137930796511772 0.5314061038878398 -0.8607557987208106
96940000.0 0.0028986626110709657 -0.022017528449444893 0.5185462212044701 -0.8726373455887507 0.0028986626110709657 -0.022017528449444893 0.5185462212044701 -0.8726373455887507
97940000.0 0.001594157609157018 -0.023145808346943846 0.5034268067306933 -0.8801009876096101 0.001594157609157018 -0.023145808346943846 0.5034268067306933 -0.8801009876096101
98940000.0 0.00021794246554020314 -0.024973732932105565 0.49601676192022137 -0.8802879390300985 0.00021794246554020314 -0.024973732932105565 0.49601676192022137 -0.8802879390300985
99940000.0 -0.0009888969035617287 -0.02749281684249725 0.4946127247387479 -0.8770801777848996 -0.0009888969035617287 -0.02749281684249725 0.4946127247387479 -0.8770801777848996
100940000.0 -0.002759411495573352 -0.03179586508104811 0.48924178861745216 -0.8761130869483691 -0.002759411495573352 -0.03179586508104811 0.48924178861745216 -0.8761130869483691
101940000.0 -0.005105834646988787 -0.038522858236659394 0.483266988245707 -0.879422928359119 -0.005105834646988787 -0.038522858236659394 0.483266988245707 -0.879422928359119
102940000.0 -0.0073982560087974365 -0.04767973432909731 0.47466791216902154 -0.8893475507515594 -0.0073982560087974365 -0.04767973432909731 0.47466791216902154 -0.8893475507515594
103940000.0 -0.00623957940163004 -0.056607983733606405 0.4591533615173768 -0.9066088441928472 -0.00623957940163004 -0.056607983733606405 0.4591533615173768 -0.9066088441928472
104930000.0 -0.005781409151903429 -0.06232169830240603 0.442523724345491 -0.9252754331628064 -0.005781409151903429 -0.06232169830240603 0.442523724345491 -0.9252754331628064
105930000.0 -0.009840307170104092 -0.06122978176713954 0.4428962856359502 -0.9277178393151321 -0.009840307170104092 -0.06122978176713954 0.4428962856359502 -0.9277178393151321
106930000.0 -0.014781392662405994 -0.0627743302305966 0.4447300462535414 -0.9150723209881646 -0.014781392662405994 -0.0627743302305966 0.4447300462535414 -0.9150723209881646
107930000.0 -0.01786619666236779 -0.060665035353427196 0.44011284940696815 -0.9043672561779191 -0.01786619666236779 -0.060665035353427196 0.44011284940696815 -0.9043672561779191
108930000.0 -0.018631586676999507 -0.05571625769249057 0.43300301015937886 -0.9001158020029812 -0.018631586676999507 -0.05571625769249057 0.43300301015937886 -0.9001158020029812
109930000.0 -0.016497067931345567 -0.04708188683507661 0.42378902541866054 -0.898154968569407 -0.016497067931345567 -0.04708188683507661 0.42378902541866054 -0.898154968569407
110930000.0 -0.01206784791946043 -0.033890454231874215 0.4148275549877945 -0.9010711433532772 -0.01206784791946043 -0.033890454231874215 0.4148275549877945 -0.9010711433532772
111930000.0 -0.009921824689344678 -0.027186148623164576 0.40551953326386153 -0.9065502709572538 -0.009921824689344678 -0.027186148623164576 0.40551953326386153 -0.9065502709572538
112930000.0 -0.015061013875494857 -0.03996325266243715 0.3956644355933827 -0.9121418470081881 -0.015061013875494857 -0.03996325266243715 0.3956644355933827 -0.9121418470081881
113930000.0 -0.024259659797280782 -0.06530202070488637 0.37968930392132716 -0.904128481395981 -0.024259659797280782 -0.06530202070488637 0.37968930392132716 -0.904128481395981
114930000.0 -0.024875501457047883 -0.07601682565121284 0.361054925438471 -0.8900622270220119 -0.024875501457047883 -0.07601682565121284 0.361054925438471 -0.8900622270220119
115930000.0 -0.01663240993591686 -0.07374380859734793 0.34867362715133027 -0.8878851132671314 -0.01663240993591686 -0.07374380859734793 0.34867362715133027 -0.8878851132671314
116920000.0 -0.00824887022791603 -0.06718165677555396 0.33997906097896935 -0.8912505319651203 -0.00824887022791603 -0.06718165677555396 0.33997906097896935 -0.8912505319651203
117920000.0 -0.003079882151716124 -0.05996916504461242 0.33498701602854153 -0.8954869851441415 -0.003079882151716124 -0.05996916504461242 0.33498701602854153 -0.8954869851441415
118920000.0 -0.0009018374793462535 -0.053819422858872895 0.33521642906525545 -0.8965770662953287 -0.0009018374793462535 -0.053819422858872895 0.33521642906525545 -0.8965770662953287
119920000.0 -0.000775500830546497 -0.04533529744521328 0.340218605850245 -0.8946908909535826 -0.000775500830546497 -0.04533529744521328 0.340218605850245 -0.8946908909535826
120920000.0 -0.002731348451866693 -0.04027202215278255 0.34474266614107585 -0.8929574369833887 -0.002731348451866693 -0.04027202215278255 0.34474266614107585 -0.8929574369833887
121920000.0 -0.003917899076470184 -0.038437539936962535 0.3504091455869011 -0.8895654400657145 -0.003917899076470184 -0.038437539936962535 0.3504091455869011 -0.8895654400657145
122920000.0 -0.005482345616182921 -0.04017854663573152 0.35329842720411786 -0.8896070545230048 -0.005482345616182921 -0.04017854663573152 0.35329842720411786 -0.8896070545230048
123920000.0 -0.0067834541996986105 -0.042115147010672725 0.33935404435169475 -0.900926554143842 -0.0067834541996986105 -0.042115147010672725 0.33935404435169475 -0.900926554143842
124920000.0 -0.0077960427230929375 -0.04933372522729926 0.2830941424197258 -0.9248045094370981 -0.0077960427230929375 -0.04933372522729926 0.2830941424197258 -0.9248045094370981
125920000.0 -0.008893254402429659 -0.054486741651172794 0.24378839948338574 -0.9440190728653796 -0.008893254402429659 -0.054486741651172794 0.24378839948338574 -0.9440190728653796
126920000.0 -0.009650380823205514 -0.055465643537334 0.22935111528121302 -0.954582154423198 -0.009650380823205514 -0.055465643537334 0.22935111528121302 -0.954582154423198
127920000.0 -0.010081456220180661 -0.054929535084274284 0.21926458221049264 -0.9627630449417163 -0.010081456220180661 -0.054929535084274284 0.21926458221049264 -0.9627630449417163
128919999.99999999 -0.009948564701891323 -0.05404607090968129 0.20977257081001938 -0.971878882985269 -0.009948564701891323 -0.05404607090968129 0.20977257081001938 -0.971878882985269
129910000.0 -0.009208868146104509 -0.05057277434341136 0.20206679843002656 -0.9852656815459157 -0.009208868146104509 -0.05057277434341136 0.20206679843002656 -0.9852656815459157
130910000.0 -0.009168481179054139 -0.051367696667723416 0.19595472805437908 -1.0043556604131993 -0.009168481179054139 -0.051367696667723416 0.19595472805437908 -1.0043556604131993
131910000.0 -0.009236668327439088 -0.05265239312304646 0.1920251767573947 -1.0330561220927759 -0.009236668327439088 -0.05265239312304646 0.1920251767573947 -1.0330561220927759
132910000.0 -0.009455233164726995 -0.05445658526768055 0.1900264882191972 -1.0722213773014597 -0.009455233164726995 -0.05445658526768055 0.1900264882191972 -1.0722213773014597
133910000.0 -0.009501632432407783 -0.0548373803197782 0.1839358053791446 -1.0886492632727915 -0.009501632432407783 -0.0548373803197782 0.1839358053791446 -1.0886492632727915
134910000.0 -0.009232051656938974 -0.05328153150996082 0.17162926756174218 -1.0715173204559165 -0.009232051656938974 -0.05328153150996082 0.17162926756174218 -1.0715173204559165
135910000.0 -0.008973872202162123 -0.05152415301590096 0.15856995786863387 -1.0572293522463854 -0.008973872202162123 -0.05152415301590096 0.15856995786863387 -1.0572293522463854
136910000.0 -0.008806396309144 -0.05082491951636622 0.14465629309871306 -1.050561531198371 -0.008806396309144 -0.05082491951636622 0.14465629309871306 -1.050561531198371
