!Created with skrf (http://scikit-rf.org).
# Hz S RI R 50.0 
!freq ReS11 ImS11
25000000.0 0.6379792784294712 -0.6781919463196449
26000000.0 0.646799631923337 -0.6429727888849627
27000000.0 0.7157861592656825 -0.6570472208978638
28000000.0 0.8123453648465258 -0.5969453082846538
29000000.0 0.8253853391069955 -0.5461034951324968
30000000.0 0.8568975099103865 -0.5154868160383728
31000000.0 0.9128380622214374 -0.4519458905420245
31990000.0 0.9468653760126792 -0.38178971843368403
32990000.000000004 0.9314225219067584 -0.38561739918674504
33990000.0 0.9694719566898448 -0.30865238031045117
34990000.0 0.9975857787136045 -0.22792797581532365
35990000.0 0.9763264478684829 -0.17549294274598207
36990000.0 0.9682514414075186 -0.11442875455297179
37990000.0 1.0058752879965898 -0.06681016291308517
38990000.0 0.9847161271797658 -0.02905367648978136
39990000.0 0.9779815057834504 -0.02731749696401883
40990000.0 0.9848886247976095 -0.0705976944500352
41990000.0 0.9959540510707968 -0.1559622423100027
42990000.0 0.9436946995956484 -0.22656105242940616
43980000.0 0.936001090501177 -0.2924281740261565
44980000.0 0.9163184738266567 -0.34606514710372105
45980000.0 0.8957766832111983 -0.3906107011291171
46980000.0 0.8723553659299191 -0.43038735680671414
47980000.0 0.8510307030684321 -0.47115167812567876
48980000.0 0.8338709654550865 -0.5160150107842468
49980000.0 0.7953400370660324 -0.550308912872901
50980000.0 0.7611097964702754 -0.5895266754747618
51980000.0 0.7155887924409123 -0.6456772157300372
52980000.0 0.6664333086785197 -0.7116680678097638
53980000.0 0.599825131165173 -0.7586932754217839
54980000.0 0.53476292019862 -0.7952114282781815
55970000.0 0.474651125412292 -0.8324895828948404
56970000.0 0.40860345832070216 -0.8558859710138946
57970000.0 0.3455371798809648 -0.8727272943640091
58970000.0 0.28903381546531776 -0.8884991963449782
59970000.0 0.23046823578930725 -0.9121403412430565
60970000.0 0.1714841049561828 -0.9261475118928613
61970000.0 0.11407595342537126 -0.9197826908327251
62970000.0 0.05650726478137335 -0.9134200628154662
63970000.0 -0.005081887984973956 -0.9098990812869537
64970000.0 -0.07028895106017116 -0.9114068694003292
65970000.0 -0.12316832489302493 -0.9121715726132024
66970000.0 -0.15993636013241133 -0.9107618094717624
67960000.0 -0.18440449430194325 -0.9039541031953011
68960000.0 -0.21752930578636387 -0.8943759921110914
69960000.0 -0.27947521144505433 -0.8725557820031563
70960000.0 -0.3447516782579647 -0.8477473458909791
71960000.0 -0.3890190309840342 -0.8237201958472704
72960000.0 -0.4226362111632486 -0.7951978941542883
73960000.0 -0.4659410644256683 -0.7453720611731952
74960000.0 -0.5010071967457731 -0.6880608613225522
75960000.0 -0.5391691035501185 -0.6270632544316331
76960000.0 -0.5827679999097203 -0.5787136476524002
77960000.0 -0.6375685368803155 -0.5460763955230447
78960000.0 -0.6864822355079019 -0.5015096648462956
79960000.0 -0.7137311741983415 -0.44374020016268384
80950000.0 -0.7341377397369525 -0.3869031861308388
81950000.0 -0.770410443910913 -0.3454283978475274
82950000.0 -0.8015275983895254 -0.30896235878990264
83950000.0 -0.8114633610894321 -0.2600637826468667
84950000.0 -0.8125228245070665 -0.1908747593733323
85950000.0 -0.8248734900206448 -0.10683958245939329
86950000.0 -0.8239136187627524 -0.05920340327156444
87950000.0 -0.8151354385916908 -0.06243504080679753
88950000.0 -0.8030096350713282 -0.11328443555066484
89950000.0 -0.79162014195788 -0.16725347504270524
90950000.0 -0.7843202550535616 -0.2238635604882077
91950000.0 -0.7733231066264332 -0.27658524988792177
92940000.0 -0.761507649307473 -0.3176089714412179
93940000.0 -0.7572618001016089 -0.34638182995567196
94940000.0 -0.7453015485619403 -0.3841847493003947
95940000.0 -0.7162294503378922 -0.4229022882269818
96940000.0 -0.6438199778216978 -0.5235915703121514
97940000.0 -0.6071279880337234 -0.5741323978171711
98940000.0 -0.5657226890223155 -0.6188943035843794
99940000.0 -0.5276334057402956 -0.657887910513809
100940000.0 -0.49581051699213496 -0.6966426736307569
101940000.0 -0.46552992322917 -0.7361110416285215
102940000.0 -0.4287994785164762 -0.7719851797458659
103940000.0 -0.3822099933894974 -0.8006005937096843
104930000.0 -0.33158494133210337 -0.8328130335599959
105930000.0 -0.2828235166825838 -0.8714762446163944
106930000.0 -0.23103905737444844 -0.8920770308688819
107930000.0 -0.17991182726755311 -0.9102886831076451
108930000.0 -0.1282842717287355 -0.923311201553046
109930000.0 -0.07634566329277 -0.9366169121444209
110930000.0 -0.02474655131099812 -0.951378057922513
111930000.0 0.027342266712045735 -0.9667771587075272
112930000.0 0.0742081819446172 -0.9800734792464736
113930000.0 0.12223458635867136 -0.9855649098506577
114930000.0 0.1662134937295517 -0.9837573338246293
115930000.0 0.21342519302179155 -0.9805005639138692
116920000.0 0.25776533754086794 -0.9769833747153133
117920000.0 0.3253184711468578 -0.9627716749531366
118920000.0 0.4074662341605963 -0.9335414740851071
119920000.0 0.5230886967569807 -0.874017523361572
120920000.0 0.6238465692696035 -0.8022324250315136
121920000.0 0.6964958382885449 -0.7432509421889416
122920000.0 0.7525172445455484 -0.6934308507071738
123920000.0 0.8005605584397951 -0.6524560625059905
124920000.0 0.8482354710401255 -0.6180905234759317
125920000.0 0.8958728423969942 -0.5833439680371284
126920000.0 0.9512460987864825 -0.5478748031396362
127920000.0 1.0080838871094053 -0.512979707890981
128919999.99999999 1.0408753008437586 -0.46233957117833985
129910000.0 1.0371598213261057 -0.3931517211448803
130910000.0 1.050953464513713 -0.3341897904978422
131910000.0 1.054340207687222 -0.2722783036182389
132910000.0 1.054639580767035 -0.20939817781354156
133910000.0 1.0496033074907687 -0.14265816207424667
134910000.0 1.0395448456623888 -0.07597458439389966
135910000.0 1.0265091466660998 -0.025804422142228767
136910000.0 1.0137690686498249 -0.01698745346838346
137910000.0 1.0001528015667094 -0.044717016852225996
138910000.0 0.9852670049418235 -0.09348216076700246
139910000.0 0.9674899168582667 -0.14545560172241104
140910000.0 0.9445476244606276 -0.19732627953117585
141900000.0 0.918926641323388 -0.24760135048968857
142900000.0 0.8909646889205085 -0.29534860098669086
143900000.0 0.864580803109972 -0.3456326238246797
144900000.0 0.8374368865218611 -0.3996163325956188
145900000.0 0.8091908891069325 -0.4540967486901142
146900000.0 0.777815486067437 -0.5020367664464888
147900000.0 0.7453334971001501 -0.5437058177938113
148900000.0 0.7116645440354099 -0.5820759588946807
149900000.0 0.675940574491609 -0.6185178463677108
150900000.0 0.6384306604577068 -0.6542242047026265
151900000.0 0.5949857306360185 -0.6856603352626763
152900000.0 0.5460781163803108 -0.7134659915226303
153890000.0 0.49396069034753404 -0.7381483279192212
154890000.0 0.4418784820756027 -0.7610553231408872
155890000.0 0.3892059158484531 -0.780285224779214
156890000.0 0.3365958934316475 -0.801121359214935
157890000.0 0.27914237818867366 -0.8176357936815376
158890000.0 0.22258517255741295 -0.830699172995751
159890000.0 0.16598151124424784 -0.83980632949745
160890000.0 0.11086875697896693 -0.8478485726881636
161890000.0 0.057363560813041364 -0.8501854970099192
162890000.0 0.004748157190555066 -0.8501454337967499
163890000.0 -0.05021386464230223 -0.8476945481602346
164890000.0 -0.10928653536027816 -0.8391661715070793
165890000.0 -0.17366687997697786 -0.8262522889079228
166880000.0 -0.24247581533219517 -0.8097541633449628
167880000.0 -0.3133107959182552 -0.7861168840407713
168880000.0 -0.3811047916103759 -0.7610486829938029
169880000.0 -0.44806988126152936 -0.7340563034022097
170880000.0 -0.5085210991923369 -0.7058606000459239
171880000.0 -0.5605464273897929 -0.6771028635563742
172880000.0 -0.6053785862648265 -0.6485079467416714
173880000.0 -0.6450760199630495 -0.6179576164565074
174880000.0 -0.6808126296475934 -0.5878690861839149
175880000.0 -0.7143542957204262 -0.5585164188569974
176880000.0 -0.7451837593953048 -0.5276195119147082
177880000.0 -0.7665300620195328 -0.4883335065275676
178870000.0 -0.7879677433509171 -0.44236772802393204
179870000.0 -0.8067536327594327 -0.3835925746119638
180870000.0 -0.8210590820386564 -0.3110714594209326
181870000.0 -0.8284692010109544 -0.23802924373482381
182870000.0 -0.8294829738438649 -0.17722012895503036
183870000.0 -0.8270061199395976 -0.12610659611901948
184870000.0 -0.8271059104789368 -0.07833017739703613
185870000.0 -0.830295540514203 -0.029139650692305775
186870000.0 -0.8375292693705823 -0.00014617643480737604
187870000.0 -0.8496303908968429 -0.029966689284073
188870000.0 -0.8620209354101489 -0.0825476604578693
189870000.0 -0.8667005056620931 -0.13401743831189222
190860000.0 -0.8574846031031519 -0.18398531389119008
191860000.0 -0.8416587468395933 -0.23547045981629214
192860000.0 -0.8203653979723412 -0.28954016790534703
193860000.0 -0.7951024755016243 -0.3430834632908511
194860000.0 -0.7698026745832156 -0.387844015167476
195860000.0 -0.7366875297274723 -0.4360229543073834
196860000.0 -0.7002175580874301 -0.4821464248008552
197860000.0 -0.6602344001345621 -0.5278132841777178
198860000.0 -0.6172681751433224 -0.5731995882052092
199860000.0 -0.5733073130945738 -0.6171681235414456
200860000.0 -0.5284710945223631 -0.6584613370433036
201860000.0 -0.4876767575778844 -0.6951826086009495
202860000.0 -0.43796706819235365 -0.7332409954670859
203850000.0 -0.3834789629040372 -0.7664579265472822
204850000.0 -0.3261945830595612 -0.7957401391414392
205850000.0 -0.26726904136717644 -0.8215935844057797
206850000.0 -0.20485971633711936 -0.8454971269278502
207850000.0 -0.14806706964957592 -0.8644111193014568
208850000.0 -0.08129717357158425 -0.8813741613727303
209850000.0 -0.019153542984512387 -0.892072021872931
210850000.0 0.040850902389649606 -0.8996067260907914
211850000.0 0.1003741205686794 -0.8991050128070993
212850000.0 0.16228926048289816 -0.8921349930806353
213850000.0 0.21875466204312563 -0.8799937771265596
214850000.0 0.27340063750019555 -0.8623902130412175
215840000.0 0.32881586731637547 -0.8394704530625714
216840000.0 0.5331278555020335 -0.7257656285204224
217840000.0 0.5819945294748132 -0.6899178586485715
218840000.0 0.6251011707210159 -0.6568798796662036
219840000.0 0.660792497322608 -0.6255361214146512
220840000.0 0.6898364949444854 -0.5933529927075799
221840000.0 0.7198396681168084 -0.5634126999249581
222840000.0 0.7446308290427688 -0.5283995770803694
223840000.0 0.7682116578535114 -0.4895933172055986
224840000.0 0.7897363593205139 -0.44772156278225245
225840000.0 0.8235267936056823 -0.41113383995256386
226840000.0 0.8570311160047526 -0.3721142762482515
227840000.0 0.8914465413831465 -0.33010988712598044
228830000.0 0.9226775180887781 -0.28244304395995146
229830000.0 0.9490232665185315 -0.2283659423603888
230830000.0 0.966981388395256 -0.16963495548133126
231830000.0 0.9789859608527208 -0.10998388835990743
232830000.0 0.984882403748954 -0.052477371910640155
233830000.0 0.9861904221526423 -0.013254245786094038
234830000.0 0.985114258623028 -0.007737228385627819
235830000.0 0.9833565160794799 -0.035886188781711306
236830000.0 0.9772773050226375 -0.09358468203536917
237830000.0 0.9666429032400726 -0.15812061577016667
238830000.0 0.9484069506007399 -0.2261173361520238
239830000.0 0.926709027136608 -0.2920124232108027
240820000.0 0.9010265480161769 -0.3545605261389549
241820000.0 0.8725286859549871 -0.4120698577346974
242820000.0 0.8405644974589735 -0.46478247897947544
243820000.0 0.8063604003838989 -0.513708230577405
244820000.0 0.7690554330022219 -0.5587514784696918
245820000.0 0.7283557628406726 -0.6006236932310675
246820000.0 0.6859204284011169 -0.6407511520941982
247820000.0 0.6390939658530175 -0.6800900622464224
248820000.0 0.592006612387092 -0.718672419568315
249820000.0 0.5425476945795388 -0.7567059368504017
250820000.0 0.4895472917279167 -0.7920260885350171
251820000.0 0.4333935217651436 -0.8240946129239183
252810000.0 0.3754468023292141 -0.8520572600353715
253810000.0 0.3162343141313999 -0.8712114439510301
254810000.0 0.25875737828939155 -0.8877563472403247
255810000.0 0.19920936928983102 -0.9008072298719211
256810000.0 0.13953912136201663 -0.9066002290175705
257810000.0 0.0792846276449495 -0.9117254136778706
258810000.0 0.017826567654126418 -0.9118365997196778
259810000.0 -0.043973187146730916 -0.9088501100426257
260810000.0 -0.10654551454424732 -0.901546542527619
261810000.0 -0.168319635479441 -0.8899550801258939
262810000.0 -0.2273244403550799 -0.8745890293022444
263810000.0 -0.28246234292097583 -0.8550883478830908
264800000.0 -0.33314132806993507 -0.8299705479948238
265800000.0 -0.38200778439226624 -0.805231822140676
266800000.0 -0.42942448406875655 -0.7762991705376098
267800000.0 -0.4760373106903941 -0.7437866558052221
268800000.0 -0.5221378091643264 -0.705886377050519
269800000.0 -0.5692632359155206 -0.6618295688924772
270800000.0 -0.6160916511955034 -0.6071248453476042
271800000.0 -0.6647461217662776 -0.5471954266051671
272800000.0 -0.7088130839068744 -0.483519502788835
273800000.0 -0.7472290896087516 -0.4217295165591476
274800000.0 -0.7779509899052577 -0.36193833010633963
275800000.0 -0.8053583365098106 -0.30448019823145817
276800000.0 -0.8310297669969252 -0.2434825162049462
277790000.0 -0.8519625379013961 -0.18093481987112428
278790000.0 -0.8684374997919158 -0.11479459184554526
279790000.0 -0.877677485263116 -0.048608815639913414
280790000.0 -0.8749837619006712 -0.00015271347701687689
281790000.0 -0.8632084822235491 -0.03633007882434792
282790000.0 -0.8455823954591168 -0.09708950800478748
283790000.0 -0.8241483656662398 -0.15960119152692054
284790000.0 -0.8011604610420799 -0.216319698610917
285790000.0 -0.777825316434429 -0.2694982091301454
286790000.0 -0.7548442526944834 -0.3163775649293631
287790000.0 -0.7308118006951244 -0.3600794111951678
288790000.0 -0.705728727157942 -0.40139862843357144
289780000.0 -0.6791925541443459 -0.44140994630590874
290780000.0 -0.6511524618164037 -0.48024644250396264
291780000.0 -0.6218784018423426 -0.5190496311769418
292780000.0 -0.5895154328713061 -0.5568926213930087
293780000.0 -0.5544528245847394 -0.594369845565537
294780000.0 -0.5168328311892159 -0.6309968152112028
295780000.0 -0.47664708058164873 -0.6665106251958356
296780000.0 -0.4350050665831031 -0.6988648650903156
297780000.0 -0.39015835305715724 -0.7291694637196185
298780000.0 -0.344398138432477 -0.7581660294822061
299780000.0 -0.2958414713034226 -0.7825086707885732
300780000.0 -0.2461378616696681 -0.8035755766047432
301770000.0 -0.19486828418490543 -0.8205119532780494
302770000.0 -0.14229338688502452 -0.8342038133823716
303770000.0 -0.08866139610617564 -0.8435568355743455
304770000.0 -0.0341183922947504 -0.8494738011907087
305770000.0 0.01922783495417294 -0.8538663833513671
306770000.0 0.0742487233850646 -0.853815551060534
307770000.0 0.1290458123308442 -0.8492652167897691
308770000.0 0.18318812117655334 -0.8422952274330574
309770000.0 0.2365482489046933 -0.8309594962151824
310770000.0 0.2892551821335549 -0.8172847322855661
311770000.0 0.34129182549997483 -0.8013098432417254
312770000.0 0.3923280391630757 -0.7820967437585408
313760000.0 0.4424310238241093 -0.7595626203636225
314760000.0 0.4922039843122887 -0.7344134002150545
315760000.0 0.5378555431910692 -0.7068037438194525
316760000.0 0.583739590625575 -0.6748388257603476
317760000.0 0.6271755498851818 -0.6404505849882856
318760000.0 0.6664272361528241 -0.6025859018949467
319760000.0 0.7029021917144745 -0.5629294509410826
320760000.0 0.7368357322869125 -0.5213227288791932
321760000.0 0.767755650465805 -0.47658538850495724
322760000.0 0.7951189024382895 -0.4293813018098508
323760000.0 0.8205940463370864 -0.38090707429886056
324760000.0 0.8428832179629911 -0.33151082215543254
325750000.0 0.8632906541225763 -0.28083333405708216
326750000.0 0.8806114268042415 -0.22905387727373708
327750000.0 0.8937971340547145 -0.17600412117334394
328750000.0 0.9059561503275312 -0.12184609930140382
329750000.0 0.9127202436386224 -0.06686582818702193
330750000.0 0.9159846635094896 -0.020786599885615036
331750000.0 0.9172759214188683 -0.00016009485140582963
332750000.0 0.9183055177743942 -0.0070522187556361785
333750000.0 0.9172979762139049 -0.04357958923796611
334750000.0 0.9139608115084564 -0.09977214133761812
335750000.0 0.9053949895769248 -0.15980850418325734
336750000.0 0.8929281043294035 -0.21899371145991348
337740000.0 0.8747734533200847 -0.27598287448979286
338740000.0 0.8525943416682298 -0.3325840806205256
339740000.0 0.8272168480230572 -0.38152726489888106
340740000.0 0.8008874962713749 -0.4274544810025633
341740000.0 0.7747204978208182 -0.47122266520545736
342740000.0 0.7469747724426907 -0.5122306449872055
343740000.0 0.7179313817291397 -0.5504900719025531
344740000.0 0.6879592103875334 -0.5859133862624696
345740000.0 0.6572186494988738 -0.6201983699667944
346740000.0 0.6246575133082832 -0.6529819005348496
347740000.0 0.5903437852465055 -0.6841612284976547
348740000.0 0.5556293958156127 -0.7152814263179182
349730000.0 0.5191458413048147 -0.7447319722349233
350730000.0 0.480818356124534 -0.7712662691904005
351730000.0 0.4415513422814042 -0.7955969933589647
352730000.0 0.40013076376411705 -0.8160473769743538
353730000.0 0.35794424113641427 -0.8331377858339805
354730000.0 0.31534979807484553 -0.8479500533574746
355730000.0 0.27247147824989526 -0.8605019335022766
356730000.0 0.2291656515968543 -0.8698154995782562
357730000.0 0.18545295368318762 -0.8770024653077088
358730000.0 0.14051367062384243 -0.8821851254899908
359730000.0 0.09398098078505862 -0.8852507586730158
360730000.0 0.04550237853477558 -0.8859883313242769
361730000.0 -0.004794429562044773 -0.8861222534477093
362720000.0 -0.058110344299142414 -0.8842278114239038
363720000.0 -0.11531570060357903 -0.8806602107583038
364720000.0 -0.1763147711206173 -0.8736368445807251
365720000.0 -0.2406308144475841 -0.8624238369421217
366720000.0 -0.3077052796217179 -0.8463323925897916
367720000.0 -0.3767553733174121 -0.8259500612564052
368720000.0 -0.4455904406152796 -0.8005680144445434
369720000.0 -0.5122050216046616 -0.7686001104999644
370720000.0 -0.5760603096937426 -0.7315165038150309
371720000.0 -0.6378848838059601 -0.6900599795890351
372720000.0 -0.6959954080583995 -0.6442732133898298
373720000.0 -0.7501120647567943 -0.5928280794433991
374710000.0 -0.8000837419801854 -0.5374312910493029
375710000.0 -0.8447722747221255 -0.477754539888055
376710000.0 -0.8845209424767259 -0.41546996081729
377710000.0 -0.9188994717004221 -0.35199661528192877
378710000.0 -0.9498144692330651 -0.27810512300964496
379710000.0 -0.9743000092846352 -0.19822357721749076
380710000.0 -0.9903608598463608 -0.11091174737290303
381710000.0 -0.9969646754783875 -0.03829951957662615
382710000.0 -0.9965520649564122 -0.00017393114877612854
383710000.0 -0.9938172972894143 -0.02966941632898888
384710000.0 -0.9851023472278481 -0.09520163283727452
385710000.0 -0.9675268072511279 -0.17303975335237928
386700000.0 -0.943205450862469 -0.24691753910892658
387700000.0 -0.9141410286724235 -0.31583516879105655
388700000.0 -0.8837858598430138 -0.3733257635024884
389700000.0 -0.8425622898887077 -0.42100451267825856
390700000.0 -0.8056600913896048 -0.46890537044098296
391700000.0 -0.7665378005822211 -0.5152862450096648
392700000.0 -0.7254238854834284 -0.5596607659015623
393700000.0 -0.6804420633186694 -0.6009465146580303
394700000.0 -0.6344958165511521 -0.6405041568508248
395700000.0 -0.5862318551697764 -0.6767645642111304
396700000.0 -0.536991095101802 -0.7100295023883438
397700000.0 -0.4871546011729143 -0.7402135024208425
398690000.0 -0.4362235667660414 -0.7666456488089638
399690000.0 -0.38434370196635026 -0.7894196525443432
400690000.0 -0.33145273415800824 -0.8097750872498098
401690000.0 -0.27804013948933615 -0.8285707359124151
402690000.0 -0.22579444189862688 -0.8432650117448842
403690000.0 -0.16985993809860536 -0.8562865241579772
404690000.0 -0.11271565373937877 -0.8666781207459868
405690000.0 -0.05476180688079409 -0.8752894291568706
406690000.0 0.004607832015174271 -0.8800230483837561
407690000.0 0.06505745816290044 -0.8817002504965687
408690000.0 0.12638852206944956 -0.8770755817483303
