!Created with skrf (http://scikit-rf.org).
# Hz S RI R 50.0 
!freq ReS11 ImS11
25000000.0 1.0399105345697102 -0.10013199558431095
26000000.0 1.028445374448478 -0.09431984417813312
27000000.0 1.025125989628064 -0.0914900571995196
28000000.0 1.021394107190341 -0.10555081329911668
29000000.0 1.0043714738317133 -0.11035137634299005
30000000.0 1.0116143136207087 -0.11901636986446314
31000000.0 1.0210849736302032 -0.12899303005936436
31990000.0 1.0234492024234219 -0.13837576120520256
32990000.000000004 1.0115380820378261 -0.1466660417684885
33990000.0 0.9955152934405758 -0.14327859151255923
34990000.0 0.988810680357667 -0.14125686614519423
35990000.0 1.0027654053704043 -0.14182195896170857
36990000.0 1.001828656834345 -0.14829453326707515
37990000.0 0.9926013253333542 -0.15490479341567556
38990000.0 0.9993452115091571 -0.15685069497605808
39990000.0 0.9985751721819803 -0.15423070125434893
40990000.0 0.9976423723997482 -0.16015361532067351
41990000.0 0.9875386880345594 -0.17804215367936166
42990000.0 0.9793695035756875 -0.190370146865096
43980000.0 0.9734887602606297 -0.19646658565118091
44980000.0 0.9818221908858136 -0.20726035398981993
45980000.0 0.9859034085433671 -0.2047091955903545
46980000.0 0.9858318914907052 -0.20505332832348272
47980000.0 0.9789462121491331 -0.20968917901685885
48980000.0 0.9755110397292337 -0.21465850830783031
49980000.0 0.9879303571345305 -0.2119742747592713
50980000.0 1.000281861158309 -0.19226183723162935
51980000.0 1.0025912632150127 -0.18636234800512835
52980000.0 1.0060489435608757 -0.19956802595423134
53980000.0 0.988188595196931 -0.21076713223459678
54980000.0 0.9797153897424851 -0.20039399966498636
55970000.0 0.9860576649744323 -0.1922060545920831
56970000.0 0.9872941790219263 -0.191910547728152
57970000.0 0.9904811895587867 -0.19971604051225023
58970000.0 0.9983694303275881 -0.2134851516632275
59970000.0 1.001593146131614 -0.22626989639241474
60970000.0 1.0091280497487787 -0.24618550209152346
61970000.0 1.0201776620578977 -0.261557552176348
62970000.0 1.0082268772245946 -0.2872009809775436
63970000.0 0.9877248912915269 -0.32532059636776717
64970000.0 0.983666059700533 -0.35899760324605573
65970000.0 0.9879680492387836 -0.38201778490703275
66970000.0 1.000796284222813 -0.3793675512367209
67960000.0 1.0181240843599593 -0.3571405581233889
68960000.0 1.0380755525013297 -0.3247163424039875
69960000.0 1.0530478060068564 -0.3055401002840038
70960000.0 1.0543142424389398 -0.30570806100298054
71960000.0 1.0548578866900726 -0.31727541561351913
72960000.0 1.0524201186460285 -0.3031685950398864
73960000.0 1.0246022930724004 -0.2781862635111398
74960000.0 0.9833294235011426 -0.2656909119539527
75960000.0 0.9440033049719047 -0.26126306994685333
76960000.0 0.9182271562037267 -0.26243042690573554
77960000.0 0.9153651311024447 -0.2683653282263861
78960000.0 0.9275353812504297 -0.2779210741460611
79960000.0 0.9370161528817408 -0.28915913892243966
80950000.0 0.9348034386535714 -0.2999525874291286
81950000.0 0.9257334197899637 -0.30597782458907097
82950000.0 0.934379506723654 -0.3157248187770898
83950000.0 0.9426615746396659 -0.32679438956229395
84950000.0 0.9516572799476825 -0.3360651864991307
85950000.0 0.9578397109261383 -0.3395651541815343
86950000.0 0.9606172731403995 -0.3422493540875753
87950000.0 0.9637363068777015 -0.35096182788011526
88950000.0 0.9650425056650942 -0.3644667069623135
89950000.0 0.9610314212395429 -0.3781728819211687
90950000.0 0.9544214383225843 -0.3914367589976262
91950000.0 0.9506618864617314 -0.40353202953331957
92940000.0 0.9504531984943653 -0.4130715795271751
93940000.0 0.9478409608167403 -0.41607309241959556
94940000.0 0.9476956661660831 -0.41640392597528486
95940000.0 0.9531619414672303 -0.41583201492472716
96940000.0 0.9999727937323087 -0.30248098823555525
97940000.0 0.9974053054565108 -0.3148634988678392
98940000.0 0.9915973515894891 -0.32889972448980187
99940000.0 0.9838628668061253 -0.340500768488466
100940000.0 0.9761653289327015 -0.3479808370168614
101940000.0 0.9720890361619852 -0.35227515523567754
102940000.0 0.9697919364436863 -0.3516342108400736
103940000.0 0.9667938285648555 -0.3459719489209604
104930000.0 0.9645301326495948 -0.3487742780569952
105930000.0 0.952859150381549 -0.36328997421235276
106930000.0 0.9516054188799135 -0.37945955701590484
107930000.0 0.9463534807749956 -0.3892860612402522
108930000.0 0.9381277319395439 -0.39377471382163554
109930000.0 0.9300923722397972 -0.3948007887644432
110930000.0 0.9239295605237325 -0.39447059873596013
111930000.0 0.9180777545014668 -0.3934886281865052
112930000.0 0.9204692581815395 -0.39375320039413814
113930000.0 0.931783514282544 -0.39379242602166215
114930000.0 0.9380135044670194 -0.38489864063669366
115930000.0 0.9412670814375662 -0.36736326042445533
116920000.0 0.9427639853280225 -0.3436971585862012
117920000.0 0.9410630217025415 -0.32789699236957887
118920000.0 0.9349252860874071 -0.3246608920752219
119920000.0 0.92762701062797 -0.3283077602108502
120920000.0 0.9194804125360447 -0.33757429179141907
121920000.0 0.9085746089007285 -0.35369050555135045
122920000.0 0.9017245987394897 -0.3648697156436792
123920000.0 0.9006426750315094 -0.37342678742742663
124920000.0 0.9074559978674333 -0.3805278809701992
125920000.0 0.9194051816339364 -0.38742680513381533
126920000.0 0.9320982706386379 -0.39603628637268623
127920000.0 0.9421478560152834 -0.405363159684039
128919999.99999999 0.9483485824820618 -0.41491477599848203
129910000.0 0.9512564758745374 -0.42312885877467543
130910000.0 0.9478613221229306 -0.4277766535486811
131910000.0 0.9434336667759221 -0.4317384972683966
132910000.0 0.9356821870098226 -0.43432921054982204
133910000.0 0.9285704478963339 -0.4355672130875151
134910000.0 0.9238480026937576 -0.4372929077169614
135910000.0 0.9207309353990639 -0.43837736076150674
136910000.0 0.9176952751924632 -0.439292099369853
137910000.0 0.9145109780904348 -0.4405176402752701
138910000.0 0.9104363824882367 -0.4409065498747865
139910000.0 0.9065290154648257 -0.4409692018622949
140910000.0 0.9014425942006105 -0.44083207484560144
141900000.0 0.8957636540318883 -0.44193612653639547
142900000.0 0.8895650949710009 -0.44410250671007584
143900000.0 0.8833070270745133 -0.446384006578959
144900000.0 0.8774578532995164 -0.4478589989366004
145900000.0 0.8746585596235475 -0.4483562011025101
146900000.0 0.8731148598471157 -0.44641093165133866
147900000.0 0.871574893508642 -0.4419839262086746
148900000.0 0.8702619237643152 -0.43960093005169454
149900000.0 0.8693371975460715 -0.43894339072782473
150900000.0 0.8682603768819952 -0.43858987596902943
151900000.0 0.8662634334297609 -0.43758114724622643
152900000.0 0.8631243559543669 -0.43637371633258476
153890000.0 0.8586273371425359 -0.43541809710996965
154890000.0 0.8537726814563423 -0.4352066232060672
155890000.0 0.8490925693947379 -0.4346896378232335
156890000.0 0.8470640046108135 -0.43383772656477443
157890000.0 0.8483428027647851 -0.43374533908201773
158890000.0 0.8494001089949612 -0.43167115379364157
159890000.0 0.8530881479881242 -0.42924521094370094
160890000.0 0.8560864776614073 -0.4257102115706587
161890000.0 0.861051914977444 -0.4231302062803455
162890000.0 0.8644384842935217 -0.42124135695648585
163890000.0 0.8662423405208927 -0.42006431753748746
164890000.0 0.8658754354562488 -0.4208200965410288
165890000.0 0.8641791833949946 -0.4242925433779264
166880000.0 0.8604436741582011 -0.4318176779388318
167880000.0 0.8559893746779417 -0.445409997537434
168880000.0 0.8486679963264112 -0.46386237846894457
169880000.0 0.8416587743843126 -0.48769628752707334
170880000.0 0.835577547989613 -0.5132469577886754
171880000.0 0.8319221833472347 -0.5381945966606823
172880000.0 0.831905917493973 -0.5611276265612979
173880000.0 0.8352503701578848 -0.5809466290722926
174880000.0 0.8442961144316337 -0.5989018086408257
175880000.0 0.8555647059462005 -0.6120725593562071
176880000.0 0.8691162296345957 -0.6203924297949753
177880000.0 0.882780098502651 -0.6225021403566515
178870000.0 0.891954915464113 -0.6180796083840775
179870000.0 0.8895240586728133 -0.6150173493992805
180870000.0 0.8742143444590222 -0.6217311869984629
181870000.0 0.8488416880298615 -0.6336294208483211
182870000.0 0.8232507672563625 -0.6431939914680228
183870000.0 0.8014390209701833 -0.6476040865104842
184870000.0 0.7841614261414092 -0.6482538271627981
185870000.0 0.7716772046315998 -0.6486624582343696
186870000.0 0.76493975660905 -0.6512450036933657
187870000.0 0.7635800427441184 -0.6581749092707696
188870000.0 0.7696939234639595 -0.6707374252089714
189870000.0 0.7749838556706732 -0.6808399530536772
190860000.0 0.7748049529875188 -0.68284215310441
191860000.0 0.7704173469971516 -0.6770664555781017
192860000.0 0.763697409426159 -0.6669202088422926
193860000.0 0.7576653578961077 -0.6579322718152435
194860000.0 0.7530627180033335 -0.6509443045654517
195860000.0 0.7479190049258103 -0.6446757322779979
196860000.0 0.7428079013406631 -0.6384646060838556
197860000.0 0.7377292250370616 -0.6323104196612135
198860000.0 0.7330105783038612 -0.6258289533687101
199860000.0 0.7282093532676363 -0.6195356158315527
200860000.0 0.7229002959299478 -0.6139321979456928
201860000.0 0.719578870773692 -0.6111114357216725
202860000.0 0.7153163017934919 -0.6094280013316132
203850000.0 0.711970409588418 -0.6100169282088692
204850000.0 0.7078840735183595 -0.6114604759806558
205850000.0 0.7048874729888298 -0.6149125349599388
206850000.0 0.7004192672749558 -0.618372232897084
207850000.0 0.6969547191613134 -0.6222744473517182
208850000.0 0.6960151417970034 -0.6249373549538653
209850000.0 0.6949897439168864 -0.6292946628418398
210850000.0 0.6950751590131798 -0.6340237638713854
211850000.0 0.6950319791676911 -0.6388908248425451
212850000.0 0.6950822467261945 -0.6436532178019576
213850000.0 0.695001989067072 -0.6485535513086912
214850000.0 0.6931905414069578 -0.6520885478231685
215840000.0 0.6920446644941084 -0.6564963480305802
216840000.0 0.7206767806526816 -0.6249305965147957
217840000.0 0.7220100460089461 -0.6267493397941553
218840000.0 0.7215723165124622 -0.6272532451196161
219840000.0 0.7212437885847628 -0.627630973501267
220840000.0 0.7219649499065491 -0.6284799927033747
221840000.0 0.7224670719343774 -0.629582342870373
222840000.0 0.7227489993963506 -0.6309385513857473
223840000.0 0.7229783902493953 -0.6340350315011117
224840000.0 0.7220358098753673 -0.6367841962839309
225840000.0 0.7543664300576547 -0.670464523488146
226840000.0 0.7516689421710974 -0.6734873342754862
227840000.0 0.7498221095724518 -0.6772785894327372
228830000.0 0.7479579278376706 -0.6810667591840996
229830000.0 0.7460763895211123 -0.684851770276276
230830000.0 0.7442976653556906 -0.6885036553806682
231830000.0 0.7432372432966267 -0.693079941953472
232830000.0 0.7417905756517185 -0.6980509706979173
233830000.0 0.7392209808283339 -0.702475983455844
234830000.0 0.7365034197447214 -0.7070220237712787
235830000.0 0.7342563103871899 -0.7110470377389886
236830000.0 0.7315206797269923 -0.7138611309999718
237830000.0 0.7298641863605743 -0.7172355383826964
238830000.0 0.726979145508763 -0.7201596142843949
239830000.0 0.7247901443564907 -0.724031543025592
240820000.0 0.7222011775552085 -0.7282769617124334
241820000.0 0.7188889370565991 -0.731546697074668
242820000.0 0.7161293554353801 -0.7358978479890845
243820000.0 0.712395484623477 -0.7395130626833716
244820000.0 0.7090323574509466 -0.7427381856878048
245820000.0 0.7061752277613959 -0.7454551925417112
246820000.0 0.7036993264691725 -0.747792855220008
247820000.0 0.7012156868215005 -0.7501222946604842
248820000.0 0.6992662379975524 -0.7535544025552561
249820000.0 0.6958395286439362 -0.7567198025625096
250820000.0 0.6917351155921345 -0.7604735623743897
251820000.0 0.6868098023738121 -0.7649247051683609
252810000.0 0.6815872545915352 -0.7695819148031172
253810000.0 0.6761979931230848 -0.7743214986747889
254810000.0 0.6704112944165056 -0.7777760556291535
255810000.0 0.6661411740327743 -0.7829900672881461
256810000.0 0.6609335746822413 -0.7873908299386098
257810000.0 0.656313879952089 -0.7927835872162868
258810000.0 0.6510948481076887 -0.7986056949248174
259810000.0 0.6468512409692367 -0.8050960149490346
260810000.0 0.6426606156969604 -0.8099643277667614
261810000.0 0.6395458460614318 -0.8124259904805023
262810000.0 0.6379849224473981 -0.8136523323585114
263810000.0 0.6372508378155737 -0.812716119523667
264800000.0 0.6376504370914557 -0.8108914466816083
265800000.0 0.6386117121024554 -0.8086226798478355
266800000.0 0.6397078583832222 -0.8062428797205221
267800000.0 0.639639521239971 -0.8032734150083392
268800000.0 0.6346051624112676 -0.8012468452741444
269800000.0 0.6298496309304763 -0.7975279607500543
270800000.0 0.622883845231873 -0.7941077404252355
271800000.0 0.614458166950536 -0.7918692766777747
272800000.0 0.6068085773469618 -0.7919525035061655
273800000.0 0.5994701901635829 -0.7917796263711566
274800000.0 0.5947772388469312 -0.7924569257502927
275800000.0 0.5928391276606144 -0.793907873581429
276800000.0 0.5926893906022209 -0.7954435190688914
277790000.0 0.5936500882950968 -0.7961526601716749
278790000.0 0.5962616252944947 -0.7984911537531906
279790000.0 0.598334343954391 -0.7998100253605365
280790000.0 0.5993030699922467 -0.8005222234878107
281790000.0 0.5986134938627689 -0.7996011185509698
282790000.0 0.5970974761855384 -0.7978663123317052
283790000.0 0.5948999490686866 -0.7952191749632831
284790000.0 0.5914756355035019 -0.7920819361414192
285790000.0 0.587518843151089 -0.7893664961243637
286790000.0 0.5847921594186214 -0.7885728589714943
287790000.0 0.5816418773800317 -0.7894966781826867
288790000.0 0.5787443206245039 -0.791623199336999
289780000.0 0.5752847145400046 -0.7941409041223667
290780000.0 0.5726120523145573 -0.7974612599794935
291780000.0 0.5700621633032008 -0.800674721069604
292780000.0 0.567917276633258 -0.8035843597051355
293780000.0 0.5665524066418172 -0.8073200073733651
294780000.0 0.5661064393083183 -0.8117964552659468
295780000.0 0.564425396521409 -0.815742041041642
296780000.0 0.5624398349704802 -0.8198868987215967
297780000.0 0.5605025462176082 -0.8253740443187592
298780000.0 0.5568139211814263 -0.8292516632489306
299780000.0 0.5529553568637499 -0.833210881659429
300780000.0 0.5487787029744357 -0.8373453130218118
301770000.0 0.5444265963756392 -0.8415553882170989
302770000.0 0.5398653970781622 -0.8444886875003319
303770000.0 0.5362011279105086 -0.84818631165523
304770000.0 0.5338714299261652 -0.852385329864663
305770000.0 0.5315043622387807 -0.8552277466604006
306770000.0 0.5294130620405253 -0.8565239024554739
307770000.0 0.5282257952335857 -0.8586187757791822
308770000.0 0.5274833671169895 -0.8604374965498891
309770000.0 0.5256759006785845 -0.8601822715660062
310770000.0 0.5240235014979824 -0.8611899109653395
311770000.0 0.5217681171628562 -0.8612023093611672
312770000.0 0.5184670574306508 -0.8604910205434376
313760000.0 0.5156185533744412 -0.8608537484775524
314760000.0 0.5115817067952921 -0.8605750376058532
315760000.0 0.5074049334181115 -0.8603721853741643
316760000.0 0.5032384981988097 -0.8601552547950517
317760000.0 0.4993568006624696 -0.8610892697768973
318760000.0 0.4956264569922856 -0.8619208257062901
319760000.0 0.49189738629689667 -0.8627377625822878
320760000.0 0.48858109310256553 -0.8646201484431836
321760000.0 0.4848502941539364 -0.8654081684499951
322760000.0 0.4819778313786939 -0.8670112316577134
323760000.0 0.4787968390063473 -0.8687719451724162
324760000.0 0.4757613419922324 -0.8704379651801063
325750000.0 0.47248016104920615 -0.8709250486895533
326750000.0 0.46935332431630455 -0.8713193687517412
327750000.0 0.46402201320028663 -0.874170210356228
328750000.0 0.4610479566146522 -0.8744552605235242
329750000.0 0.4585344841841654 -0.8744917178174694
330750000.0 0.45617645368179194 -0.8744428322556421
331750000.0 0.4541264355435515 -0.874230603322715
332750000.0 0.45223168683569787 -0.8739361290637825
333750000.0 0.4510110013754355 -0.8745667115203825
334750000.0 0.4494244632415313 -0.8741101365559576
335750000.0 0.4476878210925894 -0.8737303007618198
336750000.0 0.44625853756236095 -0.8731927599541623
337740000.0 0.44437447995399787 -0.8728871365082356
338740000.0 0.4427976325747695 -0.872424396656251
339740000.0 0.44188378925901817 -0.8728876148078492
340740000.0 0.4403098090163966 -0.872421834954502
341740000.0 0.43924361632876335 -0.8729591236340142
342740000.0 0.4383292149970398 -0.8734186197359859
343740000.0 0.43771934700189963 -0.8737244183846911
344740000.0 0.4377655121445405 -0.8749602434806238
345740000.0 0.43746006673908727 -0.8751129991626668
346740000.0 0.4381169065910868 -0.8760446379466004
347740000.0 0.43908076193879786 -0.8768240204732699
348740000.0 0.4406587117705575 -0.8772963714530473
349730000.0 0.44285174528413157 -0.8774583811717864
350730000.0 0.4458133076185656 -0.8772276506195205
351730000.0 0.4495427706714183 -0.8765964091773102
352730000.0 0.4621179834575079 -0.8713175042096489
353730000.0 0.46781860498282263 -0.8695604582484836
354730000.0 0.473818133579135 -0.8676022114122321
355730000.0 0.480114260244515 -0.8654364693717044
356730000.0 0.4858003566980291 -0.8635658379371268
357730000.0 0.4911809840054839 -0.8618308109556878
358730000.0 0.5037277369287284 -0.8572114451555116
359730000.0 0.5071511261850062 -0.8565218503354409
360730000.0 0.509668125495875 -0.8576968107700109
361730000.0 0.5118702515767919 -0.8617451107079789
362720000.0 0.5121160445749401 -0.8669766678669025
363720000.0 0.5093256802701528 -0.8726550493322238
364720000.0 0.5059390853647231 -0.8827048252839966
365720000.0 0.5006866922612051 -0.8951394919317079
366720000.0 0.4911370945480452 -0.9098567104668528
367720000.0 0.48446227119374685 -0.9310400728922528
368720000.0 0.47367801108560154 -0.9488066798778956
369720000.0 0.4630663573615588 -0.9704029013105824
370720000.0 0.4503612775933977 -0.9900587231925221
371720000.0 0.43921415907641964 -1.0115715116160406
372720000.0 0.42771710750492564 -1.0331104036671686
373720000.0 0.4166085896485911 -1.0543832049945727
374710000.0 0.405843421993199 -1.074033451704954
375710000.0 0.38865478531099407 -1.094490904688805
376710000.0 0.3771772871636531 -1.109855517200497
377710000.0 0.36555157206725675 -1.1237172283164012
378710000.0 0.35463085766895286 -1.135795199296979
379710000.0 0.3355127194498261 -1.1458790550008193
380710000.0 0.3250448118685143 -1.1517524775536216
381710000.0 0.3149409753700294 -1.1559851276667148
382710000.0 0.3050434629464812 -1.1586362324160568
383710000.0 0.29559372971817977 -1.1596604012489342
384710000.0 0.2841257969763174 -1.149820088559306
385710000.0 0.27513973770995576 -1.1478043943452212
386700000.0 0.2661989034512998 -1.145733181318018
387700000.0 0.2577027018757434 -1.1435170713454421
388700000.0 0.2462005695851093 -1.1282316746569794
389700000.0 0.23781199415184215 -1.1246070823288012
390700000.0 0.22968107208406122 -1.120905227093586
391700000.0 0.22161082039240595 -1.1171696000469047
392700000.0 0.2149612862085014 -1.1131389425292793
393700000.0 0.2087498297253983 -1.1090205541856648
394700000.0 0.20149321607448376 -1.0946218846735756
395700000.0 0.19676282912416695 -1.0902860267991428
396700000.0 0.19267001999700104 -1.087137462476214
397700000.0 0.18895108517545056 -1.0826409019235326
398690000.0 0.18582546324783392 -1.0780581749219156
399690000.0 0.1827237630072587 -1.0734899974380885
400690000.0 0.1798324060102603 -1.0689049820672043
401690000.0 0.17696310104399846 -1.0643355158404622
402690000.0 0.1743006811576165 -1.0597511643631647
403690000.0 0.1707250960779383 -1.0540885774593838
404690000.0 0.16793601202780697 -1.0508081932968325
405690000.0 0.1647907341733114 -1.0463567595388221
406690000.0 0.16130626111134794 -1.041975056039188
407690000.0 0.1582123658231778 -1.0387720958914453
408690000.0 0.15567754741498546 -1.036711310183976
409690000.0 0.1520747266875028 -1.0335925763818536
410680000.0 0.14902473210266556 -1.031609060079832
411680000.0 0.14634634065192934 -1.0295711242433558
412680000.0 0.14385806544460056 -1.0275067253484875
413680000.0 0.1417218729401749 -1.0265984234702359
414680000.0 0.13976889818028232 -1.0256626932569384
