!Created with skrf (http://scikit-rf.org).
# Hz S RI R 50.0 
!freq ReS11 ImS11
25000000.0 1.0436131167332152 -0.09938562277766985
26000000.0 1.0298256099984993 -0.09227183868264927
27000000.0 1.0275210961699597 -0.09134229661006259
28000000.0 1.0226808069632674 -0.10460151185627643
29000000.0 1.005605348606397 -0.109776478058648
30000000.0 1.0116557965391555 -0.11866324261008274
31000000.0 1.022395894371136 -0.1280710442362722
31990000.0 1.023593547986448 -0.13730393202954122
32990000.000000004 1.0118177962523625 -0.14472375896103887
33990000.0 0.9969356378667377 -0.14152992506152343
34990000.0 0.9914088135276291 -0.13933342218448053
35990000.0 0.9947655948773589 -0.14033637206718294
36990000.0 1.0030603176953787 -0.14794018112507346
37990000.0 0.9953723669233937 -0.1521355872306029
38990000.0 1.0009310254917576 -0.15423685830379982
39990000.0 0.998842834483196 -0.15248762477412622
40990000.0 0.9989033057612655 -0.1596407780611523
41990000.0 0.9876007763047814 -0.1776974268074733
42990000.0 0.9817933219112157 -0.1899522915116846
43980000.0 0.9783934129139449 -0.19532472172802398
44980000.0 0.9837426977514165 -0.2037233189830011
45980000.0 0.9861527721520789 -0.20350453487195186
46980000.0 0.9858318914907052 -0.20505332832348272
47980000.0 0.978799582934593 -0.2103725612454406
48980000.0 0.975660661900441 -0.2139774208708639
49980000.0 0.989693719301581 -0.20928290483400142
50980000.0 1.0015682760372686 -0.19178413454921964
51980000.0 1.0035175078787741 -0.1878031969218809
52980000.0 1.0064302323476808 -0.1976361840347462
53980000.0 0.9888096032214936 -0.20783419421411986
54980000.0 0.9819387960308197 -0.20102733925498614
55970000.0 0.9864816468491026 -0.19604442019547805
56970000.0 0.9910006500093342 -0.19712228536813656
57970000.0 0.9920241329995334 -0.20381375272030086
58970000.0 0.9980328570847719 -0.21505312267556476
59970000.0 0.9998455635668595 -0.22862791351646505
60970000.0 1.008522256145026 -0.24361459826944185
61970000.0 1.0157902157630627 -0.2640256561424394
62970000.0 1.007875242668165 -0.28843254783243244
63970000.0 0.9885210969337281 -0.32673070706338936
64970000.0 0.9848619133458449 -0.35923926716505017
65970000.0 0.9909379077976574 -0.3742465994388792
66970000.0 1.001092355982984 -0.37508989533471837
67960000.0 1.0183764071049053 -0.35264444883259816
68960000.0 1.039893582455683 -0.3230945455043238
69960000.0 1.048368592514932 -0.3035873881695935
70960000.0 1.0521551534391524 -0.3040868892945118
71960000.0 1.0541956433230748 -0.31507091130272663
72960000.0 1.050105137980351 -0.30210478919001116
73960000.0 1.020632819647743 -0.27883064918521666
74960000.0 0.9816399998469345 -0.26744172707312164
75960000.0 0.9435917494529144 -0.26274558394066644
76960000.0 0.9213121050730113 -0.26366001124462785
77960000.0 0.9187668097913189 -0.26849215882010835
78960000.0 0.9300132045957019 -0.2774257302423019
79960000.0 0.9390749727198672 -0.2901535362545044
80950000.0 0.9368533814842446 -0.30097109140710776
81950000.0 0.929791585678874 -0.3080393460529
82950000.0 0.9361461552570256 -0.31759659468152307
83950000.0 0.944318957796242 -0.3290314664992078
84950000.0 0.9517159198928727 -0.3358990858525519
85950000.0 0.9569150519247631 -0.33867344720459536
86950000.0 0.9616640442890895 -0.342811457385625
87950000.0 0.964662381132705 -0.3518712645537267
88950000.0 0.9658992174266277 -0.3655609702975498
89950000.0 0.96167521119877 -0.37978371132587996
90950000.0 0.9559353893623357 -0.3940081351791325
91950000.0 0.9517912445372578 -0.4069554423518923
92940000.0 0.9503168717791697 -0.41636889514190206
93940000.0 0.9455860981944503 -0.41823654804913135
94940000.0 0.9469674611597305 -0.4180573318843968
95940000.0 0.9525719441032736 -0.41419006933669805
96940000.0 0.9977255764032589 -0.30161116989901143
97940000.0 0.9957624147048973 -0.31606573669068994
98940000.0 0.9888000744059369 -0.32969688574792333
99940000.0 0.9820760315424064 -0.34199505781203415
100940000.0 0.9756785046412612 -0.3493434812934647
101940000.0 0.9704166078174383 -0.3533945790506041
102940000.0 0.9679383271056188 -0.35325762853574805
103940000.0 0.9648948392899659 -0.34776403341175743
104930000.0 0.9629939785029756 -0.3495497475601042
105930000.0 0.9551827638459076 -0.36379404458084963
106930000.0 0.9534292190597705 -0.37806692273498216
107930000.0 0.9474368811949512 -0.38664182934918373
108930000.0 0.9392236990988727 -0.3911534350231042
109930000.0 0.9309172005536056 -0.3928519433846777
110930000.0 0.9244794445808114 -0.3931801656038095
111930000.0 0.9186947121062804 -0.39204603016803014
112930000.0 0.9202318473658704 -0.3913736668372024
113930000.0 0.9297310874574268 -0.3896778129248904
114930000.0 0.9375890891948209 -0.3797626786607399
115930000.0 0.9400516968602065 -0.36085203749864836
116920000.0 0.9431089659737054 -0.3393541934003517
117920000.0 0.9414058785717433 -0.3269113338682187
118920000.0 0.9345279403332317 -0.32580287620772563
119920000.0 0.9266488201704202 -0.3310586358003934
120920000.0 0.9170412607354101 -0.3441452565774266
121920000.0 0.9080179124734932 -0.35511725427464275
122920000.0 0.9015971802482966 -0.36518445467203764
123920000.0 0.9010332327448209 -0.3724834320418813
124920000.0 0.909231074731674 -0.3792213337719473
125920000.0 0.9212072616127102 -0.38610522526192925
126920000.0 0.9335867006367242 -0.3955150699034225
127920000.0 0.9429496157466899 -0.4064885220451235
128919999.99999999 0.9468228669885524 -0.41542910077441114
129910000.0 0.9476082824141234 -0.4224970493743004
130910000.0 0.9464721528782087 -0.42794530731849073
131910000.0 0.9408122378712185 -0.43173097909387537
132910000.0 0.9333788600234171 -0.43365611818429983
133910000.0 0.9273500836233817 -0.435389769121909
134910000.0 0.9237716666127825 -0.4374541429501407
135910000.0 0.9216383215021952 -0.43920409120580894
136910000.0 0.9186756460974345 -0.4399584901845558
137910000.0 0.915872124534926 -0.4403858050179165
138910000.0 0.9110511164961621 -0.4396349115025451
139910000.0 0.9072972707990257 -0.4393863394227624
140910000.0 0.901826949465631 -0.4400452500247202
141900000.0 0.8960719653343273 -0.4413106578867426
142900000.0 0.8897200617916176 -0.4437919628637489
143900000.0 0.8833849223270128 -0.44622983362164004
144900000.0 0.8785468885379752 -0.44822158405994644
145900000.0 0.8747367992206483 -0.4482035375574679
146900000.0 0.8724990142973406 -0.4451360483785854
147900000.0 0.8726561253538632 -0.44234077155200946
148900000.0 0.871264426807053 -0.4401073307776518
149900000.0 0.8704919789689037 -0.43914520173523824
150900000.0 0.8697963812385295 -0.43803278243215515
151900000.0 0.8682530810289673 -0.43611634178236086
152900000.0 0.8653352550205109 -0.4344616247086362
153890000.0 0.8609816754348278 -0.43321696797952536
154890000.0 0.8552866345962068 -0.4322237489595817
155890000.0 0.8506047464316883 -0.43172310336619124
156890000.0 0.8484980049107889 -0.4310263757133791
157890000.0 0.8488738232499337 -0.43028575749057796
158890000.0 0.8511260996940152 -0.42825797435405577
159890000.0 0.854117533400411 -0.4247311052539589
160890000.0 0.8580830769747976 -0.4216712872365319
161890000.0 0.8618239765733973 -0.4190370268685062
162890000.0 0.8649801860660459 -0.4175891579865453
163890000.0 0.8672661643078137 -0.41794643631231204
164890000.0 0.867240213182452 -0.42054821295446193
165890000.0 0.865502240276406 -0.42663069222027716
166880000.0 0.8606066775748427 -0.43642183948723423
167880000.0 0.8551406720106661 -0.45181866409069277
168880000.0 0.8480046515581681 -0.4719933341251245
169880000.0 0.841756273497147 -0.49642618993122445
170880000.0 0.8359962670521977 -0.5211719569588142
171880000.0 0.8341648177435761 -0.5452385764596634
172880000.0 0.8357941435420873 -0.567791892623018
173880000.0 0.8415436765377494 -0.588380095576479
174880000.0 0.8495443055405816 -0.6059740640134724
175880000.0 0.8604367297468464 -0.6198819307492993
176880000.0 0.8720597137694873 -0.6268692953410402
177880000.0 0.882193820140077 -0.6276379762687946
178870000.0 0.8890323910793948 -0.6222759686284387
179870000.0 0.8863507915037432 -0.6174073950493715
180870000.0 0.8714452155777825 -0.6213663795959093
181870000.0 0.8474407580221525 -0.6314328225737087
182870000.0 0.82375907399052 -0.6405865135574697
183870000.0 0.8027699431685812 -0.6440606675790735
184870000.0 0.7867573587145552 -0.6451007868448467
185870000.0 0.7765235842747366 -0.6428528726977981
186870000.0 0.7685822538714109 -0.6451457105846296
187870000.0 0.7662759250593155 -0.6514604062676326
188870000.0 0.7695665217645205 -0.6619316347032176
189870000.0 0.7757834846433506 -0.6727160480811196
190860000.0 0.7757360251279959 -0.6745747760865922
191860000.0 0.771985292974909 -0.6698947131088913
192860000.0 0.7656452696411866 -0.6611204983638223
193860000.0 0.7606431486317653 -0.6544873331786938
194860000.0 0.754687241037357 -0.6473022963595612
195860000.0 0.7502768359767689 -0.6419301419267331
196860000.0 0.7465565142572252 -0.6358188809745792
197860000.0 0.7430678237972927 -0.6294987470504232
198860000.0 0.7375600530511034 -0.6221840914159442
199860000.0 0.732608485524691 -0.6160400125472519
200860000.0 0.7275652441839261 -0.6117992229301092
201860000.0 0.7232648959341967 -0.6101251149222506
202860000.0 0.7189639305815302 -0.6101573439537583
203850000.0 0.7147541310624116 -0.6117533342451452
204850000.0 0.709301939616554 -0.6131176683859948
205850000.0 0.7060819547449926 -0.6168231432220863
206850000.0 0.7021420648577557 -0.6196751906450041
207850000.0 0.7009349540607541 -0.6242908482301037
208850000.0 0.7001429722230769 -0.6284229692472031
209850000.0 0.7000283279615276 -0.6334124076659168
210850000.0 0.7000046042489455 -0.6382964425179147
211850000.0 0.6999619804463053 -0.6431972478579084
212850000.0 0.6989820024634944 -0.6474910736143852
213850000.0 0.6979824971029377 -0.6517908200441745
214850000.0 0.6955892902998132 -0.6559487637692842
215840000.0 0.6923754266592632 -0.6593402081085707
216840000.0 0.7222287788084185 -0.6264972725648138
217840000.0 0.7219006466170186 -0.6268753447729306
218840000.0 0.7226226966340509 -0.6277236083112792
219840000.0 0.7233454301891258 -0.6285729751652462
220840000.0 0.7241786919634414 -0.6292970632851311
221840000.0 0.7246829355099249 -0.6304015150168035
222840000.0 0.7255810041193078 -0.6327416770219629
223840000.0 0.7249776734751603 -0.6351171228541082
224840000.0 0.724533944856874 -0.6389873735428013
225840000.0 0.7544834367019297 -0.6703328514973454
226840000.0 0.7516689421710974 -0.6734873342754862
227840000.0 0.7498221095724518 -0.6772785894327372
228830000.0 0.7469785617813492 -0.6804134860118124
229830000.0 0.7455980910144886 -0.6853724629184907
230830000.0 0.7428540352992496 -0.6900609975691242
231830000.0 0.741666798876638 -0.6964714826347338
232830000.0 0.7386152941852738 -0.7014099108321852
233830000.0 0.7362565776354012 -0.7072790688843481
234830000.0 0.733635525284631 -0.7116875264195258
235830000.0 0.7311148862443 -0.7159605933030697
236830000.0 0.7289482219849494 -0.7198450654948627
237830000.0 0.7267627909195059 -0.7237248921780386
238830000.0 0.7250117416149221 -0.7288178673263684
239830000.0 0.7224004466998379 -0.7330697918923978
240820000.0 0.7190664550507331 -0.7363403821589993
241820000.0 0.716412887797775 -0.740572840033968
242820000.0 0.7129150788875221 -0.7439406209460017
243820000.0 0.7087154461289519 -0.7463083421720071
244820000.0 0.7055831086587866 -0.7492704464695589
245820000.0 0.702963368060677 -0.7517288263343891
246820000.0 0.7003350620757693 -0.7541780466207016
247820000.0 0.6978302668682428 -0.756496294650467
248820000.0 0.695052882149852 -0.7590488891978389
249820000.0 0.6918672972184136 -0.7619536522761581
250820000.0 0.6870767696182447 -0.7646849167236242
251820000.0 0.6829293896208327 -0.7683911490938553
252810000.0 0.6773077685327387 -0.7717778715903048
253810000.0 0.6724452075806215 -0.77601825957455
254810000.0 0.666787989525801 -0.7793302578800358
255810000.0 0.6625037228003663 -0.7845226023939108
256810000.0 0.6575613770889964 -0.7886697228574719
257810000.0 0.6530677371823178 -0.7939269738869096
258810000.0 0.6483946227602295 -0.7992735066001554
259810000.0 0.6438202175451673 -0.8044818734308549
260810000.0 0.6390350183886874 -0.8082881927083275
261810000.0 0.6362341940509902 -0.812003121019004
262810000.0 0.633964175777368 -0.8137766536680927
263810000.0 0.6326670936886117 -0.8132821808956163
264800000.0 0.6305203542080131 -0.8134480979796379
265800000.0 0.6313718491871132 -0.8127873727066226
266800000.0 0.6316367673711057 -0.811081070743633
267800000.0 0.6313133066402885 -0.8083349446127688
268800000.0 0.6295582865678633 -0.8052183449441127
269800000.0 0.6259660334414386 -0.8020652664571228
270800000.0 0.6200041828463202 -0.7993045761997243
271800000.0 0.6129719421344453 -0.797398803871579
272800000.0 0.6052939880428944 -0.796002002534622
273800000.0 0.5984947973046577 -0.7953841351774779
274800000.0 0.5936607656184075 -0.7947188189079833
275800000.0 0.5910362834030062 -0.7952509382082776
276800000.0 0.5902031746482602 -0.7958694337987229
277790000.0 0.5904657851863544 -0.7970955164128047
278790000.0 0.5920898242964173 -0.8001634738335694
279790000.0 0.5926320606729579 -0.8011886725880848
280790000.0 0.5941383657704535 -0.8029319187466446
281790000.0 0.5929116921673957 -0.8009817561668487
282790000.0 0.5914085479442924 -0.7992427816848661
283790000.0 0.5888132222192869 -0.7968983199629205
284790000.0 0.5862284766992479 -0.7945601366946786
285790000.0 0.5836342459507897 -0.7936504483706556
286790000.0 0.5803553943522914 -0.7932455453615921
287790000.0 0.5768082944763528 -0.7930349738863638
288790000.0 0.5743140592940268 -0.7948431541385267
289780000.0 0.5718141558637955 -0.7966434896096495
290780000.0 0.569587280897023 -0.7982371876979926
291780000.0 0.5681492809130796 -0.8006468748592734
292780000.0 0.5672158008306898 -0.804079654977819
293780000.0 0.5662705642862761 -0.8075177222822219
294780000.0 0.5646056172334547 -0.8114540763002182
295780000.0 0.5626377223061573 -0.8155898089469509
296780000.0 0.5597177238547687 -0.8189793497787174
297780000.0 0.5568460554556952 -0.8236962821212511
298780000.0 0.5528731591815352 -0.8277458636256642
299780000.0 0.5487279242983473 -0.8318736163120941
300780000.0 0.5447000798343876 -0.8358870978666549
301770000.0 0.5410849045303464 -0.8395994222913324
302770000.0 0.5385078990449181 -0.8439872515293865
303770000.0 0.5358798583428189 -0.8470233572345425
304770000.0 0.5339787463445163 -0.8495871746349183
305770000.0 0.5328296466151355 -0.8530369405529213
306770000.0 0.5316536195430847 -0.8551349686239105
307770000.0 0.5297120130251634 -0.8563390502560937
308770000.0 0.5279173402354996 -0.8574465975297558
309770000.0 0.5259704984197076 -0.8586421958702029
310770000.0 0.522968233225435 -0.8591179670435055
311770000.0 0.5192199550733771 -0.8586863846046499
312770000.0 0.5156254393835564 -0.8595034592943238
313760000.0 0.511443073003786 -0.8593171609344503
314760000.0 0.5042481035778941 -0.8622261384698626
315760000.0 0.5006320059835868 -0.8643307575271189
316760000.0 0.49586403966558157 -0.8644274999023714
317760000.0 0.492541229120545 -0.866325104125095
318760000.0 0.4887996051667937 -0.8671256488430925
319760000.0 0.48576979385901636 -0.8688265950504371
320760000.0 0.4824301664547887 -0.870685407817986
321760000.0 0.4795402170298493 -0.8722804165769932
322760000.0 0.47649246863614764 -0.8739490100834244
323760000.0 0.4723500350452037 -0.8735931146844081
324760000.0 0.4692977482850448 -0.8752366017745129
325750000.0 0.46570327381451027 -0.8758604720613786
326750000.0 0.46226374794370845 -0.8763904211919594
327750000.0 0.45897948562509094 -0.8768282712048157
328750000.0 0.45600383660624 -0.8770961874026133
329750000.0 0.45303087574627987 -0.8773554942769468
330750000.0 0.4505200757780331 -0.8773704377843605
331750000.0 0.448681528672827 -0.8783120798467822
332750000.0 0.446173576451892 -0.8783160632264545
333750000.0 0.44479337092889826 -0.8790158271744583
334750000.0 0.44290186466660875 -0.8787011975274018
335750000.0 0.4408597171707202 -0.878460920454613
336750000.0 0.439786145939714 -0.878998876466464
337740000.0 0.43805378520057014 -0.878599968640691
338740000.0 0.4364772438060149 -0.8781229378755399
339740000.0 0.43571077087991267 -0.8785035017135087
340740000.0 0.43429028233129724 -0.877947938199376
341740000.0 0.43352396295393575 -0.8783265936203046
342740000.0 0.4329106697179293 -0.8786290363744572
343740000.0 0.4326039439579646 -0.8787800971733186
344740000.0 0.4322971654865215 -0.8789310508954911
345740000.0 0.4322971654865215 -0.8789310508954911
346740000.0 0.4331022844670406 -0.87979241277309
347740000.0 0.4341768301735457 -0.8792626220442425
348740000.0 0.43586409202883175 -0.8784274424581388
349730000.0 0.43897361257820816 -0.8781407581270828
350730000.0 0.44269859316188465 -0.8775356600174727
351730000.0 0.44734367890821725 -0.8764482239140603
352730000.0 0.4524471973797267 -0.8751008518043621
353730000.0 0.46652217948661023 -0.868967364073029
354730000.0 0.4726678252352727 -0.8669341178571442
355730000.0 0.47835437239640916 -0.8651094239256952
356730000.0 0.4837351694217661 -0.8634177848951191
357730000.0 0.4882099901281369 -0.862205862053297
358730000.0 0.4916321702122279 -0.8615735110677143
359730000.0 0.5026800799036495 -0.8578262247827351
360730000.0 0.5041389745792914 -0.8596277931355375
361730000.0 0.5048070573579166 -0.8645664074665061
362720000.0 0.5042266309657433 -0.8715887162886035
363720000.0 0.5020437268228602 -0.8808906824823878
364720000.0 0.49745289179452284 -0.8915481197549411
365720000.0 0.49093417876379547 -0.9045647336143537
366720000.0 0.48043303770581103 -0.9209401818308265
367720000.0 0.4709246481310702 -0.9379601725681335
368720000.0 0.46237134949224395 -0.9611659695349978
369720000.0 0.4513756760282102 -0.981361103850687
370720000.0 0.44006295987598915 -1.0015413734102188
371720000.0 0.4287515262976755 -1.0229569392255937
372720000.0 0.4172776020917305 -1.0443255001500857
373720000.0 0.40611667630135806 -1.0640716687394198
374710000.0 0.388376231872948 -1.0846927492363492
375710000.0 0.37664681751653756 -1.1000953313458526
376710000.0 0.36517699326909653 -1.1152825796545416
377710000.0 0.3456871124746669 -1.129986186342499
378710000.0 0.3351654436091905 -1.1402638598293857
379710000.0 0.3245250158719424 -1.1476115637253468
380710000.0 0.3146191989487164 -1.1532166830929782
381710000.0 0.30489445361586276 -1.1572498742397113
382710000.0 0.29559372971817977 -1.1596604012489342
383710000.0 0.2837244167475161 -1.1499191971191889
384710000.0 0.27545668645458105 -1.1491266139740217
385710000.0 0.26690593354394127 -1.1469599171335176
386700000.0 0.25593328909426866 -1.1328993927640014
387700000.0 0.2476668887894705 -1.1292726104638269
388700000.0 0.23985421217805647 -1.1255272062882837
389700000.0 0.23209969190777932 -1.1217529282491385
390700000.0 0.22498855690420647 -1.1178326025373624
391700000.0 0.21845724878984066 -1.112458129726593
392700000.0 0.2106194837778535 -1.096824027497617
393700000.0 0.2056487764402306 -1.0925456577155694
394700000.0 0.20128633831542933 -1.0881635949031814
395700000.0 0.19756329223590213 -1.0849676244972841
396700000.0 0.19401609148385213 -1.0804599467898508
397700000.0 0.1906839512025293 -1.075931101520011
398690000.0 0.1873773576556864 -1.0714155503646274
399690000.0 0.18446857514800963 -1.0668489632234703
400690000.0 0.1811877605961964 -1.0611071348196945
401690000.0 0.17853255277575228 -1.0577932295793016
402690000.0 0.17513894130829122 -1.05336420045423
403690000.0 0.17195477779911558 -1.0489172841863437
404690000.0 0.16861299636558105 -1.0445130640273352
405690000.0 0.16531442288753354 -1.0425764601107639
406690000.0 0.16184240906365346 -1.0394377415728848
407690000.0 0.15857198077076168 -1.036272534783663
408690000.0 0.1549584413233777 -1.0343810940532134
409690000.0 0.15207993098743142 -1.0323767664589762
410680000.0 0.14921293584227316 -1.0303700373159796
411680000.0 0.14670571984873199 -1.0295199770094816
412680000.0 0.14420332168422934 -1.0286652148512963
413680000.0 0.14188513023658803 -1.027781019209628
