!Created with skrf (http://scikit-rf.org).
# Hz S RI R 50.0 
!freq ReS11 ImS11
25000000.0 -0.8562051367752269 0.129641710464537
26000000.0 -0.8541628620271422 0.14247811925364928
27000000.0 -0.856916136405946 0.13802282021761292
28000000.0 -0.8549578067913544 0.14967535648941896
29000000.0 -0.8629334365227634 0.1447152066725204
30000000.0 -0.858629732783469 0.15758804524963393
31000000.0 -0.8571063882068308 0.1656733210883802
31990000.0 -0.8610739409019319 0.1553971531620597
32990000.000000004 -0.8573657349238498 0.15890334646780963
33990000.0 -0.8734217948032515 0.17215022173421218
34990000.0 -0.8713249786626852 0.16133324570138302
35990000.0 -0.8714428459617307 0.17682192800086863
36990000.0 -0.8670548918609791 0.18778073435537662
37990000.0 -0.8630514124007118 0.19639730731185787
38990000.0 -0.8720058767437313 0.19859508033036674
39990000.0 -0.866835301289927 0.18393530125474347
40990000.0 -0.873751597945578 0.1476271644976651
41990000.0 -0.8864742455690744 0.16429829003017496
42990000.0 -0.874198021813654 0.16265437792115878
43980000.0 -0.880774672305822 0.15514583987848382
44980000.0 -0.8870326287445729 0.16696526454125765
45980000.0 -0.8862758070761888 0.1816039149529549
46980000.0 -0.8834162029080017 0.195039997370791
47980000.0 -0.8818382361902734 0.20667092084433583
48980000.0 -0.87321071451053 0.2201456470563305
49980000.0 -0.8630475748910931 0.23448483635755935
50980000.0 -0.8436572655642424 0.2395263211993101
51980000.0 -0.8300033692372906 0.23627606937803675
52980000.0 -0.828219483156331 0.2388966839806729
53980000.0 -0.8265186662661008 0.25838170145380207
54980000.0 -0.8333428012683823 0.2600361236435766
55970000.0 -0.8401349412769102 0.24806202814510223
56970000.0 -0.8449205483275216 0.24611189491050423
57970000.0 -0.8474685137299043 0.24460921748010864
58970000.0 -0.8428949928892103 0.23851524128264245
59970000.0 -0.8319136060153661 0.22945963922332643
60970000.0 -0.8253877997462736 0.22332501766130597
61970000.0 -0.8312405707882959 0.22055472911226762
62970000.0 -0.8319887343241321 0.21377318841901025
63970000.0 -0.8114326504396392 0.20351670644636455
64970000.0 -0.8120329240793055 0.20110824501617627
65970000.0 -0.8172001000705958 0.2043569534123977
66970000.0 -0.8184002029831803 0.20754309885806585
67960000.0 -0.821012381062914 0.19695608715631033
68960000.0 -0.8220007217700424 0.20114229695027186
69960000.0 -0.8230791327563526 0.21286273704718894
70960000.0 -0.8182482369796437 0.23431983005007276
71960000.0 -0.8140625330574178 0.2551117339695781
72960000.0 -0.8220193570166773 0.2389742869615737
73960000.0 -0.8234229775004864 0.23409214694888292
74960000.0 -0.8219358891753872 0.2392612112825012
75960000.0 -0.8184275964523307 0.2509996065816938
76960000.0 -0.8205376444606474 0.2640778520051874
77960000.0 -0.8162142029655844 0.2740522143281698
78960000.0 -0.8196316277569625 0.2855863416100101
79960000.0 -0.8132162436645424 0.2947012751097048
80950000.0 -0.7885798655408224 0.2989235844107112
81950000.0 -0.7645018816152315 0.3026877077100297
82950000.0 -0.76601534076412 0.31917517769761666
83950000.0 -0.768413970869985 0.33315952303932894
84950000.0 -0.770484492930366 0.34288067867286687
85950000.0 -0.773481207394967 0.3481031453614339
86950000.0 -0.7766236033527479 0.35065900266576416
87950000.0 -0.7853602368783791 0.3455667747701917
88950000.0 -0.798985467155805 0.3365191187615134
89950000.0 -0.8104772137321558 0.33504794628167955
90950000.0 -0.817174907153893 0.34535628098114146
91950000.0 -0.8177023622073175 0.354529380397245
92940000.0 -0.8192846698898724 0.3586180205880224
93940000.0 -0.8289328410532775 0.3384500087324876
94940000.0 -0.8374685800625744 0.3310701364693232
95940000.0 -0.8448073141021025 0.34080987302895716
96940000.0 -0.8319576829209562 0.39131222698643564
97940000.0 -0.8326393841069464 0.38985959164075346
98940000.0 -0.8256653962796455 0.3823856915454738
99940000.0 -0.8225114709565561 0.3767488132425533
100940000.0 -0.826278527803173 0.3760344525497942
101940000.0 -0.8370396861880102 0.3828733183271902
102940000.0 -0.8440845205045817 0.39557774397816164
103940000.0 -0.8359665945423763 0.40268300807685303
104930000.0 -0.8413709144661281 0.3912655574862576
105930000.0 -0.8380420826876571 0.36508695659497603
106930000.0 -0.83627102327308 0.35325471072131204
107930000.0 -0.8334683534086339 0.3491602429041613
108930000.0 -0.8306553385073503 0.34781139495864727
109930000.0 -0.8322656574497029 0.3493396047553917
110930000.0 -0.8354319010728336 0.3525566459689877
111930000.0 -0.8371726319569193 0.35380776401812225
112930000.0 -0.8292524451433256 0.3511430478845572
113930000.0 -0.8162073054890159 0.34763691426754284
114930000.0 -0.8155826894142721 0.356827979856197
115930000.0 -0.8235622033814958 0.36684576231096766
116920000.0 -0.8291671825633767 0.3747318335453316
117920000.0 -0.8322041588420079 0.3782053096365968
118920000.0 -0.8381034460108363 0.3727972041605948
119920000.0 -0.8389231165929624 0.3761473775081264
120920000.0 -0.7296341798076943 0.5576456952408299
121920000.0 -0.6784180114563512 0.6157994708109188
122920000.0 -0.6855248329984484 0.6062878734308745
123920000.0 -0.6927377938337734 0.5996451746772535
124920000.0 -0.7118778416249762 0.5884981330649696
125920000.0 -0.7338455284552797 0.5835180007481134
126920000.0 -0.7584855508834032 0.5874940347393084
127920000.0 -0.7943294830371742 0.6112744577162461
128919999.99999999 -0.8662314537851294 0.6515678195037188
129910000.0 -0.9205662067533783 0.6639332878210207
130910000.0 -0.8378558491084876 0.5730477262465239
131910000.0 -0.7993840488396439 0.5244982210942074
132910000.0 -0.7787778934115538 0.5005425436102631
133910000.0 -0.7675273080111825 0.4906654654360033
134910000.0 -0.7712279902102629 0.48679683464347795
135910000.0 -0.7790493017491091 0.4902138304707673
136910000.0 -0.784234457548785 0.4919493478230584
137910000.0 -0.7979355944506703 0.4984118747978331
138910000.0 -0.8104091544405395 0.5052205872239172
139910000.0 -0.8166475550835076 0.5077252649951073
140910000.0 -0.8148215257821447 0.5085639667503202
141900000.0 -0.8148261207381826 0.5127262586820709
142900000.0 -0.810048744933171 0.5140725654860078
143900000.0 -0.8041478157420646 0.513088260506434
144900000.0 -0.7969397698377202 0.5141834155056313
145900000.0 -0.7888720572544177 0.5185863625443001
146900000.0 -0.7775033551746897 0.5277958252114762
147900000.0 -0.766689539187254 0.5396384598337299
148900000.0 -0.7603268904888808 0.5485668021584916
149900000.0 -0.756188569349404 0.5542574892738804
150900000.0 -0.7534605426041499 0.5597732431500045
151900000.0 -0.7518305637627464 0.5673683243098364
152900000.0 -0.7520681623542944 0.5760401667191127
153890000.0 -0.7528566647756187 0.5839754896235949
154890000.0 -0.7553990562340714 0.5914573844275219
155890000.0 -0.7572235787207896 0.5963043171143543
156890000.0 -0.7547903795317865 0.5975962737045897
157890000.0 -0.7482459418295133 0.5951816966321417
158890000.0 -0.7430469622646115 0.5946543641204806
159890000.0 -0.7387422513173983 0.5965157363594515
160890000.0 -0.7328703763647225 0.6002747753718946
161890000.0 -0.7234172609586068 0.6048707171000226
162890000.0 -0.711937147828197 0.6117142883326055
163890000.0 -0.6990144234976029 0.6199598407400478
164890000.0 -0.6867042718330261 0.6288076962032908
165890000.0 -0.6767432301162813 0.6363938625244214
166880000.0 -0.671388103639144 0.642040934877835
167880000.0 -0.6708138032433484 0.6441868984649467
168880000.0 -0.6760678193828309 0.6417886980005535
169880000.0 -0.6854345529971481 0.6349416051462617
170880000.0 -0.6970352734190719 0.6254139818977783
171880000.0 -0.7066656160255863 0.6145116176857957
172880000.0 -0.7123724296458465 0.6045633878003077
173880000.0 -0.710616319396543 0.5950108974739085
174880000.0 -0.7013781516948209 0.5862351973025883
175880000.0 -0.6866468530642932 0.5794403588167993
176880000.0 -0.6677179369868507 0.5763586623499539
177880000.0 -0.645918491526968 0.5752901900907752
178870000.0 -0.6293517400858609 0.5744757128774494
179870000.0 -0.6277695821698765 0.566040349955524
180870000.0 -0.6433534156062385 0.546762665838027
181870000.0 -0.6629806568366969 0.5290610802772033
182870000.0 -0.6787875012244196 0.5216052734783388
183870000.0 -0.688726706235358 0.5216361591456838
184870000.0 -0.6955585767152682 0.5258560100426848
185870000.0 -0.6980308257591213 0.5292584015883529
186870000.0 -0.6985589515949446 0.5235402574511189
187870000.0 -0.6860595952799236 0.5152953805528278
188870000.0 -0.6688132993890957 0.5025243939974907
189870000.0 -0.6591369609984931 0.49471415914935735
190860000.0 -0.6637928124475796 0.4980275077615777
191860000.0 -0.6751584765166291 0.5085836781329675
192860000.0 -0.6851707919747994 0.5213935434252555
193860000.0 -0.6916976836078623 0.5342191479806843
194860000.0 -0.696202816006365 0.5449123265013713
195860000.0 -0.6985641395850767 0.5534766278805665
196860000.0 -0.7026818462956244 0.561546188719107
197860000.0 -0.7047968657573298 0.5705296030581721
198860000.0 -0.7059607526778182 0.5807085619394778
199860000.0 -0.7064341706078037 0.5917188839592483
200860000.0 -0.7064668485191374 0.6048739626724988
201860000.0 -0.7051121805222661 0.6179314927320175
202860000.0 -0.7019767923821717 0.6296266360429694
203850000.0 -0.6976392143225434 0.6392685603007693
204850000.0 -0.6945413948213099 0.6474437338376411
205850000.0 -0.6914810040057897 0.6539010796728699
206850000.0 -0.6896075227423676 0.662234630661509
207850000.0 -0.6864021237724954 0.6702997062760652
208850000.0 -0.6822433612752445 0.6808159683613425
209850000.0 -0.6784957481106421 0.6892381257180512
210850000.0 -0.6738838080479419 0.6968528709960535
211850000.0 -0.6691599660756006 0.7029328106757733
212850000.0 -0.663371325762101 0.7083982500539324
213850000.0 -0.659280264376016 0.712207223725744
214850000.0 -0.6544134776238305 0.7151687289506737
215840000.0 -0.6510360707207136 0.7182446276758163
216840000.0 -0.539069952236288 0.8043417143987042
217840000.0 -0.5380289406063407 0.8036980360916471
218840000.0 -0.5375499705146184 0.8026794690265373
219840000.0 -0.537291641908573 0.8001775292490573
220840000.0 -0.5362738644286403 0.796857433601228
221840000.0 -0.535533100450046 0.7933629613514616
222840000.0 -0.5352680559381205 0.7908849142878721
223840000.0 -0.5338351000027417 0.787878599089519
224840000.0 -0.5315832965592217 0.7854405008333004
225840000.0 -0.5084945693141744 0.7533068581628412
226840000.0 -0.5067269239387606 0.7532369743769645
227840000.0 -0.5051482378859207 0.7542966079558833
228830000.0 -0.5029879162899674 0.754483801027794
229830000.0 -0.5021162353286935 0.7563183200427861
230830000.0 -0.5007954467445084 0.7571935258128998
231830000.0 -0.5004919169594801 0.7599013125206189
232830000.0 -0.5004921255203624 0.7636680017597596
233830000.0 -0.49897097896597675 0.7671748459618689
234830000.0 -0.49706406289620647 0.7721800794771848
235830000.0 -0.4940151147821909 0.7766443719665618
236830000.0 -0.49206669513076734 0.7829029827684703
237830000.0 -0.4890855638832166 0.7872793866896503
238830000.0 -0.48648907427358545 0.7913955574675663
239830000.0 -0.48428557006329526 0.7965098341607407
240820000.0 -0.4820493890206416 0.8016309386321502
241820000.0 -0.4790761725916326 0.807177114308233
242820000.0 -0.47589883053186177 0.8140770362541586
243820000.0 -0.4663423132487953 0.8245930155989141
244820000.0 -0.46086234901684936 0.8314176862329627
245820000.0 -0.4555976252236767 0.8380597094019006
246820000.0 -0.44885833169912603 0.8441797436177485
247820000.0 -0.4423438166815546 0.8500967852704632
248820000.0 -0.4365628388190841 0.8568028137794863
249820000.0 -0.43100590924083554 0.863331791183037
250820000.0 -0.4262868571098117 0.8693914667060629
251820000.0 -0.42148088049135585 0.8742101943486319
252810000.0 -0.41726542607589745 0.8799477413475172
253810000.0 -0.41204842590731666 0.8836407009433099
254810000.0 -0.4072702669059829 0.888326243964325
255810000.0 -0.40183622567802096 0.8907975268007196
256810000.0 -0.39560754380527774 0.8935811419819641
257810000.0 -0.38938029108781097 0.8950861148157889
258810000.0 -0.38502751233747146 0.8957447227862968
259810000.0 -0.37911184948836957 0.8970466369584164
260810000.0 -0.37448771104285666 0.8965599983067531
261810000.0 -0.3718675110970733 0.8964397083537239
262810000.0 -0.36956347724417665 0.8961842147972876
263810000.0 -0.36741899669387135 0.8958600827106593
264800000.0 -0.3643888997367258 0.8946927017393455
265800000.0 -0.36043273614145976 0.8938985566033302
266800000.0 -0.3560207902586219 0.8932789994407397
267800000.0 -0.3513098956964637 0.892765886970885
268800000.0 -0.34643630812168763 0.8899397304148887
269800000.0 -0.3435385176358424 0.8875324714052821
270800000.0 -0.3433665068747129 0.8852517040721326
271800000.0 -0.3462099917249087 0.8829701145338238
272800000.0 -0.35159725617051973 0.8808387769526255
273800000.0 -0.35789135054123794 0.8783002691208764
274800000.0 -0.3638614137331733 0.8758438520227974
275800000.0 -0.3693572844339905 0.8735403699690035
276800000.0 -0.37291426337429884 0.8696549417565556
277790000.0 -0.3748024433693936 0.8652885335552997
278790000.0 -0.3757844312989227 0.8601365788067377
279790000.0 -0.3765965593236257 0.855070991142676
280790000.0 -0.37709325343794053 0.8501579835461656
281790000.0 -0.37844526058915107 0.8472148115573819
282790000.0 -0.3812526453268598 0.8459551835740899
283790000.0 -0.38390840614034544 0.8447532704165045
284790000.0 -0.3884886655932837 0.8461905414643716
285790000.0 -0.3926379744875071 0.8466398354356051
286790000.0 -0.39665069862656505 0.8471434344350985
287790000.0 -0.4002306213331267 0.8478431261608385
288790000.0 -0.40337663586139755 0.8487444786622794
289780000.0 -0.4051755495450339 0.8490867940803903
290780000.0 -0.4060873310814362 0.8498523939915195
291780000.0 -0.4053455404274279 0.8502064483956572
292780000.0 -0.4044749407623319 0.8518222468057854
293780000.0 -0.40239234097619797 0.8528080216447566
294780000.0 -0.40061928296178206 0.8548421656966466
295780000.0 -0.39883885704135486 0.8568739988161859
296780000.0 -0.39720096170162095 0.8588341874732872
297780000.0 -0.3957066199461128 0.8607235708585953
298780000.0 -0.39511250553283767 0.863398659703338
299780000.0 -0.3946634960494066 0.8660100032818675
300780000.0 -0.3946640985000327 0.8684201298838069
301770000.0 -0.3943581695615717 0.8709735217389198
302770000.0 -0.3938991043095107 0.8723898129541433
303770000.0 -0.3931329854062749 0.87394453615154
304770000.0 -0.3919123458154788 0.8744926012728692
305770000.0 -0.3902327193085203 0.8752434068672887
306770000.0 -0.3879518559790749 0.8750507685639679
307770000.0 -0.38581254758903893 0.8759961005876997
308770000.0 -0.38322947239267074 0.875927173319726
309770000.0 -0.38124107194538 0.876794438013944
310770000.0 -0.3794038831561924 0.8775909838394265
311770000.0 -0.3777183312376697 0.8783177692141269
312770000.0 -0.3763382074881742 0.8789100039565133
313760000.0 -0.3752641357515183 0.8793691317580554
314760000.0 -0.37403593941698743 0.8798922419789266
315760000.0 -0.3731143134961443 0.8802834489722905
316760000.0 -0.37203856618630526 0.8807386370202503
317760000.0 -0.37096226356233747 0.8811925104555514
318760000.0 -0.3695776325166789 0.881774129249445
319760000.0 -0.36850006663723733 0.8822249953150284
320760000.0 -0.3668452998848336 0.881722952694505
321760000.0 -0.36530584506743047 0.8823618752617773
322760000.0 -0.36407347978313154 0.8828710781730884
323760000.0 -0.3625320253314856 0.8835051612554173
324760000.0 -0.36037213486811476 0.8843883557388729
325750000.0 -0.35882803790636314 0.8850159764479846
326750000.0 -0.35738489694386305 0.8867859250724915
327750000.0 -0.35521700543564794 0.8876565329673303
328750000.0 -0.3533571242217638 0.8883985503319864
329750000.0 -0.35174523267321567 0.8902223213409475
330750000.0 -0.3495689613090593 0.8910791386915672
331750000.0 -0.34779078137281244 0.8929581002912003
332750000.0 -0.34600596191321603 0.8948348708413645
333750000.0 -0.3442145006615832 0.8967094315825278
334750000.0 -0.3424163953925123 0.8985817637280546
335750000.0 -0.3401401217698957 0.9006300688638536
336750000.0 -0.3421051353669941 0.9010718412731955
337740000.0 -0.3401363362166235 0.9030034043418455
338740000.0 -0.33800226762895574 0.9049910319305241
339740000.0 -0.3357899505592358 0.9058142248278159
340740000.0 -0.33380146844441233 0.9077346824991903
341740000.0 -0.33228191621509084 0.9094782763113738
342740000.0 -0.3309159938611674 0.9111629467727019
343740000.0 -0.3293859356234107 0.9129044319841655
344740000.0 -0.3276326789729145 0.9135351247718243
345740000.0 -0.32625361192527613 0.9152155248856056
346740000.0 -0.32481559283257877 0.915726873548409
347740000.0 -0.3237492879534492 0.9172914258377365
348740000.0 -0.3226792956325098 0.9188561016127632
349730000.0 -0.3264204934592411 0.9187243629653603
350730000.0 -0.3245480889274298 0.920578460532944
351730000.0 -0.32749438505118555 0.9207279803402207
352730000.0 -0.32481308006006526 0.922870811282239
353730000.0 -0.3209912374095384 0.9254000524217765
354730000.0 -0.3165056570612848 0.9281360069687357
355730000.0 -0.31239416837645906 0.9331064997231717
356730000.0 -0.30690460751490173 0.9373136004897663
357730000.0 -0.3007171861863949 0.9417039847467716
358730000.0 -0.29686625562688607 0.9537140504850633
359730000.0 -0.2952197234776213 0.957841899870846
360730000.0 -0.28783707840545064 0.9649151268540119
361730000.0 -0.28016959158514343 0.9732198755689393
362720000.0 -0.2717223801462449 0.980463724370771
363720000.0 -0.262906878403733 0.990162815874403
364720000.0 -0.2527613256513339 0.9989030330586172
365720000.0 -0.24185402472199458 1.0089459075468852
366720000.0 -0.23163399833182202 1.0187178349599904
367720000.0 -0.21961303766386084 1.0287827261699711
368720000.0 -0.20747840377999288 1.0449705869722943
369720000.0 -0.1940600148134084 1.0563114921611485
370720000.0 -0.18034938471419948 1.0662895903332643
371720000.0 -0.1665947504658911 1.0773803490663016
372720000.0 -0.15353493188042971 1.0869512247862225
373720000.0 -0.142172957713076 1.0961690153712553
374710000.0 -0.13163344820238118 1.1039112594583231
375710000.0 -0.12400587058732479 1.112548299626266
376710000.0 -0.11708810661048785 1.1158923725362306
377710000.0 -0.11201968619139686 1.1203139987358126
378710000.0 -0.10901618391066664 1.121913355323885
379710000.0 -0.10556531844769003 1.1209406002990896
380710000.0 -0.10192585049387974 1.1199765481795814
381710000.0 -0.10013114325807133 1.1175415723560347
382710000.0 -0.09850611818829949 1.112510700587826
383710000.0 -0.09708709838385231 1.1074843243910564
384710000.0 -0.09614545375744912 1.1011610744512565
385710000.0 -0.09597575155861988 1.094807056160828
386700000.0 -0.09637473685506527 1.0884392562565859
387700000.0 -0.09666245164981768 1.0746080214904121
388700000.0 -0.09603163381529956 1.06968742309511
389700000.0 -0.09696531822960218 1.0634131439011842
390700000.0 -0.09880745280612718 1.0570877652520037
391700000.0 -0.10018981241361379 1.0520576264012755
392700000.0 -0.10203997249026792 1.0482188031496986
393700000.0 -0.10320998851047727 1.0432418404685406
394700000.0 -0.10430564603092524 1.039500201373154
395700000.0 -0.10454875347696975 1.034651395129949
396700000.0 -0.10418827775297128 1.0310840000310908
397700000.0 -0.10275614840157996 1.0240580545764784
398690000.0 -0.10097682932239471 1.020669169595721
399690000.0 -0.098369248101334 1.019738162314376
400690000.0 -0.09505566611833122 1.0188684745293182
401690000.0 -0.09103792926419232 1.018053198342841
402690000.0 -0.08641722891758845 1.0184558320158048
403690000.0 -0.08197256849991447 1.0188232021476182
404690000.0 -0.07708139222762841 1.0203857148270696
405690000.0 -0.07306876651022924 1.0218627031127987
406690000.0 -0.06922421786646758 1.0233131883661026
407690000.0 -0.0654731225708523 1.023560034411292
408690000.0 -0.06186342967460511 1.0261532172548862
409690000.0 -0.05870692423710657 1.0275248037025226
410680000.0 -0.052070280599269804 1.0278824889332447
411680000.0 -0.04902026713689315 1.0280324598898212
412680000.0 -0.04573768354284167 1.026998331798934
413680000.0 -0.042396443193242574 1.0200588076174169
