!Created with skrf (http://scikit-rf.org).
# Hz S RI R 50.0 
!freq ReS11 ImS11
25000000.0 -0.8502660682978698 0.12904606991117548
26000000.0 -0.8490863258841959 0.1426977662663106
27000000.0 -0.850509054618857 0.14019089095957593
28000000.0 -0.8500504122070295 0.14881623101210484
29000000.0 -0.8576006337170687 0.14613024351261641
30000000.0 -0.8537012616154993 0.15668350152400293
31000000.0 -0.8531107249009916 0.16520992320178143
31990000.0 -0.8578061332461326 0.15650851320455375
32990000.000000004 -0.8557240130792279 0.15674599982314044
33990000.0 -0.8716816962492766 0.17038526357211278
34990000.0 -0.8706301830125917 0.15947641579140479
35990000.0 -0.8625818567946364 0.174397070305771
36990000.0 -0.8658603403414041 0.18847149820049586
37990000.0 -0.8607920182982635 0.1971476902153834
38990000.0 -0.8699519408889751 0.20292438939536497
39990000.0 -0.8660298147148991 0.18281685587245297
40990000.0 -0.8703247464899184 0.14954914299492983
41990000.0 -0.8857676767530847 0.16240899197176198
42990000.0 -0.8750340517323814 0.1637581716717788
43980000.0 -0.8799498981678056 0.15389237792186247
44980000.0 -0.8872359532424019 0.16588142540648115
45980000.0 -0.8853508883115745 0.18093141221053452
46980000.0 -0.8844338590954496 0.1952646747759267
47980000.0 -0.8798460390473932 0.20604203195271925
48980000.0 -0.8735554410617625 0.2187737398437718
49980000.0 -0.8650781115153147 0.23487439869580068
50980000.0 -0.8442513988739304 0.24112868880297464
51980000.0 -0.8297140841923394 0.2372899332016773
52980000.0 -0.8293403265716499 0.23859295175679016
53980000.0 -0.8240723454482696 0.2561966888415555
54980000.0 -0.8325217626579599 0.2626528597337092
55970000.0 -0.8402214800740109 0.2477687506205283
56970000.0 -0.8445465102062566 0.2437658244999402
57970000.0 -0.8479365675970109 0.24298174493489008
58970000.0 -0.8452540268187695 0.2375901917400738
59970000.0 -0.8333910163743772 0.22783365036040917
60970000.0 -0.8255947587949864 0.21874826743271994
61970000.0 -0.8316143627235298 0.21522495636203115
62970000.0 -0.8351269116152488 0.20945950156747206
63970000.0 -0.8118293770299461 0.1979026696847241
64970000.0 -0.8105104398883397 0.19518489803467598
65970000.0 -0.8164465895535842 0.19933018002621525
66970000.0 -0.8189048828080566 0.20554275234034053
67960000.0 -0.8205799251515565 0.19458185961593372
68960000.0 -0.8221641896207166 0.19632211128862614
69960000.0 -0.8224318851357663 0.2074964392844594
70960000.0 -0.8205684746758418 0.22972447802382123
71960000.0 -0.8168343747288116 0.25613695047824603
72960000.0 -0.8257083179411517 0.24395904366042917
73960000.0 -0.8298402309489341 0.229511290353083
74960000.0 -0.8264393162504141 0.23791454687300215
75960000.0 -0.8207957503392517 0.2500028674230776
76960000.0 -0.8237457761662488 0.26384161301701164
77960000.0 -0.8193257115784474 0.2741425482418541
78960000.0 -0.8225674127823451 0.28628731452466216
79960000.0 -0.817021539341984 0.29591896173900206
80950000.0 -0.7971617326344173 0.30106333130829566
81950000.0 -0.7644490410004217 0.30282113384887394
82950000.0 -0.7625512589861645 0.3175756155001278
83950000.0 -0.7680646657669985 0.33396402144572424
84950000.0 -0.7708318892399791 0.3444869063654585
85950000.0 -0.7723837939360789 0.3505313864243946
86950000.0 -0.7744050324711459 0.3555317188641799
87950000.0 -0.7800226901261607 0.3574516755913779
88950000.0 -0.7930525899571487 0.34779562805577985
89950000.0 -0.8087118049825215 0.3392869829046228
90950000.0 -0.8166314148504547 0.3466394697296362
91950000.0 -0.8213523294540873 0.3564525414245541
92940000.0 -0.823254841944078 0.3598423202799655
93940000.0 -0.8312575563243714 0.3382148965564662
94940000.0 -0.8376995065152499 0.3304853924728712
95940000.0 -0.8443689390639947 0.3390918141982762
96940000.0 -0.8305222593496725 0.391876937939694
97940000.0 -0.8358664244872016 0.39297256193349006
98940000.0 -0.8326979485432339 0.3872323388563579
99940000.0 -0.8250270094622272 0.37877242332410693
100940000.0 -0.8253277868882624 0.37560177600378053
101940000.0 -0.8355806171242401 0.3809721644038439
102940000.0 -0.843870318107646 0.3935031918232902
103940000.0 -0.8336930081901174 0.402484550418128
104930000.0 -0.8360667068790529 0.3975302590731745
105930000.0 -0.8388823919127242 0.37104106805579035
106930000.0 -0.8381712378639397 0.35681892260928866
107930000.0 -0.8347162724012459 0.3515683275245188
108930000.0 -0.831125210294657 0.34937286811766216
109930000.0 -0.8329800214539803 0.35032364353140477
110930000.0 -0.8371726319569193 0.35380776401812225
111930000.0 -0.8401658295342755 0.3574948440224238
112930000.0 -0.833947790348113 0.3560529917309653
113930000.0 -0.8179926278303128 0.35126826115624377
114930000.0 -0.816514066857695 0.35469156897786464
115930000.0 -0.8228563927387625 0.368426211191672
116920000.0 -0.8298602304790137 0.37574295120965434
117920000.0 -0.8339902138503499 0.3793683035273839
118920000.0 -0.8401658535627734 0.37336334001536137
119920000.0 -0.8405936234505204 0.3776014237931826
120920000.0 -0.729066580382084 0.561862381291514
121920000.0 -0.6716330724922082 0.6278438190306298
122920000.0 -0.6784458044898711 0.617338182858704
123920000.0 -0.689644562668551 0.6048020492912521
124920000.0 -0.709730321083541 0.5860975050921564
125920000.0 -0.731822469134682 0.5808676631193452
126920000.0 -0.7560746744563767 0.5852045181950788
127920000.0 -0.7917406391098811 0.6070849839465673
128919999.99999999 -0.8617692731868493 0.6512782330555599
129910000.0 -0.9328168805828922 0.6852221207211111
130910000.0 -0.8306905876729119 0.5833860368514556
131910000.0 -0.7871802938929026 0.5309598125212873
132910000.0 -0.7646351546792726 0.5009352238162663
133910000.0 -0.7575747654630705 0.48878521959821264
134910000.0 -0.7602359146652075 0.48656514268286305
135910000.0 -0.768040710747232 0.48986144382805746
136910000.0 -0.7735905457271476 0.4909354887161566
137910000.0 -0.7885445446744183 0.4971498067489477
138910000.0 -0.8037777252432489 0.5034272042041665
139910000.0 -0.8149989984503099 0.5082795094037875
140910000.0 -0.8207376155508807 0.5116594967040158
141900000.0 -0.8197932501761866 0.5110707659048355
142900000.0 -0.8165700737553555 0.5120348634879363
143900000.0 -0.8120580169420082 0.5129651101926682
144900000.0 -0.8052534171274035 0.5133982601845762
145900000.0 -0.7946754804527358 0.5156740009618113
146900000.0 -0.782604164709368 0.52410565100704
147900000.0 -0.7699227466164448 0.5369057992335377
148900000.0 -0.7608053157603594 0.5479030829824414
149900000.0 -0.7554139430393723 0.5553127870782306
150900000.0 -0.754970754530146 0.5649958209244831
151900000.0 -0.7518404816592362 0.5727489623488661
152900000.0 -0.7505654870522562 0.5815690735002733
153890000.0 -0.7523828259524914 0.5899434927872272
154890000.0 -0.7571571801022688 0.5981813103795628
155890000.0 -0.7611423595282424 0.6039231613522561
156890000.0 -0.7598758373702101 0.6055159684656097
157890000.0 -0.7543569801052172 0.603489724323064
158890000.0 -0.7486636821987287 0.6017259493418945
159890000.0 -0.7432335603941655 0.6014292279013902
160890000.0 -0.7374172997941116 0.6033541713973203
161890000.0 -0.7285561731433914 0.6055036722228901
162890000.0 -0.7170978204905505 0.6090043724625774
163890000.0 -0.7046727850820516 0.615158549637523
164890000.0 -0.6914040375443411 0.6236363785296685
165890000.0 -0.6799556266574465 0.6329604202032302
166880000.0 -0.6717338457887229 0.6401307621154391
167880000.0 -0.6692553276548622 0.6442638079021307
168880000.0 -0.6722615505984966 0.6442253358454025
169880000.0 -0.6802015948268298 0.6389752580116994
170880000.0 -0.692074831683358 0.62929818256363
171880000.0 -0.7037619626584761 0.6178348655253477
172880000.0 -0.712531855266497 0.6076999065115269
173880000.0 -0.7138963752952826 0.5977573429900076
174880000.0 -0.7080838048458157 0.5897438429957421
175880000.0 -0.695329015692677 0.5836571553136782
176880000.0 -0.676124817287754 0.5790997858124909
177880000.0 -0.6538169004392796 0.5784483302122888
178870000.0 -0.6318745800769341 0.5790063757936637
179870000.0 -0.6220377776982352 0.5752071751878645
180870000.0 -0.6326408328378321 0.5591230694156464
181870000.0 -0.6573945232477233 0.534440578619607
182870000.0 -0.6787332671297207 0.5200579155967464
183870000.0 -0.692441790993908 0.5166944208090654
184870000.0 -0.7012906137739844 0.5198754514861424
185870000.0 -0.7055116509103023 0.524341392153549
186870000.0 -0.7051314885414708 0.5265466566884729
187870000.0 -0.6953493647570109 0.5211348084684568
188870000.0 -0.676912518105014 0.5078709019481538
189870000.0 -0.6603282230148073 0.4947079912269948
190860000.0 -0.6544453600871605 0.4899440664290175
191860000.0 -0.6653910028994664 0.5006801566639241
192860000.0 -0.6767875834792512 0.5161342140599728
193860000.0 -0.685358900214016 0.5325774512980734
194860000.0 -0.6905677420031893 0.5471410333116209
195860000.0 -0.694293187550761 0.5588248423655532
196860000.0 -0.6977547375742212 0.5676567848366759
197860000.0 -0.7011982340379751 0.5749466814662871
198860000.0 -0.7048445719190066 0.5820628382464905
199860000.0 -0.7094065083362591 0.5914748683991117
200860000.0 -0.712310684113227 0.6013101683694101
201860000.0 -0.7141131126781706 0.6125014874528304
202860000.0 -0.7127238918544834 0.6224061531904971
203850000.0 -0.7085657278674686 0.6304222321759281
204850000.0 -0.7032907835587111 0.637928845066071
205850000.0 -0.6977125386548835 0.6456366525578138
206850000.0 -0.6921653883431413 0.6531766040497687
207850000.0 -0.6873291968293862 0.6614316652671858
208850000.0 -0.6815825692329832 0.6704911951606939
209850000.0 -0.6772136306782702 0.6795816876408065
210850000.0 -0.6735140116280636 0.6894528721534262
211850000.0 -0.6691720616212598 0.698293939607888
212850000.0 -0.6655935472359036 0.706310715196059
213850000.0 -0.6611589323970073 0.7119899875683455
214850000.0 -0.6574288034376391 0.7169550402754324
215840000.0 -0.6539151707668049 0.7216740349644828
216840000.0 -0.5413345725515974 0.8095525578128182
217840000.0 -0.5400058359229287 0.8090926143124606
218840000.0 -0.5388201543089043 0.8085380124622787
219840000.0 -0.5386229602405752 0.8073257726745264
220840000.0 -0.5371870151375181 0.8042610179010268
221840000.0 -0.5366515510531359 0.801943257481534
222840000.0 -0.5354984303475144 0.7987112150418141
223840000.0 -0.5335929522618374 0.79466914588305
224840000.0 -0.5314766986948603 0.7921147589690931
225840000.0 -0.5076121457418389 0.7576896994139733
226840000.0 -0.506103066307249 0.7574367655381027
227840000.0 -0.5049126635279363 0.758230815598751
228830000.0 -0.5026120075161977 0.7585007143126972
229830000.0 -0.5008897317317622 0.7596391514120487
230830000.0 -0.49947399663102876 0.761824451040953
231830000.0 -0.49805090783867767 0.7640085498891619
232830000.0 -0.49732641684909346 0.7669872576094662
233830000.0 -0.4959208472754429 0.7704041145768916
234830000.0 -0.49355491507579613 0.77442772649796
235830000.0 -0.4905062523440167 0.780117998412895
236830000.0 -0.4870007033263544 0.7860642644493637
237830000.0 -0.4838581576605659 0.7917544034926004
238830000.0 -0.4812265233257264 0.7971090947957191
239830000.0 -0.47434849774177956 0.8049626519772384
240820000.0 -0.47135223710276813 0.8092143657411494
241820000.0 -0.46898017176216583 0.8155815154383803
242820000.0 -0.4653079786682113 0.821425238911886
243820000.0 -0.461249454150104 0.8287017090463048
244820000.0 -0.4560084127352432 0.8353376134311709
245820000.0 -0.4499598784734189 0.8423460969934484
246820000.0 -0.44316808938554036 0.8484235585321577
247820000.0 -0.4366028214073636 0.8542994487252704
248820000.0 -0.4301203718480782 0.8600550212977619
249820000.0 -0.42417720018510296 0.8654710218274575
250820000.0 -0.419240571341047 0.8703399589462865
251820000.0 -0.4158068312874172 0.8756871528230589
252810000.0 -0.4124711257148332 0.8797320312103348
253810000.0 -0.4094164269191368 0.8836269872913934
254810000.0 -0.405559988709066 0.8866374057158788
255810000.0 -0.4002914666797901 0.8890284221326245
256810000.0 -0.394554339861833 0.890362474611936
257810000.0 -0.3880577106763653 0.8907705032557722
258810000.0 -0.3820401393022024 0.8909369464370595
259810000.0 -0.37696846942223605 0.8906741532171059
260810000.0 -0.37284196394203734 0.8899981715664785
261810000.0 -0.3701239160147415 0.8887283669227971
262810000.0 -0.36783802421506634 0.888478115588549
263810000.0 -0.36555529116068114 0.8882233707008574
264800000.0 -0.3632286777326775 0.889177347230199
265800000.0 -0.35913933842230905 0.888454575136606
266800000.0 -0.3545972177566758 0.8879043048828374
267800000.0 -0.34966508446301586 0.8863153270059464
268800000.0 -0.34506543429250425 0.8845908566464399
269800000.0 -0.34226846452571663 0.883335209697857
270800000.0 -0.3420286286170196 0.8822591358302586
271800000.0 -0.34449102409509536 0.8813005729417781
272800000.0 -0.34894725545953464 0.8795456659303439
273800000.0 -0.3548750094374241 0.8783464704645524
274800000.0 -0.36008094350156905 0.8762251472240273
275800000.0 -0.36512163771928835 0.8741367079410024
276800000.0 -0.36777987593520245 0.8706569052103028
277790000.0 -0.3696894529720944 0.8663057891986838
278790000.0 -0.37009684221329503 0.8614237309330592
279790000.0 -0.3706179087687214 0.8576792722737395
280790000.0 -0.3710000476948792 0.8528346166673176
281790000.0 -0.37252141101733327 0.8498361904027479
282790000.0 -0.37518940744018325 0.8486616880296204
283790000.0 -0.3782889715584155 0.8484550676165749
284790000.0 -0.3822753829268462 0.8490155518989918
285790000.0 -0.3862730160980666 0.8495626798480401
286790000.0 -0.39043021166193265 0.8500282495594218
287790000.0 -0.3945987516108679 0.8504788898367959
288790000.0 -0.3984815550652042 0.8510536708641703
289780000.0 -0.4011698383227913 0.850986704156358
290780000.0 -0.40326688617873135 0.8511943553323594
291780000.0 -0.4040095397355605 0.8508421145198569
292780000.0 -0.4041775740693777 0.8519633832961021
293780000.0 -0.40328517864861063 0.852386169843403
294780000.0 -0.4021106530640317 0.854141651499424
295780000.0 -0.3998731399931462 0.8551914464292585
296780000.0 -0.3982405489931786 0.8571522320281892
297780000.0 -0.3966012855828603 0.8591112767410379
298780000.0 -0.3957112091299545 0.8619223981884591
299780000.0 -0.39481318162857854 0.8647381252926348
300780000.0 -0.3937563962619531 0.8664228190098642
301770000.0 -0.39345117094052545 0.8689703382266745
302770000.0 -0.39298956159571535 0.8715919033280757
303770000.0 -0.39298044732293513 0.8740131374901905
304770000.0 -0.3925166090080487 0.8754314841299654
305770000.0 -0.39144677500987574 0.8759103801688498
306770000.0 -0.3900704158399091 0.8765241824614148
307770000.0 -0.3880806432143079 0.8774069672139265
308770000.0 -0.38608887273706477 0.8782852350471309
309770000.0 -0.38363473546574595 0.8793599726490275
310770000.0 -0.38104596259504103 0.8792818495076533
311770000.0 -0.37904995625584403 0.880144151344553
312770000.0 -0.37705199855527244 0.8810019221710333
313760000.0 -0.37551378662720725 0.8816586598772095
314760000.0 -0.37397443081902504 0.8823127118982063
315760000.0 -0.3730172413017106 0.8839161212721673
316760000.0 -0.3717826983644148 0.8844360898052758
317760000.0 -0.37039297130615223 0.8850189933330082
318760000.0 -0.3690023303400532 0.8855997131643515
319760000.0 -0.3676107788973853 0.8861782478664374
320760000.0 -0.3660635469610495 0.8868184996601429
321760000.0 -0.3648249583186406 0.887328756178325
322760000.0 -0.3632757226105593 0.8879641440480281
323760000.0 -0.3620355370648435 0.8884705069136182
324760000.0 -0.3606394847866886 0.8890380946652191
325750000.0 -0.3592425426664548 0.8896034888036983
326750000.0 -0.35753396556420186 0.8902915450688653
327750000.0 -0.3559795699214417 0.8909142032495142
328750000.0 -0.35411286419137095 0.8916578105794593
329750000.0 -0.35255608917729364 0.8922744957338988
330750000.0 -0.3506865419679194 0.8930109299643281
331750000.0 -0.3490611037055663 0.8948339360097017
332750000.0 -0.3510262524656865 0.8952534523910638
333750000.0 -0.3489940850113715 0.8960476006135489
334750000.0 -0.3470463665578695 0.8979914492011214
335750000.0 -0.3450913162615547 0.8999324253635959
336750000.0 -0.343286334100983 0.9018106055527062
337740000.0 -0.3410014675870428 0.9038652000716003
338740000.0 -0.33854975874256515 0.905974467081111
339740000.0 -0.33640556236249036 0.9079610699459845
340740000.0 -0.3342533503084227 0.909943958918478
341740000.0 -0.3317110074289509 0.9108738211822253
342740000.0 -0.32970457931148417 0.9127893989874546
343740000.0 -0.32785046662922823 0.9146447112496308
344740000.0 -0.32598968503215703 0.9164976195377859
345740000.0 -0.32481652060139954 0.9192926746149357
346740000.0 -0.3232624029707863 0.9210307176469225
347740000.0 -0.3218639025492877 0.9227113385329014
348740000.0 -0.3254572862218514 0.9226438240946244
349730000.0 -0.32368533853254466 0.9232669564724584
350730000.0 -0.32212158701538257 0.9250071971042304
351730000.0 -0.32523894641248335 0.925111834385531
352730000.0 -0.323349558821641 0.9269703805590666
353730000.0 -0.32064277759969817 0.9291066075337985
354730000.0 -0.3176007188891546 0.9313472175415253
355730000.0 -0.3139303581447244 0.9349839324887301
356730000.0 -0.3092228390720601 0.9377477664668692
357730000.0 -0.30594444241677077 0.9472222247429897
358730000.0 -0.3058414810326491 0.9508738361645614
359730000.0 -0.2993852739528644 0.9553395709474554
360730000.0 -0.29237952873777917 0.9611280337456393
361730000.0 -0.28478494473631183 0.9682401165545935
362720000.0 -0.2764085757225304 0.9755073538387683
363720000.0 -0.26737128484302275 0.9840898139247508
364720000.0 -0.2576190468649375 0.993991611173686
365720000.0 -0.2465231930150409 1.0029069929639172
366720000.0 -0.23622956369737497 1.012733698725033
367720000.0 -0.2252558825977901 1.0288025090450994
368720000.0 -0.2127574191335985 1.0401594766088134
369720000.0 -0.19945061084238752 1.051538109285695
370720000.0 -0.18587334317150675 1.0628156612078778
371720000.0 -0.1720249138846076 1.0739874229841606
372720000.0 -0.157904683078062 1.0850486374718094
373720000.0 -0.1446843069241593 1.0945574677716754
374710000.0 -0.13278938898263135 1.1037728079718805
375710000.0 -0.1228407449514854 1.1126775482237339
376710000.0 -0.11423422619201183 1.1187881341154202
377710000.0 -0.10737730431904563 1.123375803341801
378710000.0 -0.10200356252438128 1.1251817995522673
379710000.0 -0.097289530932517 1.12559919864145
380710000.0 -0.09512835763362594 1.125783906611421
381710000.0 -0.09177265126057069 1.1234553331971626
382710000.0 -0.08872030192806109 1.1198018765015818
383710000.0 -0.08656166204465572 1.114794200236881
384710000.0 -0.08471058021558142 1.1084996847288906
385710000.0 -0.08403198727707753 1.1021516616505809
386700000.0 -0.08374090622229788 1.095810793764986
387700000.0 -0.08421099415655194 1.089447847731794
388700000.0 -0.08505093819119343 1.0830913966810591
389700000.0 -0.08594595157365698 1.0705449786109835
390700000.0 -0.08786745342564865 1.0642035041239342
391700000.0 -0.09005186770449597 1.0590970568346085
392700000.0 -0.09229146112586903 1.0527799076653266
393700000.0 -0.09241610934113206 1.0478945780525415
394700000.0 -0.0941759140490595 1.0428849856797293
395700000.0 -0.09584632088654295 1.0391071052138692
396700000.0 -0.09666955148214208 1.0342155094785954
397700000.0 -0.09723561728174339 1.030565155615813
398690000.0 -0.09678886020176712 1.0258301388336997
399690000.0 -0.09567306858575139 1.0235546752182048
400690000.0 -0.09349228758512305 1.0213819393279497
401690000.0 -0.09060912298205014 1.019273532906316
402690000.0 -0.08700494230180311 1.0148687382282855
403690000.0 -0.082930308013715 1.0152098205941287
404690000.0 -0.07867709195209087 1.0155482908360265
405690000.0 -0.07442249542711077 1.0158689423308571
406690000.0 -0.07042498055133288 1.0173300781670636
407690000.0 -0.0655279451762842 1.018834391741012
408690000.0 -0.0620425382559411 1.0202308281303598
409690000.0 -0.05879421271711736 1.0227832953286324
410680000.0 -0.0558235314812499 1.0241316356583194
411680000.0 -0.05296340249415507 1.0242835309715104
412680000.0 -0.04992406340807247 1.0244361677118052
413680000.0 -0.04348639802454382 1.024729626296651
