!Created with skrf (http://scikit-rf.org).
# Hz S RI R 50.0 
!freq ReS11 ImS11 ReS21 ImS21 ReS12 ImS12 ReS22 ImS22
25000000.0 0.057189731545652094 0.04983707434338233 0.5689666311822452 -0.8619008607904882 0.057189731545652094 0.04983707434338233 0.5689666311822452 -0.8619008607904882
26000000.0 0.053768566235687945 0.04555068055980944 0.5368087739467152 -0.8725702085598308 0.053768566235687945 0.04555068055980944 0.5368087739467152 -0.8725702085598308
27000000.0 0.055786889106524656 0.04358549460645187 0.5213287026188648 -0.8832769993886144 0.055786889106524656 0.04358549460645187 0.5213287026188648 -0.8832769993886144
28000000.0 0.05984353468101689 0.03767089999789905 0.4996440756726725 -0.9024958813587556 0.05984353468101689 0.03767089999789905 0.4996440756726725 -0.9024958813587556
29000000.0 0.0636647911915255 0.03730711582210109 0.4778893097731786 -0.9330742987763814 0.0636647911915255 0.03730711582210109 0.4778893097731786 -0.9330742987763814
30000000.0 0.06093103255786685 0.036524269288617614 0.45088219761850823 -0.9331102058234864 0.06093103255786685 0.036524269288617614 0.45088219761850823 -0.9331102058234864
31000000.0 0.06213276063890112 0.03393217340020741 0.41840157758593255 -0.9455130877445647 0.06213276063890112 0.03393217340020741 0.41840157758593255 -0.9455130877445647
31990000.0 0.06329667312245385 0.03225126582422022 0.38771471308334127 -0.9572217206525143 0.06329667312245385 0.03225126582422022 0.38771471308334127 -0.9572217206525143
32990000.000000004 0.06670125339710865 0.029530075989110574 0.35682577965211687 -0.9729669960059815 0.06670125339710865 0.029530075989110574 0.35682577965211687 -0.9729669960059815
33990000.0 0.0722667636273056 0.023063266208555856 0.3230846425089957 -1.0074989812610164 0.0722667636273056 0.023063266208555856 0.3230846425089957 -1.0074989812610164
34990000.0 0.07306857411142172 0.027756147542110268 0.2888262644195975 -1.0254707234503264 0.07306857411142172 0.027756147542110268 0.2888262644195975 -1.0254707234503264
35990000.0 0.07281769261342876 0.026633081257882687 0.26320220557214113 -1.031079513043256 0.07281769261342876 0.026633081257882687 0.26320220557214113 -1.031079513043256
36990000.0 0.07379701847953131 0.023197327736937976 0.21910436674462302 -1.0116879863431434 0.07379701847953131 0.023197327736937976 0.21910436674462302 -1.0116879863431434
37990000.0 0.07507824901664589 0.020412380364221275 0.17364898252320063 -1.0001160689191395 0.07507824901664589 0.020412380364221275 0.17364898252320063 -1.0001160689191395
38990000.0 0.0761179789251244 0.02139579893603367 0.12928857293325685 -1.0009374870405239 0.0761179789251244 0.02139579893603367 0.12928857293325685 -1.0009374870405239
39990000.0 0.07610097059097529 0.02431619084102206 0.08653429447501697 -1.0032064601149608 0.07610097059097529 0.02431619084102206 0.08653429447501697 -1.0032064601149608
40990000.0 0.077046795917259 0.022151036365245663 0.04635568291375907 -0.9977731277620943 0.077046795917259 0.022151036365245663 0.04635568291375907 -0.9977731277620943
41990000.0 0.07960334944224992 0.017341783691250945 0.004696123659930454 -0.9965410151335993 0.07960334944224992 0.017341783691250945 0.004696123659930454 -0.9965410151335993
42990000.0 0.07575354892668838 0.02761696450449853 -0.04796918978312855 -1.0023126386928154 0.07575354892668838 0.02761696450449853 -0.04796918978312855 -1.0023126386928154
43980000.0 0.07461655973894903 0.03270779290540621 -0.07368908297465841 -0.9869447322211374 0.07461655973894903 0.03270779290540621 -0.07368908297465841 -0.9869447322211374
44980000.0 0.0753463781026184 0.032683383909816933 -0.060968328118035695 -0.9855315827937117 0.0753463781026184 0.032683383909816933 -0.060968328118035695 -0.9855315827937117
45980000.0 0.07586078393556805 0.03021935063526807 -0.08115738403329867 -0.9829347398448367 0.07586078393556805 0.03021935063526807 -0.08115738403329867 -0.9829347398448367
46980000.0 0.0768315124485118 0.026530231339928673 -0.11139309402973865 -0.9822569926237698 0.0768315124485118 0.026530231339928673 -0.11139309402973865 -0.9822569926237698
47980000.0 0.07804977834027994 0.024638956861004344 -0.14679422319811505 -0.9810517630567694 0.07804977834027994 0.024638956861004344 -0.14679422319811505 -0.9810517630567694
48980000.0 0.07644797198157306 0.024441772338690902 -0.17879214993541398 -0.9722502702891284 0.07644797198157306 0.024441772338690902 -0.17879214993541398 -0.9722502702891284
49980000.0 0.07405173716947844 0.023575973276755282 -0.2134699511050898 -0.9629007237260525 0.07405173716947844 0.023575973276755282 -0.2134699511050898 -0.9629007237260525
50980000.0 0.0742684324120633 0.02195701959761121 -0.2502762550599353 -0.9539963416754487 0.0742684324120633 0.02195701959761121 -0.2502762550599353 -0.9539963416754487
51980000.0 0.07778762580445645 0.021572417859718206 -0.28081939583034987 -0.9360197930315967 0.07778762580445645 0.021572417859718206 -0.28081939583034987 -0.9360197930315967
52980000.0 0.07773515085382687 0.0199734568085886 -0.3110712080054099 -0.9216679797605253 0.07773515085382687 0.0199734568085886 -0.3110712080054099 -0.9216679797605253
53980000.0 0.08074090264019014 0.022619236054422145 -0.3461461379143047 -0.9150830139948264 0.08074090264019014 0.022619236054422145 -0.3461461379143047 -0.9150830139948264
54980000.0 0.08363184426112595 0.026401117937482732 -0.39875322132631164 -0.9058067420209394 0.08363184426112595 0.026401117937482732 -0.39875322132631164 -0.9058067420209394
55970000.0 0.08575207064013943 0.027498962879842263 -0.43501379951776237 -0.8978688164652155 0.08575207064013943 0.027498962879842263 -0.43501379951776237 -0.8978688164652155
56970000.0 0.08617442388872086 0.029537710517087843 -0.46241385055170636 -0.8905644837235249 0.08617442388872086 0.029537710517087843 -0.46241385055170636 -0.8905644837235249
57970000.0 0.0859135913288411 0.030913858885251225 -0.48715076241870764 -0.8759565770934464 0.0859135913288411 0.030913858885251225 -0.48715076241870764 -0.8759565770934464
58970000.0 0.08588161551260651 0.030378541638614774 -0.5157611910785282 -0.8621155838134132 0.08588161551260651 0.030378541638614774 -0.5157611910785282 -0.8621155838134132
59970000.0 0.08549866018054432 0.027945269709122936 -0.542768152575125 -0.8467480066761801 0.08549866018054432 0.027945269709122936 -0.542768152575125 -0.8467480066761801
60970000.0 0.08545586876239555 0.02382755528826262 -0.571924501376211 -0.8287422702277542 0.08545586876239555 0.02382755528826262 -0.571924501376211 -0.8287422702277542
61970000.0 0.08317717092198117 0.021062507266773597 -0.5968807838631984 -0.8066380840914084 0.08317717092198117 0.021062507266773597 -0.5968807838631984 -0.8066380840914084
62970000.0 0.08516808060248884 0.02049421723575112 -0.6202271423515919 -0.7947118878946469 0.08516808060248884 0.02049421723575112 -0.6202271423515919 -0.7947118878946469
63970000.0 0.0910162747267306 0.02294616449318797 -0.6334094374964854 -0.78275402919887 0.0910162747267306 0.02294616449318797 -0.6334094374964854 -0.78275402919887
64970000.0 0.08808096103223738 0.02560655619347176 -0.634040181134243 -0.7628919677571591 0.08808096103223738 0.02560655619347176 -0.634040181134243 -0.7628919677571591
65970000.0 0.08456972071906642 0.028773411514432506 -0.6356064900363283 -0.7526714801752411 0.08456972071906642 0.028773411514432506 -0.6356064900363283 -0.7526714801752411
66970000.0 0.08534570883199578 0.027746970932965933 -0.6413677932354984 -0.7477682268228013 0.08534570883199578 0.027746970932965933 -0.6413677932354984 -0.7477682268228013
67960000.0 0.08878276760768429 0.02039921202066766 -0.6571642457396482 -0.7308803138074337 0.08878276760768429 0.02039921202066766 -0.6571642457396482 -0.7308803138074337
68960000.0 0.09173826646713544 0.01072807558608475 -0.6842806497030349 -0.6992525035613649 0.09173826646713544 0.01072807558608475 -0.6842806497030349 -0.6992525035613649
69960000.0 0.09304417658572223 0.005690825629727114 -0.7144403812973359 -0.6618107016909098 0.09304417658572223 0.005690825629727114 -0.7144403812973359 -0.6618107016909098
70960000.0 0.09339196879897561 0.005270475891751054 -0.7320542062647343 -0.6354682916202411 0.09339196879897561 0.005270475891751054 -0.7320542062647343 -0.6354682916202411
71960000.0 0.09322098601485332 0.00628978936846334 -0.7510431311430948 -0.6040700306609429 0.09322098601485332 0.00628978936846334 -0.7510431311430948 -0.6040700306609429
72960000.0 0.09164988526599357 0.014499519046376046 -0.7864270195655703 -0.5475994333276788 0.09164988526599357 0.014499519046376046 -0.7864270195655703 -0.5475994333276788
73960000.0 0.08936671824770358 0.022912224939087282 -0.8096868556304893 -0.5022227852232483 0.08936671824770358 0.022912224939087282 -0.8096868556304893 -0.5022227852232483
74960000.0 0.09188458379912569 0.020707085271497228 -0.8100655068076621 -0.48481420442700623 0.09188458379912569 0.020707085271497228 -0.8100655068076621 -0.48481420442700623
75960000.0 0.09570567410611272 0.019193373443224318 -0.8219332253759574 -0.473205404188404 0.09570567410611272 0.019193373443224318 -0.8219332253759574 -0.473205404188404
76960000.0 0.09631846686138283 0.018408577492824794 -0.8504259996391534 -0.4582902136580461 0.09631846686138283 0.018408577492824794 -0.8504259996391534 -0.4582902136580461
77960000.0 0.09581319466233242 0.018052137412528604 -0.8870922054134354 -0.43881363299631687 0.09581319466233242 0.018052137412528604 -0.8870922054134354 -0.43881363299631687
78960000.0 0.09595503705223564 0.01728232625739102 -0.9120932975894784 -0.4127845134816118 0.09595503705223564 0.01728232625739102 -0.9120932975894784 -0.4127845134816118
79960000.0 0.09763176718727525 0.016215359693101956 -0.9320787163883536 -0.3900881312774321 0.09763176718727525 0.016215359693101956 -0.9320787163883536 -0.3900881312774321
80950000.0 0.09799224669831018 0.015415273096148903 -0.95423133486719 -0.3728069047240178 0.09799224669831018 0.015415273096148903 -0.95423133486719 -0.3728069047240178
81950000.0 0.09091925785098497 0.014351400392716727 -0.9700371870810132 -0.3509570827099398 0.09091925785098497 0.014351400392716727 -0.9700371870810132 -0.3509570827099398
82950000.0 0.08765035131172795 0.014353295479304102 -0.9620792067021592 -0.3163155485946774 0.08765035131172795 0.014353295479304102 -0.9620792067021592 -0.3163155485946774
83950000.0 0.08538373910774658 0.014441578490761562 -0.9615747984753222 -0.28282449896629946 0.08538373910774658 0.014441578490761562 -0.9615747984753222 -0.28282449896629946
84950000.0 0.08291922910505595 0.014277930118354777 -0.9622856851457864 -0.2501186814703041 0.08291922910505595 0.014277930118354777 -0.9622856851457864 -0.2501186814703041
85950000.0 0.08121611241060421 0.013999264662115114 -0.9636354699257709 -0.21539804738744928 0.08121611241060421 0.013999264662115114 -0.9636354699257709 -0.21539804738744928
86950000.0 0.0805325025108723 0.014069655824592743 -0.9654331500056652 -0.17823539629969493 0.0805325025108723 0.014069655824592743 -0.9654331500056652 -0.17823539629969493
87950000.0 0.08082656430771136 0.014572123359024037 -0.9675599316952642 -0.13718733396087088 0.08082656430771136 0.014572123359024037 -0.9675599316952642 -0.13718733396087088
88950000.0 0.08177260206589995 0.015732120376404087 -0.9671710081215813 -0.09295761042005869 0.08177260206589995 0.015732120376404087 -0.9671710081215813 -0.09295761042005869
89950000.0 0.08258126317929596 0.017101757460715697 -0.9670969666148792 -0.047806527694234414 0.08258126317929596 0.017101757460715697 -0.9670969666148792 -0.047806527694234414
90950000.0 0.0830444989611305 0.018653975261179595 -0.9659290366038931 -0.015342654348775927 0.0830444989611305 0.018653975261179595 -0.9659290366038931 -0.015342654348775927
91950000.0 0.08332529499158356 0.02005078293076684 -0.9657500121874166 -0.024108395985543565 0.08332529499158356 0.02005078293076684 -0.9657500121874166 -0.024108395985543565
92940000.0 0.08372775394918627 0.021310814220136906 -0.964615602362953 -0.07015991608824422 0.08372775394918627 0.021310814220136906 -0.964615602362953 -0.07015991608824422
93940000.0 0.08367186388687876 0.024895969431812767 -0.9656855763057347 0.10729512570934596 0.08367186388687876 0.024895969431812767 -0.9656855763057347 0.10729512570934596
94940000.0 0.08329784323867896 0.027757953858826935 -0.9655011055854402 0.13569233128505942 0.08329784323867896 0.027757953858826935 -0.9655011055854402 0.13569233128505942
95940000.0 0.08197488696411179 0.03145079645836326 -0.9641984759815843 0.15910337814209385 0.08197488696411179 0.03145079645836326 -0.9641984759815843 0.15910337814209385
96940000.0 0.08173946939562148 0.030935691016997936 -0.9767056225026857 0.08751231544934637 0.08173946939562148 0.030935691016997936 -0.9767056225026857 0.08751231544934637
97940000.0 0.07694658003405869 0.0390710066433166 -0.9730140173843075 0.12188519334732627 0.07694658003405869 0.0390710066433166 -0.9730140173843075 0.12188519334732627
98940000.0 0.07218523629631585 0.046199895480576535 -0.9691532673985611 0.14951328594595767 0.07218523629631585 0.046199895480576535 -0.9691532673985611 0.14951328594595767
99940000.0 0.06837123000582937 0.05118544724856533 -0.9626881358734612 0.17442942510747642 0.06837123000582937 0.05118544724856533 -0.9626881358734612 0.17442942510747642
100940000.0 0.06812666346939342 0.05167348023272856 -0.9518738523134059 0.20580241150903333 0.06812666346939342 0.05167348023272856 -0.9518738523134059 0.20580241150903333
101940000.0 0.07167323432996843 0.047170101289151306 -0.9414389400806638 0.24031978359202893 0.07167323432996843 0.047170101289151306 -0.9414389400806638 0.24031978359202893
102940000.0 0.07482639117171619 0.040357269732218225 -0.9331336782356805 0.27871132349304834 0.07482639117171619 0.040357269732218225 -0.9331336782356805 0.27871132349304834
103940000.0 0.07509234609618062 0.04048379432735609 -0.9261852790193956 0.3221693767437072 0.07509234609618062 0.04048379432735609 -0.9261852790193956 0.3221693767437072
104930000.0 0.06703454920358987 0.05403213512420795 -0.9221407440970883 0.36249743598548767 0.06703454920358987 0.05403213512420795 -0.9221407440970883 0.36249743598548767
105930000.0 0.051266865269795354 0.06199302124347934 -0.9295486756313042 0.38408165003288963 0.051266865269795354 0.06199302124347934 -0.9295486756313042 0.38408165003288963
106930000.0 0.04710181843188272 0.06407446616377034 -0.9172516208791488 0.39541058131659523 0.04710181843188272 0.06407446616377034 -0.9172516208791488 0.39541058131659523
107930000.0 0.05125279240593315 0.05829877469842657 -0.9025435493476305 0.4143605038637153 0.05125279240593315 0.05829877469842657 -0.9025435493476305 0.4143605038637153
108930000.0 0.05822083134784052 0.04944477565834188 -0.8887266354994386 0.4380786577474785 0.05822083134784052 0.04944477565834188 -0.8887266354994386 0.4380786577474785
109930000.0 0.06263518125436987 0.042327537560681514 -0.8701537630759132 0.4618900257099269 0.06263518125436987 0.042327537560681514 -0.8701537630759132 0.4618900257099269
110930000.0 0.064770735401637 0.03847333998519753 -0.8501374381020176 0.4864842935319408 0.064770735401637 0.03847333998519753 -0.8501374381020176 0.4864842935319408
111930000.0 0.06579411851638925 0.03669577663351459 -0.8291741398147645 0.5129084124078362 0.06579411851638925 0.03669577663351459 -0.8291741398147645 0.5129084124078362
112930000.0 0.06806628974533008 0.036757259839492545 -0.8045892273856737 0.5427022864313048 0.06806628974533008 0.036757259839492545 -0.8045892273856737 0.5427022864313048
113930000.0 0.07849376416193231 0.04112280795120474 -0.7748769582158261 0.56194856503793 0.07849376416193231 0.04112280795120474 -0.7748769582158261 0.56194856503793
114930000.0 0.08422091422125638 0.04265380392266596 -0.7446924449862343 0.5784758251114499 0.08422091422125638 0.04265380392266596 -0.7446924449862343 0.5784758251114499
115930000.0 0.08330291271858678 0.040629545255312344 -0.7250043596697971 0.6012692329545462 0.08330291271858678 0.040629545255312344 -0.7250043596697971 0.6012692329545462
116920000.0 0.08125430319010192 0.03785497899810763 -0.7071086290415026 0.6271386373588712 0.08125430319010192 0.03785497899810763 -0.7071086290415026 0.6271386373588712
117920000.0 0.08282522709578517 0.03691081489214677 -0.6889830886541294 0.6517667413106099 0.08282522709578517 0.03691081489214677 -0.6889830886541294 0.6517667413106099
118920000.0 0.08753601276387797 0.037066712919076164 -0.6706331268025891 0.6706331268025892 0.08753601276387797 0.037066712919076164 -0.6706331268025891 0.6706331268025892
119920000.0 0.0931200581936781 0.03769858913504386 -0.6553652975860372 0.6855610171603984 0.0931200581936781 0.03769858913504386 -0.6553652975860372 0.6855610171603984
120920000.0 0.09870974148474729 0.038088919263820964 -0.6412302371470661 0.6987999459776401 0.09870974148474729 0.038088919263820964 -0.6412302371470661 0.6987999459776401
121920000.0 0.10396878855965612 0.03790320564395579 -0.6280237284653186 0.7136075043094916 0.10396878855965612 0.03790320564395579 -0.6280237284653186 0.7136075043094916
122920000.0 0.10902698694266097 0.03724326376007118 -0.614878262830016 0.7307089442829146 0.10902698694266097 0.03724326376007118 -0.614878262830016 0.7307089442829146
123920000.0 0.11432203346326067 0.03538858089215414 -0.5981527814033406 0.7557642733547172 0.11432203346326067 0.03538858089215414 -0.5981527814033406 0.7557642733547172
124920000.0 0.12014472300368705 0.02959932687051544 -0.557804009972087 0.8037715830718974 0.12014472300368705 0.02959932687051544 -0.557804009972087 0.8037715830718974
125920000.0 0.12546620442735507 0.022665372357364443 -0.5065530375877856 0.856875699855793 0.12546620442735507 0.022665372357364443 -0.5065530375877856 0.856875699855793
126920000.0 0.1285103683381748 0.01872472919628058 -0.47000481392943033 0.8918207038154345 0.1285103683381748 0.01872472919628058 -0.47000481392943033 0.8918207038154345
127920000.0 0.1315441242530729 0.016594562786619027 -0.44425085456594826 0.9153050556490815 0.1315441242530729 0.016594562786619027 -0.44425085456594826 0.9153050556490815
128919999.99999999 0.13417552775716032 0.015358540760237264 -0.42060162152016234 0.935444359541407 0.13417552775716032 0.015358540760237264 -0.42060162152016234 0.935444359541407
129910000.0 0.13724657116763456 0.01476434496887331 -0.3976334938273507 0.9557232391358185 0.13724657116763456 0.01476434496887331 -0.3976334938273507 0.9557232391358185
130910000.0 0.1403362245749275 0.01457660666710128 -0.3758604009089506 0.9786392585938313 0.1403362245749275 0.01457660666710128 -0.3758604009089506 0.9786392585938313
131910000.0 0.14363600047618205 0.014615341192703133 -0.3559201494350864 1.0067624520150096 0.14363600047618205 0.014615341192703133 -0.3559201494350864 1.0067624520150096
132910000.0 0.14766538513885266 0.014973264918810283 -0.33828433467824703 1.0429900016436922 0.14766538513885266 0.014973264918810283 -0.33828433467824703 1.0429900016436922
133910000.0 0.15058395604303282 0.015269207907016547 -0.31811623258804184 1.0746311117117657 0.15058395604303282 0.015269207907016547 -0.31811623258804184 1.0746311117117657
134910000.0 0.1484993569718375 0.01524114404019007 -0.28886171958594486 1.0735484806949154 0.1484993569718375 0.01524114404019007 -0.28886171958594486 1.0735484806949154
135910000.0 0.14426006018297519 0.015060525677051574 -0.25579343603245913 1.0597508884260143 0.14426006018297519 0.015060525677051574 -0.25579343603245913 1.0597508884260143
136910000.0 0.14113354677269888 0.014783926203221286 -0.22289075244881631 1.0531367758405965 0.14113354677269888 0.014783926203221286 -0.22289075244881631 1.0531367758405965
137910000.0 0.13871210073431212 0.014579229269775356 -0.1879617550687753 1.0499036453193678 0.13871210073431212 0.014579229269775356 -0.1879617550687753 1.0499036453193678
138910000.0 0.13665898446401895 0.014291097096653278 -0.1521856968656402 1.0470326628795643 0.13665898446401895 0.014291097096653278 -0.1521856968656402 1.0470326628795643
