!Created with skrf (http://scikit-rf.org).
# Hz S RI R 50.0 
!freq ReS11 ImS11
25000000.0 0.0816572458995686 0.01946856136875176
26000000.0 0.07864092535707966 0.01941796904960152
27000000.0 0.0782130612548601 0.019210970423846126
28000000.0 0.0781639786540318 0.01607319663449736
29000000.0 0.08063101782921253 0.0183781238607074
30000000.0 0.07656316706532966 0.01974356545012275
31000000.0 0.07588828652013806 0.01795321647573522
31990000.0 0.07609733386087109 0.019368680850330132
32990000.000000004 0.07851769844561049 0.017925271721415115
33990000.0 0.08028896916917742 0.012673433229667208
34990000.0 0.07847018933307559 0.01933222471693292
35990000.0 0.07768462527642263 0.019038050070537216
36990000.0 0.07923043152767867 0.015932490276555737
37990000.0 0.07877956335562306 0.013282140618246115
38990000.0 0.07872793435688451 0.01303332501617447
39990000.0 0.07825682742384564 0.016078054094321552
40990000.0 0.0778255849323287 0.014958673673627309
41990000.0 0.07974221644389039 0.010611553802415954
42990000.0 0.07989456896106976 0.019831110070584027
43980000.0 0.07774985637434563 0.021708149952887616
44980000.0 0.0774218179447696 0.022185726078029114
45980000.0 0.07883067339956272 0.02019628600483504
46980000.0 0.07947530231770303 0.01748832063199124
47980000.0 0.07966232176741785 0.015181991443107553
48980000.0 0.07950908928930478 0.014477922739816006
49980000.0 0.07993671280224973 0.013663832548917178
50980000.0 0.08065569632186302 0.012140437094801147
51980000.0 0.079195112996888 0.010524682385498876
52980000.0 0.07997313056437991 0.008701985130904085
53980000.0 0.0830364103014794 0.010931950806881528
54980000.0 0.08409409854248316 0.01847390059885324
55970000.0 0.0862368078089025 0.020385517531599007
56970000.0 0.0875283245038303 0.021612440195248116
57970000.0 0.08666567980322439 0.022898060313073686
58970000.0 0.08528417373423061 0.023683457056175097
59970000.0 0.08482712277543682 0.023047019169471522
60970000.0 0.08471465697093153 0.020228757860759453
61970000.0 0.08449454644727995 0.019413926981693155
62970000.0 0.08513397413860835 0.02020327984460265
63970000.0 0.08506026509871176 0.022569210871496347
64970000.0 0.08239400149965473 0.025994539830040502
65970000.0 0.07920992275138874 0.028376856442537957
66970000.0 0.07918828845530643 0.026066418001082416
67960000.0 0.08109191820572824 0.018930368772984162
68960000.0 0.08315855892338776 0.01074138150443324
69960000.0 0.08405827454163765 0.006807467782954165
70960000.0 0.08438815422473073 0.0063303656033505675
71960000.0 0.08423143332768965 0.007073111077744331
72960000.0 0.08300289266631349 0.015983837767556876
73960000.0 0.08243610157592521 0.02118133040471364
74960000.0 0.08562597934920824 0.019422315802531488
75960000.0 0.08954106124908563 0.01839642717214324
76960000.0 0.09033539058722738 0.017657614472488425
77960000.0 0.09099060564291865 0.01706130525600415
78960000.0 0.09267965972698271 -0.01617518998958139
79960000.0 0.09578521575837445 -0.0149139380368845
80950000.0 0.09604665350068113 -0.013926101986862883
81950000.0 0.09081248766899662 -0.01292453093231184
82950000.0 0.0890234029139192 -0.012876052400088413
83950000.0 0.08716197242646302 -0.012855416329913702
84950000.0 0.0852869881485099 -0.012502840938080663
85950000.0 0.0844441809493234 -0.012123462754764782
86950000.0 0.08433641727666573 -0.012183115171730988
87950000.0 0.08499509878679792 -0.012444897890841492
88950000.0 0.0862811300255182 -0.013279936060604475
89950000.0 0.08725913376568302 -0.01483711569425669
90950000.0 0.0877394822850209 -0.016784818171081635
91950000.0 0.08790503136559855 -0.019069988264206045
92940000.0 0.0882029749495562 -0.021485259136858982
93940000.0 0.08828987796094379 -0.02408713911842747
94940000.0 0.08647157830687609 -0.03060420823301502
95940000.0 0.08475510387369269 -0.03424328473835473
96940000.0 0.08663056535719939 -0.02607284079727216
97940000.0 0.08188386071826652 -0.034403990031057034
98940000.0 0.0766214167757406 -0.04141176453098917
99940000.0 0.07282463353833737 -0.045558918460581084
100940000.0 0.0728409066124647 -0.04421834345863423
101940000.0 0.07654783983772116 -0.03698819071271655
102940000.0 0.08065614527135169 -0.02748901242893524
103940000.0 0.08039411019105631 -0.02794900082897777
104930000.0 0.0662731044120632 -0.054185984931315996
105930000.0 0.047693933714445434 -0.06756038158311702
106930000.0 0.04542503121844814 -0.06706727370209757
107930000.0 0.0506148630753851 -0.05991581062589992
108930000.0 0.05739632682036229 -0.049999486315350984
109930000.0 0.06195107073197059 -0.04133185169746798
110930000.0 0.06514870509152887 -0.03590469770175438
111930000.0 0.06793384800536079 -0.03316291093832402
112930000.0 0.07016743190397862 -0.03084517831522932
113930000.0 0.075203977242746 -0.03108901484270873
114930000.0 0.08111955166872013 -0.031431628772234974
115930000.0 0.08016411153229074 -0.028892469548136505
116920000.0 0.07816925452825738 -0.024257240994428456
117920000.0 0.0790691208833745 -0.020772898170848934
118920000.0 0.08228085479639409 -0.01804545963971544
119920000.0 0.08637387734880023 -0.016320513554770183
120920000.0 0.0903363090486412 -0.015295461178479013
121920000.0 0.0937402495613909 -0.015115455276891999
122920000.0 0.09657775530718381 -0.015642183120465402
123920000.0 0.09853075196385067 -0.0156762588315393
124920000.0 0.09928069841749648 -0.016097747181922646
125920000.0 0.09858208566464724 -0.01678011877217064
126920000.0 0.0978771538869067 -0.016818371006458905
127920000.0 0.09745072921837859 -0.016605046954596553
128919999.99999999 0.09709734485784798 -0.016649483295617332
129910000.0 0.09696230688668747 -0.01676572711886737
130910000.0 0.09704455989368312 -0.016954440937295652
131910000.0 0.09752947057838411 -0.01747803761581807
132910000.0 0.09811201767472957 -0.01811314885128556
133910000.0 0.09848129336999807 -0.018643839705284004
134910000.0 0.09623393997337637 -0.01884546579517819
135910000.0 0.093409709471566 -0.018783808938005225
136910000.0 0.09144539417952592 -0.018638019822715363
137910000.0 0.08991324330471791 -0.019193674219114495
138910000.0 0.08876516963935402 -0.019029603491053686
139910000.0 0.08789503429371752 -0.01911601261482219
140910000.0 0.08743435051145422 -0.019287689973580466
141900000.0 0.08698545421378204 -0.01941167438591644
142900000.0 0.08677572110542367 -0.019874293231167958
143900000.0 0.08667047052477597 -0.02032837533642713
144900000.0 0.08662611535950433 -0.020957062889743465
145900000.0 0.08647393315516122 -0.02157640451788767
146900000.0 0.08686992391489959 -0.022110575317610622
147900000.0 0.08666242305830485 -0.022089974643119837
148900000.0 0.08648613696729542 -0.02194861309166051
149900000.0 0.08622977385561956 -0.021707426858265856
150900000.0 0.08613433827495152 -0.021667416692392315
151900000.0 0.0861305552854529 -0.02168244964032161
152900000.0 0.08630502157461226 -0.021406296527049402
153890000.0 0.08648493232020396 -0.020667432389341312
154890000.0 0.08714503576780931 -0.019638981992634044
155890000.0 0.08796995465186004 -0.018265743374910038
156890000.0 0.08903637054357996 -0.016614456467923134
157890000.0 0.09020978777880723 -0.014772419274277183
158890000.0 0.0912586529729648 -0.012793084378800801
159890000.0 0.09226410521409466 -0.01082221634935155
160890000.0 0.09336867038001015 -0.009632243848094465
161890000.0 0.09464341195661055 -0.009997528804324753
162890000.0 0.09557119461551185 -0.01331260734951155
163890000.0 0.09575827024182826 -0.020057277812341068
164890000.0 0.09379095466149619 -0.03087317931245555
165890000.0 0.08887196315801892 -0.04483406755322791
166880000.0 0.0813303910755585 -0.058183910898947935
167880000.0 0.07335166896002637 -0.06830586038959362
168880000.0 0.06539087301076071 -0.07580953836866153
169880000.0 0.05657426876510717 -0.08203970135186228
170880000.0 0.047530551654391955 -0.08706869539071155
171880000.0 0.040586445208314635 -0.09001464793313553
172880000.0 0.03680849555556145 -0.09137961658592747
173880000.0 0.03640942763572694 -0.09153935356825314
174880000.0 0.04138979212931893 -0.09077961930415353
175880000.0 0.05325398319638183 -0.08765632898970677
176880000.0 0.07176393602042715 -0.07757944292569811
177880000.0 0.0874351447137391 -0.06236688261488161
178870000.0 0.08707085010888468 -0.06245160747558836
179870000.0 0.06327726979171186 -0.08449220356709966
180870000.0 0.034382910532895966 -0.09650512810110194
181870000.0 0.016086661128846335 -0.09582185604852841
182870000.0 0.006971489644512554 -0.0897831215244539
183870000.0 0.0025338538091181813 -0.08199601299890868
184870000.0 0.0004939213285843303 -0.07447155947944342
185870000.0 0.0004868933366577652 -0.06974120010290429
186870000.0 0.002928527559908923 -0.07016524613995316
187870000.0 0.0091921688913457 -0.0752987609754938
188870000.0 0.021122038063642434 -0.08522261553532806
189870000.0 0.04105822193324892 -0.09991155379779511
190860000.0 0.06270134191271143 -0.10568511372935516
191860000.0 0.07760148856335158 -0.0996835013686786
192860000.0 0.08394738953019153 -0.08799954359397759
193860000.0 0.08452448316304383 -0.07594606297995744
194860000.0 0.08192637534874289 -0.06521388643263595
195860000.0 0.07765543576345141 -0.05615121780713471
196860000.0 0.0731210054808447 -0.0489687301805496
197860000.0 0.06944046645129387 -0.04367823464690295
198860000.0 0.06735696060349268 -0.04018468097867916
199860000.0 0.06706395194130943 -0.03837680570151861
200860000.0 0.0680683508376847 -0.037684325146896354
201860000.0 0.06997325521119818 -0.03778706218946802
202860000.0 0.07229655883484605 -0.0381660419263747
203850000.0 0.07472061919349524 -0.03868186798982246
204850000.0 0.07700789217240042 -0.03916978589761015
205850000.0 0.07892517739969233 -0.03938504643675231
206850000.0 0.08009470399140933 -0.039324698304013854
207850000.0 0.08059996274063994 -0.03875549711044538
208850000.0 0.08049036716614427 -0.03803043647217323
209850000.0 0.08006675689419188 -0.037250712015731616
210850000.0 0.07937370903027018 -0.03634012128532497
211850000.0 0.07881086446113678 -0.03540247487096061
212850000.0 0.07824117677025025 -0.034492159869173554
213850000.0 0.07775468783338103 -0.03364745804138975
214850000.0 0.07730700522057186 -0.032719377034074786
215840000.0 0.07701652890966404 -0.03191704012897897
216840000.0 0.08139197476456335 -0.015173289308890696
217840000.0 0.0809222179287092 -0.014574786427880028
218840000.0 0.08049289866661961 -0.01429448984509262
219840000.0 0.08006276313722883 -0.01456430553955853
220840000.0 0.079654113122759 -0.014719881985116945
221840000.0 0.07939819560344205 -0.015074218433878335
222840000.0 0.07900401339013204 -0.01564321590128531
223840000.0 0.0785275842415206 -0.0161336817360787
224840000.0 0.07823849695377304 -0.016615834292653824
225840000.0 0.09755110397292333 -0.021465850830783024
226840000.0 0.09673221612473236 -0.02197702029869846
227840000.0 0.09571836273205193 -0.022327199237554902
228830000.0 0.0947078648606719 -0.022684906139141866
229830000.0 0.09380846304206522 -0.023076292372376253
230830000.0 0.09280701586974582 -0.02343208711516648
231830000.0 0.09205745292758967 -0.023704853884966827
232830000.0 0.09128242592956576 -0.02408377249831925
233830000.0 0.09061050417557709 -0.024499495160673557
234830000.0 0.08993557798879459 -0.02492444004149843
235830000.0 0.08946765430493454 -0.0254011421186069
236830000.0 0.08888242032503646 -0.025890033014023782
237830000.0 0.08851855341009762 -0.026371705336583593
238830000.0 0.08799480055986077 -0.027003503769627568
239830000.0 0.08748697362206616 -0.027567750414276625
240820000.0 0.08693733549319664 -0.028247652639747715
241820000.0 0.08636337195267468 -0.028980608346068075
242820000.0 0.0857428419154072 -0.029825261279652075
243820000.0 0.08524538002011568 -0.030606218788413707
244820000.0 0.08472489319613344 -0.03142477026948178
245820000.0 0.08426441006675724 -0.03205954394158437
246820000.0 0.083884988858765 -0.03246948776849878
247820000.0 0.08353847310065692 -0.03278883840579718
248820000.0 0.08334480957361762 -0.032998544498107685
249820000.0 0.08317391113692962 -0.03314937616400833
250820000.0 0.08297960018407491 -0.0333575853946499
251820000.0 0.08287439492366312 -0.03361810845522105
252810000.0 0.08281627893149308 -0.0340329924899049
253810000.0 0.08281538229256169 -0.03457451182196967
254810000.0 0.08311026294948354 -0.03520975763444135
255810000.0 0.08330753000894198 -0.035808964565872944
256810000.0 0.0834761442060397 -0.03620987414526331
257810000.0 0.08379783502293829 -0.03652332169697728
258810000.0 0.08411332870551325 -0.036590973620965986
259810000.0 0.08453200216168591 -0.036422723016582524
260810000.0 0.08491055942755203 -0.036077379058406155
261810000.0 0.08543634255027364 -0.035651224718598315
262810000.0 0.08577604641571746 -0.035389368221751184
263810000.0 0.08632013711479752 -0.03519145096959735
264800000.0 0.08700480514418357 -0.03522289897073757
265800000.0 0.0878655822843109 -0.035410837251418914
266800000.0 0.08867589661097317 -0.03544987664011109
267800000.0 0.08974256526126151 -0.035459141769176084
268800000.0 0.0908328413880808 -0.03512235126492419
269800000.0 0.0917977327822853 -0.034486215215195494
270800000.0 0.09247267001099416 -0.0336390229294828
271800000.0 0.092965048988258 -0.032938911706072514
272800000.0 0.0929994915558439 -0.03284154089144067
273800000.0 0.09266704525598891 -0.03343528668905651
274800000.0 0.09240614762020723 -0.034475732331048746
275800000.0 0.09197806126734984 -0.035602085378096754
276800000.0 0.09150416438460716 -0.036802990884497955
277790000.0 0.09123849410445926 -0.03775491452413077
278790000.0 0.09071659916112415 -0.0384135172705498
279790000.0 0.0899609032660413 -0.03874328585338751
280790000.0 0.08890593148833187 -0.038638949931881134
281790000.0 0.08773375008349336 -0.03827524000587235
282790000.0 0.08683598875010431 -0.037865538459121995
283790000.0 0.08621746558595746 -0.037381113307656734
284790000.0 0.08588614415743524 -0.03705951961429905
285790000.0 0.08590318939493374 -0.036747186772040884
286790000.0 0.08621650243518228 -0.036561221523364856
287790000.0 0.08672305836242167 -0.03647282888091297
288790000.0 0.08726846814884383 -0.03657679759697625
289780000.0 0.0879119047197438 -0.03673829487508287
290780000.0 0.08838714672479574 -0.03702753379156165
291780000.0 0.08891499298408428 -0.037486034430418924
292780000.0 0.0894454492156433 -0.03794891800132136
293780000.0 0.08994182638052203 -0.03821509816224983
294780000.0 0.09043421097606162 -0.038498860697887105
295780000.0 0.09069983402365499 -0.03874290058644405
296780000.0 0.09104076081329347 -0.03881339620058621
297780000.0 0.0913489490672791 -0.03896362868901922
298780000.0 0.09141327923781987 -0.03910426224285226
299780000.0 0.091589770154033 -0.039274348974117225
300780000.0 0.09171825947435455 -0.039557066590187095
301770000.0 0.09189647243771858 -0.040014950409660376
302770000.0 0.09198186088925014 -0.0403963628080237
303770000.0 0.09215091195356846 -0.04087415264972024
304770000.0 0.09219814039705951 -0.04133881643686596
305770000.0 0.09220294696206445 -0.04161185521360803
306770000.0 0.09237176975626735 -0.04180453484204634
307770000.0 0.09229866642556923 -0.04196569024007865
308770000.0 0.09219246480515948 -0.0419174032552531
309770000.0 0.09231330959146672 -0.04193346937155038
310770000.0 0.09232062695649063 -0.041917357020991086
311770000.0 0.0923644720816493 -0.04182065612042643
312770000.0 0.09263583117907202 -0.04178775944432106
313760000.0 0.09286399347303578 -0.04185167708013737
314760000.0 0.09305609032623899 -0.04199688496933902
315760000.0 0.09337805036105548 -0.042142187856012085
316760000.0 0.09365678907652651 -0.042386093851776496
317760000.0 0.09380584108653918 -0.04263120629344434
318760000.0 0.09396981181682744 -0.04284431910315084
319760000.0 0.09408875748121266 -0.043156676980713106
320760000.0 0.09411401968127668 -0.04338715734920545
321760000.0 0.09427016342031025 -0.043618843531279976
322760000.0 0.0942870911990386 -0.04386666098762885
323760000.0 0.0944506580936351 -0.04408321020354461
324760000.0 0.09435039343076321 -0.04429739829415326
325750000.0 0.09442034362316853 -0.04443084112885009
326750000.0 0.09447469608243457 -0.04459747935275246
327750000.0 0.09468467963515707 -0.04471681343543518
328750000.0 0.09481717982131795 -0.044718685189270316
329750000.0 0.09512172425893002 -0.04492321686817129
330750000.0 0.09542727192276301 -0.04484365112471285
331750000.0 0.09568644175891622 -0.044863541337294637
332750000.0 0.09611157882962698 -0.04481756524562291
333750000.0 0.09663364508021632 -0.044855844605067224
334750000.0 0.09722077566169025 -0.044757683074469486
335750000.0 0.09775567153243653 -0.04477668037230278
336750000.0 0.09833992705214928 -0.04469177684974707
337740000.0 0.09891883721047955 -0.04462200555930589
338740000.0 0.09962262425487858 -0.04458422161308894
339740000.0 0.10029923632694399 -0.04461415241770053
340740000.0 0.10088696480258998 -0.04453852646175733
341740000.0 0.10154742017869718 -0.04461848454592488
342740000.0 0.10221962742364903 -0.04467990473450263
343740000.0 0.10289583271636406 -0.04474038139698519
344740000.0 0.10341778988966148 -0.04483861936348221
345740000.0 0.10418187102387753 -0.04504035154054071
346740000.0 0.10481491961728966 -0.045227208737043396
347740000.0 0.10559702162186496 -0.04541173159500897
348740000.0 0.10629413168085114 -0.045469910222896884
349730000.0 0.10701920050247334 -0.045471049644297615
350730000.0 0.10803657242568031 -0.04548097150057242
351730000.0 0.10905528950990791 -0.045149882163336874
352730000.0 0.11021370603204804 -0.04484280100810076
353730000.0 0.11130445431030338 -0.045082945399943376
354730000.0 0.112789171621862 -0.04436063053308458
355730000.0 0.11449543952301469 -0.04344701006347187
356730000.0 0.11660201214754524 -0.04225538032220345
357730000.0 0.11888784701199694 -0.04051903910318582
358730000.0 0.12169587126276686 -0.03851071596313557
359730000.0 0.12450567344394597 -0.035866104632299965
360730000.0 0.1278987479236217 -0.031936163937824766
361730000.0 0.1313080266468462 -0.02807809727718029
362720000.0 0.13840425552771926 -0.024778185021030193
363720000.0 0.14208716463994372 -0.02156476762422493
364720000.0 0.14535913876442536 -0.019963419669692128
365720000.0 0.14861273840833947 -0.020119643166126487
366720000.0 0.15184869022503517 -0.020935698828183
367720000.0 0.15469320610200318 -0.02245701477986042
368720000.0 0.15753209546129576 -0.02435910415155388
369720000.0 0.1645889910569929 -0.027779051624178985
370720000.0 0.16635082299417117 -0.031131710332516944
371720000.0 0.16699065268176333 -0.03494700412889131
372720000.0 0.1664630149484598 -0.03913551370177981
373720000.0 0.1651366235113678 -0.04286101673934981
374710000.0 0.16360437597525354 -0.04626453269409112
375710000.0 0.16072364828223654 -0.048494723377832144
376710000.0 0.1603198317594725 -0.04506387234950896
377710000.0 0.15816183183992308 -0.04568097271237035
378710000.0 0.1554353842214516 -0.04562923148349251
379710000.0 0.15202538947015706 -0.0448011748902064
380710000.0 0.1492670951525265 -0.039968076434304216
381710000.0 0.14510637069066462 -0.038555587228153256
382710000.0 0.14061987556873817 -0.03689093375612847
383710000.0 0.13641529511568273 -0.035381017962671756
384710000.0 0.13218897543215918 -0.033866593286374334
385710000.0 0.12428193269430769 -0.03158668133750182
386700000.0 0.12084103278222574 -0.03035316945074871
387700000.0 0.11760424826590894 -0.029300231505043278
388700000.0 0.11483483168285244 -0.028440018602264198
389700000.0 0.10795481575508843 -0.02655620623752612
390700000.0 0.10613579707157121 -0.023782517470484557
391700000.0 0.10411116800730016 -0.02317622821750814
392700000.0 0.10218305046674721 -0.02287807156956283
393700000.0 0.1004414045885238 -0.022451313904922294
394700000.0 0.09860814234882126 -0.022041531244253433
395700000.0 0.0971052369857257 -0.021883610279698533
396700000.0 0.09561734216430019 -0.021758829501418064
397700000.0 0.09405853958976652 -0.021542281330412385
398690000.0 0.09270080185570101 -0.021538044114822893
399690000.0 0.0896166954851765 -0.021002905316243922
