!Created with skrf (http://scikit-rf.org).
# Hz S RI R 50.0 
!freq ReS11 ImS11
25000000.0 -0.856250338105219 0.12934283059819718
26000000.0 -0.854262122356482 0.14188176640941116
27000000.0 -0.854654999623295 0.139495666425023
28000000.0 -0.855269410764145 0.14788441008054135
29000000.0 -0.8626795466451302 0.14622108846335727
30000000.0 -0.8538920494488427 0.15564039199954668
31000000.0 -0.856264260716098 0.16473552367505967
31990000.0 -0.8602182893881384 0.15446772536629086
32990000.000000004 -0.8586572240081647 0.1574381836912653
33990000.0 -0.8735118127176825 0.17169287557478918
34990000.0 -0.8712121344820131 0.16194150592533932
35990000.0 -0.8745506909474711 0.17697581580718807
36990000.0 -0.8672184312944868 0.1870240148168892
37990000.0 -0.8621951028316837 0.19556944864009804
38990000.0 -0.8712097719351541 0.1974543505539273
39990000.0 -0.8659339733238867 0.18327028294221132
40990000.0 -0.8718957862681298 0.14637466473474603
41990000.0 -0.8857960089783751 0.16225439387524565
42990000.0 -0.8750054572122685 0.1639108914295222
43980000.0 -0.8778186655771695 0.15415130582839412
44980000.0 -0.8860991830948136 0.1663092116594964
45980000.0 -0.8853824533153826 0.18077688657521113
46980000.0 -0.8826032441960547 0.19389142501202017
47980000.0 -0.8799896690967761 0.20542773337974313
48980000.0 -0.8713555104548129 0.21903105863979827
49980000.0 -0.8611849961088565 0.23349465281737727
50980000.0 -0.8428116840132708 0.23880945260297742
51980000.0 -0.8300857945760055 0.23598632915724257
52980000.0 -0.8277644624906538 0.23688865726006453
53980000.0 -0.8269519295154842 0.25361389311662674
54980000.0 -0.8322023985793612 0.26031796852875916
55970000.0 -0.8391249988001563 0.24792305923389613
56970000.0 -0.8440341163334504 0.2455341026434285
57970000.0 -0.8465360213262353 0.24418001807240375
58970000.0 -0.8419667006100182 0.23809385119136572
59970000.0 -0.8299602890213551 0.22907675558315854
60970000.0 -0.8234116344715823 0.22309882284239305
61970000.0 -0.8282208727037248 0.22037253498336748
62970000.0 -0.8327600640158177 0.2147462475541984
63970000.0 -0.8131248749777785 0.20469552407467417
64970000.0 -0.8118218788092579 0.20195849348041825
65970000.0 -0.8161171022522947 0.20469162121458567
66970000.0 -0.8173136022087117 0.20787493667575369
67960000.0 -0.8199989780372788 0.1970157091989045
68960000.0 -0.8212648461522355 0.20005093988796552
69960000.0 -0.8219224210288971 0.20950539805383508
70960000.0 -0.8180580730556758 0.2277904043003882
71960000.0 -0.8141860915423276 0.25140995559878543
72960000.0 -0.8196850964361173 0.24342437462984348
73960000.0 -0.8214475815180894 0.23384050349041466
74960000.0 -0.8192915110722432 0.2412859924229524
75960000.0 -0.8157801515124704 0.24956471893101184
76960000.0 -0.8179378418486908 0.2624536473379764
77960000.0 -0.8128441382215144 0.2716583794327698
78960000.0 -0.8162618887366286 0.2831347513220129
79960000.0 -0.8134731093601525 0.2939914979367256
80950000.0 -0.7943608064699911 0.3001639357538563
81950000.0 -0.7653296523068499 0.3031699703310857
82950000.0 -0.7647528174064565 0.3172402161163504
83950000.0 -0.7688784001365717 0.33208629032737463
84950000.0 -0.7701945289372025 0.34114242708667797
85950000.0 -0.7722468392488154 0.34608991531553807
86950000.0 -0.776583515983797 0.3483590142040734
87950000.0 -0.7854174119690636 0.3429771962287484
88950000.0 -0.7990016748644014 0.3339019809709686
89950000.0 -0.8097780954356426 0.33409717974631603
90950000.0 -0.8146573845107183 0.3434547283856858
91950000.0 -0.8170702075086262 0.35340855462521287
92940000.0 -0.8190281727129858 0.35663362091985107
93940000.0 -0.828861248080447 0.3358917778653595
94940000.0 -0.8367356242788787 0.330105126044746
95940000.0 -0.8441320025706701 0.3396812122393059
96940000.0 -0.8305885423775698 0.3892528932664455
97940000.0 -0.8311312321323742 0.3880927938255446
98940000.0 -0.823966061829345 0.38107485349527126
99940000.0 -0.8211437776972789 0.3747361476691052
100940000.0 -0.8262430904393316 0.37358400052509405
101940000.0 -0.8378033737913427 0.3786348531555614
102940000.0 -0.8459191190220564 0.3890793233148796
103940000.0 -0.8364132990792948 0.3968005019574191
104930000.0 -0.8387583962236711 0.39433218771701983
105930000.0 -0.8347739903438263 0.3673093466658813
106930000.0 -0.8342245769108206 0.3527334682274712
107930000.0 -0.8317944259282529 0.3477765793707038
108930000.0 -0.8282141542186631 0.345600572845201
109930000.0 -0.8298813518358621 0.3469767154341405
110930000.0 -0.8341231034127589 0.3502905029940977
111930000.0 -0.8366404921366277 0.3523787762201118
112930000.0 -0.8326127067270357 0.3511957459242234
113930000.0 -0.8196388519820835 0.3474096757460331
114930000.0 -0.8151411137708339 0.3552795978384764
115930000.0 -0.8221782970215645 0.3648544190291554
116920000.0 -0.827064279712214 0.37430307537758645
117920000.0 -0.8321671838956629 0.3757378909117316
118920000.0 -0.8384338066192079 0.36944382311445184
119920000.0 -0.8372554394196945 0.37469783934168793
120920000.0 -0.728925995401026 0.5550917759686419
121920000.0 -0.6801010700363832 0.6123657539920476
122920000.0 -0.6875822110047709 0.6023568056733805
123920000.0 -0.6930206355315325 0.5960917856829759
124920000.0 -0.7117752733460693 0.5852832094716559
125920000.0 -0.7333754303345763 0.5806412432897021
126920000.0 -0.7578650006702519 0.584688918041961
127920000.0 -0.7916346707334265 0.6072231595091763
128919999.99999999 -0.8671403694082833 0.6503576974880789
129910000.0 -0.9163180129729253 0.658683824090141
130910000.0 -0.83682587347068 0.5704159743042274
131910000.0 -0.7992862000149152 0.5226398471429698
132910000.0 -0.7806356531330015 0.49962135519111645
133910000.0 -0.7709729982770614 0.48720058192735094
134910000.0 -0.7730506464584465 0.4858743486024059
135910000.0 -0.7800742937984796 0.488581119462674
136910000.0 -0.7853486356223984 0.49016871152329455
137910000.0 -0.7990644002533382 0.4966001349965667
138910000.0 -0.8119923499093816 0.5026721228042692
139910000.0 -0.8176208119891517 0.5061564795005818
140910000.0 -0.8156193706189846 0.5072834212014568
141900000.0 -0.815719755370564 0.51130333861372
142900000.0 -0.809832844363104 0.5123508179698218
143900000.0 -0.8030435946479862 0.5127782320584858
144900000.0 -0.7965806079151095 0.5147396590740116
145900000.0 -0.7871479921092206 0.5172562716452873
146900000.0 -0.7765167128559665 0.5273240632318787
147900000.0 -0.7661834817298145 0.5384827698896351
148900000.0 -0.7603117934556421 0.5467419847385967
149900000.0 -0.7569617214311264 0.553201110916193
150900000.0 -0.754241398787853 0.5587206684583601
151900000.0 -0.7520521159053397 0.565272699493914
152900000.0 -0.7506757428774852 0.5724830715305749
153890000.0 -0.7507145830551114 0.5795905419504579
154890000.0 -0.756739084909977 0.5897419173865649
155890000.0 -0.7578054049515649 0.593768297912194
156890000.0 -0.7537444524049844 0.5935645476457311
157890000.0 -0.7478704197378303 0.5921174781353893
158890000.0 -0.7426822171189296 0.5916031287791403
159890000.0 -0.7382880400958048 0.5935988244195264
160890000.0 -0.7323332673280267 0.5974893047561204
161890000.0 -0.7235330189202062 0.6030389560966798
162890000.0 -0.711970409588418 0.6100169282088691
163890000.0 -0.6981618960701301 0.6176814682035251
164890000.0 -0.6861095072972011 0.6262845134308865
165890000.0 -0.6762938971941445 0.6337508075918733
166880000.0 -0.6711840784323827 0.6391599599194782
167880000.0 -0.6709512773989001 0.6409509618850608
168880000.0 -0.6769658649220285 0.6392801369420035
169880000.0 -0.6864142508675604 0.6322966599326667
170880000.0 -0.6984095922449695 0.6222602483588772
171880000.0 -0.7082041364250641 0.611089744945753
172880000.0 -0.7135685019925925 0.5998169906316003
173880000.0 -0.7125950517720064 0.5893004370223517
174880000.0 -0.7043370880028771 0.5793729693093203
175880000.0 -0.6909842135464945 0.5710227130466438
176880000.0 -0.6728769809164874 0.5656121936878795
177880000.0 -0.6528766665637508 0.5643438953001918
178870000.0 -0.6338333401717082 0.5651219125725663
179870000.0 -0.6256050829567249 0.5640886881883896
180870000.0 -0.6340858107553745 0.5515910975184981
181870000.0 -0.6554169933919275 0.5337835618006604
182870000.0 -0.6734879783089442 0.5220343863276498
183870000.0 -0.6853810039349749 0.5194787334466386
184870000.0 -0.6939826556539803 0.5229534408691494
185870000.0 -0.6993219629144914 0.5275512122507553
186870000.0 -0.6995740802000449 0.5288918099185039
187870000.0 -0.6960763281713601 0.5201634099251032
188870000.0 -0.6808376090821564 0.509146298878292
189870000.0 -0.6665407415836127 0.4975484003874437
190860000.0 -0.6641560132378763 0.49594881801875673
191860000.0 -0.6730270903107732 0.5049557605295262
192860000.0 -0.6825658374730268 0.5182834607353977
193860000.0 -0.6899626722732667 0.531534651644384
194860000.0 -0.6951705314404145 0.5429313798783928
195860000.0 -0.6994326764628059 0.5523786435230433
196860000.0 -0.7023625297608278 0.5602873432773655
197860000.0 -0.7045822889334181 0.5691356098955358
198860000.0 -0.7063659916625531 0.5802155668834006
199860000.0 -0.7074546950613028 0.5921536056109896
200860000.0 -0.7077032626615356 0.6050768279949532
201860000.0 -0.7058665998373587 0.6170695747360508
202860000.0 -0.7030746284384577 0.6284004970590594
203850000.0 -0.6989765641920662 0.6378060271429302
204850000.0 -0.6955575397860787 0.6463519524629708
205850000.0 -0.6915951207415791 0.6537803835116505
206850000.0 -0.6896075227423676 0.662234630661509
207850000.0 -0.6861681032222453 0.6705392649752566
208850000.0 -0.6820056701104671 0.6810540747379087
209850000.0 -0.6777150505049124 0.6884450676096932
210850000.0 -0.6733513437181408 0.6958160495697513
211850000.0 -0.6695279290907808 0.7025823429963577
212850000.0 -0.6646067029502212 0.7072393703099947
213850000.0 -0.6601498974011307 0.7114012296054302
214850000.0 -0.6555360542242304 0.7141398967826715
215840000.0 -0.6522886518586615 0.7171072620055159
216840000.0 -0.5417342814913689 0.8025496714739284
217840000.0 -0.5402087959227807 0.8008924756823792
218840000.0 -0.5400060052642117 0.7996883078715222
219840000.0 -0.53946007534751 0.7973786117556754
220840000.0 -0.538709047666551 0.7938779085699318
221840000.0 -0.5385754402423591 0.7913008184563874
222840000.0 -0.5375439720097677 0.7880099940915811
223840000.0 -0.5358276147947255 0.7851994911776858
224840000.0 -0.5335703389885784 0.7827716703179556
225840000.0 -0.5095527937239732 0.7500657306897609
226840000.0 -0.5077890147107166 0.7500012405782658
227840000.0 -0.5060860102782111 0.7511514458020436
228830000.0 -0.5045116935486912 0.7522097416295866
229830000.0 -0.5030666256214021 0.7531769476794375
230830000.0 -0.5021975470515584 0.7550101149537461
231830000.0 -0.5019014483601628 0.7577155704557941
232830000.0 -0.501512728806721 0.7617406080467991
233830000.0 -0.4997335202139505 0.7654210782346023
234830000.0 -0.4977030550112076 0.770510746633495
235830000.0 -0.49509903298860175 0.7759538399121096
236830000.0 -0.49259190992412366 0.7813151248343356
237830000.0 -0.4898945432767231 0.7855196889308761
238830000.0 -0.48703255649922156 0.7898056983172717
239830000.0 -0.4848387225111183 0.7949171585215679
240820000.0 -0.4824726189605975 0.8001197037577651
241820000.0 -0.4800619676861295 0.8065912100868293
242820000.0 -0.47703503223976995 0.8134117628077122
243820000.0 -0.4724032821394305 0.8198779815152297
244820000.0 -0.4612014711378382 0.8299785181715552
245820000.0 -0.45498751524390185 0.8358941092449331
246820000.0 -0.4490775291465213 0.8428168319223134
247820000.0 -0.4428719067012531 0.8485782016860888
248820000.0 -0.43725503692945367 0.8552072613317694
249820000.0 -0.43151730013425377 0.8605943545388812
250820000.0 -0.42666839532889417 0.8667227822230459
251820000.0 -0.42236701808207017 0.8725419259847048
252810000.0 -0.4178373736737909 0.8771959903278811
253810000.0 -0.4132680674077344 0.8818321653024307
254810000.0 -0.4075648662872219 0.8844825284137477
255810000.0 -0.40246257578377603 0.8880476725659326
256810000.0 -0.39610771380423226 0.8896724916314327
257810000.0 -0.39050995462996635 0.89214373204983
258810000.0 -0.3846345452277541 0.8922539677151131
259810000.0 -0.3801437701153423 0.8929615392419403
260810000.0 -0.37627879361242234 0.8933854599456038
261810000.0 -0.37350836410439053 0.8933384066914074
262810000.0 -0.3709374909592959 0.8919975776860681
263810000.0 -0.36906848341039017 0.8927725104135686
264800000.0 -0.3657308597469423 0.8917439795191772
265800000.0 -0.3619373674328941 0.8908981513023635
266800000.0 -0.35727777719140036 0.8892048056599519
267800000.0 -0.3527368189702309 0.888645023624739
268800000.0 -0.348581985326241 0.8867418619216091
269800000.0 -0.34614590810567936 0.8841686196126006
270800000.0 -0.3469803965848908 0.8826676531491494
271800000.0 -0.34986812202699524 0.8791797670208849
272800000.0 -0.3550790890988684 0.8770881404022698
273800000.0 -0.3613462555610157 0.8745248133367212
274800000.0 -0.36729054020250534 0.8720449670901987
275800000.0 -0.37187865119131397 0.8689141226389545
276800000.0 -0.3752554559882927 0.8650921688519477
277790000.0 -0.3771188823299849 0.8607329719539887
278790000.0 -0.37792663466348003 0.8556607003008684
279790000.0 -0.37856722650022473 0.8506754556105074
280790000.0 -0.37948004604852914 0.8467518212768171
281790000.0 -0.3811121809154094 0.8436772788147551
282790000.0 -0.3839078201081715 0.8424088264555171
283790000.0 -0.38773780898687155 0.843002457687201
284790000.0 -0.39172590767862614 0.8435156975593576
285790000.0 -0.395872360953162 0.8439463864012164
286790000.0 -0.3997352373451025 0.8445016923682073
287790000.0 -0.40331393699550877 0.8451855946292611
288790000.0 -0.405844886273466 0.8451700687533614
289780000.0 -0.4081106034172738 0.8464783729056233
290780000.0 -0.4087286309978222 0.8473821546583816
291780000.0 -0.40798899502829206 0.8477385149718276
292780000.0 -0.4068288124822762 0.8494976923878145
293780000.0 -0.4047518856215499 0.8504892257540719
294780000.0 -0.40298761518187054 0.8525268909940478
295780000.0 -0.4010668223365946 0.8546322847602774
296780000.0 -0.3995864687075796 0.8565256200249364
297780000.0 -0.3985587064351632 0.8594066278691815
298780000.0 -0.3981239221256384 0.8620141995566288
299780000.0 -0.3976840306678852 0.8646270945615484
300780000.0 -0.39769304602667466 0.8670372043772269
301770000.0 -0.39769955248432204 0.8694528782079108
302770000.0 -0.39678884566263156 0.8698688713984232
303770000.0 -0.39602957674491074 0.8714247325301517
304770000.0 -0.3946602579570768 0.8720457390018331
305770000.0 -0.39283298538101463 0.8728704002992881
306770000.0 -0.3905540887018532 0.8726859373614972
307770000.0 -0.3885730235256822 0.8735698294116846
308770000.0 -0.38643733189469753 0.8745166836535239
309770000.0 -0.38400976131585646 0.8743839789074642
310770000.0 -0.38202486025413945 0.8752530179917776
311770000.0 -0.38064954528966033 0.8758520211923271
312770000.0 -0.37927329111026764 0.8764488633150802
313760000.0 -0.37804916833033486 0.8769775742176376
314760000.0 -0.37725839337332484 0.8785154216629483
315760000.0 -0.3763382074881742 0.8789100039565133
316760000.0 -0.3752641357515183 0.8793691317580554
317760000.0 -0.37403593941698743 0.8798922419789266
318760000.0 -0.37296066936871464 0.8803485562970444
319760000.0 -0.3711498134540707 0.8799196868629082
320760000.0 -0.3700745120295072 0.8803724750933731
321760000.0 -0.36884491982257167 0.8808883382568932
322760000.0 -0.3673069186358267 0.8815307520887539
323760000.0 -0.36592176079127176 0.8821066286653361
324760000.0 -0.36422756430904035 0.8828075219171015
325750000.0 -0.3622236017705894 0.8836316549763547
326750000.0 -0.36037213486811476 0.8843883557388729
327750000.0 -0.35836459545851307 0.8852037370446231
328750000.0 -0.3569205279509449 0.8869729297997031
329750000.0 -0.35475218089069294 0.8878424024699132
330750000.0 -0.3528325816315058 0.8897919191930473
331750000.0 -0.35137253310814376 0.8915547876943666
332750000.0 -0.3494393220536489 0.8934997101039583
333750000.0 -0.34765507178703436 0.8953811357268563
334750000.0 -0.3457075622527731 0.8973207093004528
335750000.0 -0.34359577706003996 0.8993173885597101
336750000.0 -0.3457195034685836 0.8996912868875481
337740000.0 -0.34352011306817737 0.9005333523515734
338740000.0 -0.34194780586321283 0.9035076086355474
339740000.0 -0.3397391016983685 0.9043404467202474
340740000.0 -0.3380753452348848 0.9061516071231487
341740000.0 -0.33624708813804016 0.908019769963501
342740000.0 -0.3347297500106797 0.9097688195483651
343740000.0 -0.3328236018994981 0.9104678800393138
344740000.0 -0.3314564004537549 0.9121547298134683
345740000.0 -0.32986388609288403 0.9127318407804903
346740000.0 -0.32864851977658716 0.9143582595102324
347740000.0 -0.32705216380947716 0.9149304664472936
348740000.0 -0.325829721057386 0.9165545015117535
349730000.0 -0.3294061328586215 0.9164660729868975
350730000.0 -0.32743856511950375 0.9195543214493271
351730000.0 -0.3305458283866854 0.9196369073485448
352730000.0 -0.3275498591253733 0.921903010669665
353730000.0 -0.32341282629499496 0.9245565289931258
354730000.0 -0.31897773974033844 0.9284838314015572
355730000.0 -0.31418502742997956 0.9325050266889032
356730000.0 -0.30854006008724927 0.9367765235627554
357730000.0 -0.30287306759300414 0.9422090481074263
358730000.0 -0.29819760184050553 0.9532986174746739
359730000.0 -0.29689845514769003 0.9585316771931534
360730000.0 -0.28952073374620385 0.9644112869869054
361730000.0 -0.28203752213223526 0.9726801953164856
362720000.0 -0.27374818032548676 0.981116888849895
363720000.0 -0.2642891497807348 0.989794763554798
364720000.0 -0.2539815269872297 0.9985934814267313
365720000.0 -0.24308650388092715 1.0086496741985211
366720000.0 -0.23305617050799005 1.018393419969369
367720000.0 -0.22015167691094717 1.0286675960342895
368720000.0 -0.2087549210316914 1.0447163244715607
369720000.0 -0.195350397605472 1.056073614847221
370720000.0 -0.18165196828227953 1.0660684562630323
371720000.0 -0.1682868893368236 1.0771173335873645
372720000.0 -0.155621444188535 1.0866544558784417
373720000.0 -0.14446845523176485 1.0958688450758234
374710000.0 -0.13490823462489945 1.1035158366217057
375710000.0 -0.12681985402805512 1.1096396887581328
376710000.0 -0.12078789527799029 1.1154979588275724
377710000.0 -0.11716281185777991 1.1184852359279176
378710000.0 -0.11280178554671172 1.120235521234405
379710000.0 -0.10954686894575262 1.1192568208303817
380710000.0 -0.10668878356952168 1.1182329981051025
381710000.0 -0.10437581273522958 1.1145612879771467
382710000.0 -0.10254073515519495 1.1095664492161987
383710000.0 -0.10129851402099099 1.1045394433289926
384710000.0 -0.10090873847256175 1.0981818734372937
385710000.0 -0.10071066111504551 1.091843302564605
386700000.0 -0.10019591516140064 1.0780334615090108
387700000.0 -0.10123376185795596 1.0729400445972876
388700000.0 -0.10232825906722494 1.0666220271929292
389700000.0 -0.10204340720327577 1.0617035503707133
390700000.0 -0.10348412202537767 1.0554127204347896
391700000.0 -0.10514638639406622 1.0515738134856871
392700000.0 -0.10667268940422617 1.046539402656649
393700000.0 -0.10781878846000788 1.0415629145655108
394700000.0 -0.10853394021537976 1.037858601715454
395700000.0 -0.10888176122945928 1.0342043866516468
396700000.0 -0.10832646363226847 1.0306574550344898
397700000.0 -0.10687732305477929 1.0272163156058718
398690000.0 -0.10453901441831932 1.0203104764176782
399690000.0 -0.10145548710829991 1.0182511145029585
400690000.0 -0.0980782868938206 1.0185819543320376
401690000.0 -0.09388051144663742 1.0177950033240082
402690000.0 -0.08943866338385888 1.0181949443563882
403690000.0 -0.0848173362825804 1.0185903193564758
404690000.0 -0.0801085938567923 1.0201525186172835
405690000.0 -0.07610036810787368 1.0216414060844285
406690000.0 -0.07226014005680005 1.0231032919418228
407690000.0 -0.06858871391458202 1.0245401332865407
408690000.0 -0.06526593622328644 1.0259424285906869
409690000.0 -0.06175538881752621 1.027346094132491
410680000.0 -0.05870692423710657 1.0275248037025226
411680000.0 -0.052070280599269804 1.0278824889332447
412680000.0 -0.048963862943804885 1.0268495748352233
