!Created with skrf (http://scikit-rf.org).
# Hz S RI R 50.0 
!freq ReS11 ImS11
25000000.0 -0.5171594245583008 -0.7170592264094067
26000000.0 -0.5541979870885015 -0.6770976281292893
27000000.0 -0.5878166013705063 -0.6263991325683076
28000000.0 -0.6114362002031224 -0.5737752983224362
29000000.0 -0.6384908096804572 -0.5285810495731248
30000000.0 -0.6734226303581505 -0.4881935393268188
31000000.0 -0.7087115549674927 -0.44629948495996485
31990000.0 -0.7400829312516138 -0.4083792121858463
32990000.000000004 -0.7644425099028517 -0.37201808108692613
33990000.0 -0.7817611905821664 -0.334094663982716
34990000.0 -0.7983759749219205 -0.29501146205268536
35990000.0 -0.8194310974052516 -0.25444011888843565
36990000.0 -0.8214738886595117 -0.1991908038191865
37990000.0 -0.8338319929582851 -0.13863813903370084
38990000.0 -0.8361366193424908 -0.07462320524915461
39990000.0 -0.8354419216054817 -0.04334503000822309
40990000.0 -0.8341482695883833 -0.07517953686128345
41990000.0 -0.819102189446248 -0.14457722560382474
42990000.0 -0.8245455438201613 -0.21109383278841787
43980000.0 -0.8140103758844804 -0.2519783034063876
44980000.0 -0.8043978110485263 -0.30700879935476916
45980000.0 -0.7951672768414378 -0.3746859844406707
46980000.0 -0.7723112092366059 -0.44069720226853787
47980000.0 -0.7456622460840201 -0.49936585382262655
48980000.0 -0.6995290740698197 -0.5522565610794519
49980000.0 -0.6262965296773062 -0.5879259196899418
50980000.0 -0.5724949666549263 -0.6271817857190007
51980000.0 -0.5152560428994913 -0.6676261857573341
52980000.0 -0.46486844667540894 -0.6978321052870998
53980000.0 -0.3325931754486331 -0.7824011651621979
54980000.0 -0.20709329245288424 -0.8418641590180862
55970000.0 -0.209726005398607 -0.8443032024578124
56970000.0 -0.19191490368720385 -0.8536775015507834
57970000.0 -0.14153907847120398 -0.862439837231104
58970000.0 -0.06446487482569135 -0.8715962732202328
59970000.0 -0.02590055097199365 -0.8675740459425147
60970000.0 0.007152705677849897 -0.8719375641304071
61970000.0 0.08023934061835805 -0.9116418871157762
62970000.0 0.15932993016871544 -0.9837326983349522
63970000.0 0.18271406924431097 -0.8723209292596772
64970000.0 0.2004699598459671 -0.8161674763566105
65970000.0 0.1888374090470251 -0.817944681449518
66970000.0 0.19223579047315525 -0.8241291228163601
67960000.0 0.2495524530543637 -0.8344466119553327
68960000.0 0.3058035397113405 -0.8503332090766577
69960000.0 0.3824817988165384 -0.8198612454000097
70960000.0 0.46614519476046445 -0.7863279695095277
71960000.0 0.5718310222643722 -0.7539058611827322
72960000.0 0.6712794290897747 -0.7148399866155857
73960000.0 0.7583090941371986 -0.6818265788144964
74960000.0 0.8471223995484939 -0.6601794437910757
75960000.0 0.8537223215798271 -0.6393633422865135
76960000.0 0.8580726720243601 -0.5917236797205606
77960000.0 0.8363943364858815 -0.5183843845599432
78960000.0 0.8354002781644307 -0.44437725053425675
79960000.0 0.84754474471179 -0.37770578218505896
80950000.0 0.8729861106450794 -0.3081121481719714
81950000.0 0.8872294404941046 -0.2567567602578508
82950000.0 0.8960568610570875 -0.21049825627096283
83950000.0 0.9364522115339312 -0.16967573901830965
84950000.0 0.9686278889837695 -0.12064898137364556
85950000.0 0.9752440744349961 -0.06238254003215849
86950000.0 0.9657666076741304 -0.02343416946668756
87950000.0 0.9556156649326187 -0.030198384156093768
88950000.0 0.9404540646816684 -0.082444468325497
89950000.0 0.9281280858612401 -0.14716710452445972
90950000.0 0.9231329068598072 -0.21753900294567352
91950000.0 0.9084479070702587 -0.28364590784615035
92940000.0 0.8866300491725432 -0.3458608922710022
93940000.0 0.8556176092187442 -0.4040832492746935
94940000.0 0.8340508211033886 -0.4537955105801736
95940000.0 0.8111101629622747 -0.49782818766871006
96940000.0 0.8443430025418803 -0.43673145957311543
97940000.0 0.8086780049185176 -0.49342545420940187
98940000.0 0.7680959057893445 -0.5488894402731682
99940000.0 0.7250043596697969 -0.6012692329545464
100940000.0 0.6831972577105025 -0.6531056505575069
101940000.0 0.6335302355340324 -0.7013878558953588
102940000.0 0.5827473410435771 -0.7496510348906336
103940000.0 0.5266786863034224 -0.7966306551656238
104930000.0 0.4615247932350639 -0.8461449355809368
105930000.0 0.37514225837412946 -0.835899678490999
106930000.0 0.3187452448836235 -0.8489076032237843
107930000.0 0.26207169558974724 -0.8539983100912386
108930000.0 0.2039462921347838 -0.8560769286267398
109930000.0 0.1459805617404297 -0.857626125193795
110930000.0 0.08936273147156137 -0.8603393532409731
111930000.0 0.03147221702927651 -0.8624044720786478
112930000.0 -0.02171171542343311 -0.8636998088592114
113930000.0 -0.07275842179730974 -0.853943839028469
114930000.0 -0.11957883550465209 -0.8318764670083614
115930000.0 -0.16340794948014067 -0.8155542979873457
116920000.0 -0.20080880374243348 -0.8042041185879149
117920000.0 -0.23971705524700937 -0.7914842896135915
118920000.0 -0.2867172261116728 -0.7746818226810911
119920000.0 -0.3308356016967636 -0.7568926600196424
120920000.0 -0.362111203247446 -0.7424379910971397
121920000.0 -0.3802488439645993 -0.735458389792548
122920000.0 -0.3957464129857184 -0.7261517912188654
123920000.0 -0.4256836167808904 -0.7090169995746007
124920000.0 -0.4805225506698396 -0.6789175570101924
125920000.0 -0.5778461228324444 -0.6089227597114913
126920000.0 -0.649334574568964 -0.5350798021356071
127920000.0 -0.6898623987726585 -0.47661534872837125
128919999.99999999 -0.7138919651904153 -0.4193405400020708
129910000.0 -0.7308970419519274 -0.36202578674407127
130910000.0 -0.7556628253552581 -0.30699649929249995
131910000.0 -0.7928145806768185 -0.2546975592399926
132910000.0 -0.8397477317513099 -0.2031563570961948
133910000.0 -0.8955007312332401 -0.14905219010042925
134910000.0 -0.9273198653207038 -0.08390317717350447
135910000.0 -0.9088662852227627 -0.0001586270929854546
136910000.0 -0.8939860727966065 -0.04966855175440274
137910000.0 -0.8804105385447033 -0.10919282629607222
138910000.0 -0.8641630830612254 -0.16094331601473835
139910000.0 -0.8448341935186621 -0.2117374801277653
140910000.0 -0.8225867121403821 -0.26743335902843224
141900000.0 -0.7957877617889216 -0.3234595311875652
142900000.0 -0.7665761826901987 -0.38103213679560843
143900000.0 -0.7344611696740613 -0.43591776804298593
144900000.0 -0.7006008011781273 -0.4902015920741012
145900000.0 -0.662073271684029 -0.5457710879263777
146900000.0 -0.6143960264302244 -0.5989362405143698
147900000.0 -0.5577767298014391 -0.6493917560540143
148900000.0 -0.5042061480909342 -0.688154026918485
149900000.0 -0.4550800814731406 -0.7204221518537269
150900000.0 -0.4067065903164483 -0.7543895661727326
151900000.0 -0.3540337278553934 -0.7859257327747418
152900000.0 -0.30025361357692326 -0.8165051515789561
153890000.0 -0.24463685626082068 -0.8453488075116338
154890000.0 -0.19099508410518826 -0.8715963677442505
155890000.0 -0.14014088536296052 -0.8979969275152695
156890000.0 -0.08839506364463882 -0.9130068205487051
157890000.0 -0.034772288176796215 -0.9176740411165749
158890000.0 0.01875137184637253 -0.9181411350212747
159890000.0 0.07133467164719298 -0.9166189010604555
160890000.0 0.12373684404967267 -0.9163819652902987
161890000.0 0.17723278772782866 -0.9075545448285219
162890000.0 0.23022799178705222 -0.8966788260174713
163890000.0 0.2917853679387566 -0.8797015519835351
164890000.0 0.3589774744561075 -0.8556453266498423
165890000.0 0.4277171934052066 -0.8318904841942893
166880000.0 0.4887618480583624 -0.8013493176453003
167880000.0 0.5466995902455993 -0.7709896508764491
168880000.0 0.6018084060420348 -0.7386793435553285
169880000.0 0.6571010272938055 -0.7066301121500951
170880000.0 0.7065414509521372 -0.6637186818608368
171880000.0 0.7557931538186614 -0.6194911578564114
172880000.0 0.7892829964402102 -0.5723959688770045
173880000.0 0.8174940392919999 -0.5292654901114819
174880000.0 0.8439026257842369 -0.48154878722762207
175880000.0 0.8710622741312875 -0.4254101845864386
176880000.0 0.8932465303906848 -0.35908280288027256
177880000.0 0.9088923360847365 -0.28221857186342403
178870000.0 0.918368197234193 -0.19403279959025585
179870000.0 0.9172446099553855 -0.09899678636283732
180870000.0 0.9118006947322909 -0.019577134325092522
181870000.0 0.9055918807638808 -0.015965269316722375
182870000.0 0.8968058702916064 -0.054536788128313834
183870000.0 0.8836940895860234 -0.09880983772152649
184870000.0 0.8674187567466479 -0.14235619248842638
185870000.0 0.8514949729423739 -0.187836599186761
186870000.0 0.83812219607988 -0.22944152218740418
187870000.0 0.8243280440821621 -0.27805785506014985
188870000.0 0.8140202862827942 -0.32905082067137864
189870000.0 0.7980474880693877 -0.37808771113248196
190860000.0 0.7681387101917335 -0.4168917191342024
191860000.0 0.7302272795223538 -0.4524072837283712
192860000.0 0.6942126328622641 -0.48735797764902017
193860000.0 0.6625002478864427 -0.5233989412264047
194860000.0 0.6320549737516159 -0.5597852626519956
195860000.0 0.6049507312875836 -0.5959379933327942
196860000.0 0.57194471123879 -0.6316527564422812
197860000.0 0.5355617852498897 -0.6627816620992961
198860000.0 0.49715654603477105 -0.6908482675738331
199860000.0 0.45856830899149575 -0.7170432804675532
200860000.0 0.41715983973494936 -0.7385300576929897
201860000.0 0.37561204100584605 -0.7583264500624548
202860000.0 0.3325596384366337 -0.778169324180668
203850000.0 0.28790818479458696 -0.7957715044792619
204850000.0 0.24033494492566743 -0.8134421259384567
205850000.0 0.18914361849454653 -0.8258444059592286
206850000.0 0.13706111082835332 -0.8360673077987558
207850000.0 0.08458781704536732 -0.8429941829448535
208850000.0 0.03226480693511405 -0.8475894998388898
209850000.0 -0.021488149206541428 -0.8489085572819827
210850000.0 -0.07631319665637955 -0.8467266971214826
211850000.0 -0.12947567099250215 -0.8402415451661572
212850000.0 -0.18019622264893423 -0.8278427463077861
213850000.0 -0.22935918459903099 -0.8105381745503765
214850000.0 -0.277918903541885 -0.7900736557271403
215840000.0 -0.3261982640424283 -0.7651311413441768
216840000.0 -0.3577208351892771 -0.7456188378474055
217840000.0 -0.4087298325715079 -0.7145498104238376
218840000.0 -0.4645889202554874 -0.674971101679022
219840000.0 -0.5264159407775932 -0.624253975965603
220840000.0 -0.5813871094259342 -0.5707294450046061
221840000.0 -0.6244842930428963 -0.5203006974340031
222840000.0 -0.6591277658324965 -0.4708458926353366
223840000.0 -0.6874155119271054 -0.42141381598742855
224840000.0 -0.710579573916973 -0.3711662517646139
225840000.0 -0.8206706363027787 -0.360590944001662
226840000.0 -0.8487668000631475 -0.3070817531723506
227840000.0 -0.8776831409991028 -0.24786301682304265
228830000.0 -0.8973458010768355 -0.18501486375199705
229830000.0 -0.9000125825277238 -0.11880852791268648
230830000.0 -0.8957357301528185 -0.055099391345673376
231830000.0 -0.8881779627915238 -0.00015501629951740462
232830000.0 -0.8784377682786677 -0.03205732922899104
233830000.0 -0.86652022229384 -0.08786512041201629
234830000.0 -0.8509254120958332 -0.14958175510269614
235830000.0 -0.8316613121772259 -0.21106055842433163
236830000.0 -0.8086837012399057 -0.27168083459410775
237830000.0 -0.7850925578625321 -0.3287333808177331
238830000.0 -0.757227759509585 -0.38217155602136804
239830000.0 -0.7292540135937318 -0.4331715152928834
240820000.0 -0.6979709421068445 -0.48024041400724027
241820000.0 -0.6661084770701888 -0.5251175818604183
242820000.0 -0.6300713971051426 -0.5693131947644227
243820000.0 -0.5931069689576379 -0.611825204457154
244820000.0 -0.5526592681634157 -0.6537524504366937
245820000.0 -0.508143930102463 -0.6950539458207116
246820000.0 -0.45901934348135687 -0.7342992929605747
247820000.0 -0.4068083290506418 -0.7712543421953659
248820000.0 -0.34407997342644936 -0.8066842084567316
249820000.0 -0.28731744160571 -0.8339575761325954
250820000.0 -0.23080914335669506 -0.8566054687182701
251820000.0 -0.1756453763505915 -0.8790192398077964
252810000.0 -0.11913827963250431 -0.890528551240804
253810000.0 -0.055696488271237375 -0.8977715747185552
254810000.0 0.0007849596209411039 -0.8994972390267665
255810000.0 0.05719742075050715 -0.8966401091342767
256810000.0 0.11447387122930157 -0.8911401478188578
257810000.0 0.17255678095803698 -0.882791060514198
258810000.0 0.22958162306674282 -0.8707774320708368
259810000.0 0.2844594020003587 -0.8566137593072142
260810000.0 0.3355330647582848 -0.8401680490168039
261810000.0 0.38021178946310885 -0.824364670619904
262810000.0 0.4214429054428426 -0.8123516231157403
263810000.0 0.45777754036336654 -0.796099542333207
264800000.0 0.5079922207087619 -0.7701181350297869
265800000.0 0.5402210871825465 -0.7517971948562173
266800000.0 0.5754993729165525 -0.7292318009656635
267800000.0 0.6136501214870196 -0.701707886292628
268800000.0 0.655392950745412 -0.6704346328644623
269800000.0 0.6975352504953125 -0.6329301591442791
270800000.0 0.7398395463371368 -0.5916639588283269
271800000.0 0.7791472420366827 -0.5484068794287837
272800000.0 0.8132480327818165 -0.5048248481389415
273800000.0 0.8489151035433454 -0.4657307740550021
274800000.0 0.8751435852621121 -0.42211915552424234
275800000.0 0.8981675342624024 -0.3764485936989185
276800000.0 0.9181532527220458 -0.3280234719836502
277790000.0 0.9359161992511909 -0.27723100837182196
278790000.0 0.9518859404933662 -0.22606907702271944
279790000.0 0.9635290600201714 -0.16972277923569792
280790000.0 0.9691450971650128 -0.1164214098208314
281790000.0 0.9685305414488143 -0.06195310164719796
282790000.0 0.9625552634817824 -0.01780977604759835
283790000.0 0.9549897351305553 -0.002333484772135315
284790000.0 0.9472128977180521 -0.01471464907225282
285790000.0 0.9389286868272798 -0.05940143839702228
286790000.0 0.9277821443243521 -0.11918082018656843
287790000.0 0.914458825357555 -0.18090186845906983
288790000.0 0.8951384866418598 -0.24437848087980582
289780000.0 0.8736339844043416 -0.3030352688689518
290780000.0 0.8491940587672638 -0.35784064273178184
291780000.0 0.8221332607167511 -0.40918413872915227
292780000.0 0.7902310507981039 -0.46158874388508125
293780000.0 0.7575124631911496 -0.5078765984102321
294780000.0 0.722462402072238 -0.5531638467075973
295780000.0 0.6832091238293918 -0.5962113241656399
296780000.0 0.6403378747295001 -0.6405614338349798
297780000.0 0.5954616843360884 -0.6797115225198268
298780000.0 0.5492306597500448 -0.717584875641288
299780000.0 0.5004660101528089 -0.7524069005799461
300780000.0 0.44963759287022936 -0.7838420800368262
301770000.0 0.39712584330397716 -0.8117101920874823
302770000.0 0.3433330745900786 -0.8358856209141988
303770000.0 0.28882525688998606 -0.8562489955270172
304770000.0 0.22976586412608224 -0.8739508104241263
305770000.0 0.17240270222449752 -0.8828211639081119
306770000.0 0.11434215415158049 -0.8901147751739901
307770000.0 0.05512864123988844 -0.8936659869899507
308770000.0 -0.004521406050808273 -0.8932940412626181
309770000.0 -0.06365707403136327 -0.8858938393195428
310770000.0 -0.12212566295831706 -0.8756215661090818
311770000.0 -0.1796428561428141 -0.8584048488466627
312770000.0 -0.2359758025611834 -0.838387139473638
313760000.0 -0.29359862098196193 -0.8114997373157179
314760000.0 -0.3454429612181514 -0.7843360432250642
315760000.0 -0.394460519402079 -0.75421274101412
316760000.0 -0.4403946913987997 -0.7203509880011795
317760000.0 -0.4847295617998415 -0.6853687481089873
318760000.0 -0.5261212376302657 -0.6466999001880195
319760000.0 -0.5664862797284369 -0.6064203090462185
320760000.0 -0.6046173033176032 -0.562829113204549
321760000.0 -0.6401001685784556 -0.5176034020333597
322760000.0 -0.67268452164217 -0.4711937627356362
323760000.0 -0.6999443562356287 -0.42240006598307483
324760000.0 -0.7237126377830235 -0.37209746252144765
325750000.0 -0.7440790282097595 -0.3201431962127657
326750000.0 -0.7605341302246645 -0.264994849594575
327750000.0 -0.7747574611328324 -0.20238688940781044
328750000.0 -0.7843278798392309 -0.1367460718405614
329750000.0 -0.7894493499229063 -0.06948440630543376
330750000.0 -0.7896387487416014 -0.014334642242391591
331750000.0 -0.787952239432109 -0.0005500945264316353
332750000.0 -0.7844480189158847 -0.051552941306579836
333750000.0 -0.7769911151669843 -0.11348924536293388
334750000.0 -0.7662348235972125 -0.1716950697266253
335750000.0 -0.7517494766524434 -0.22997635637428765
336750000.0 -0.7333334371047202 -0.2832639584602905
337740000.0 -0.7149967762111233 -0.3311323666417469
338740000.0 -0.695373586403587 -0.3744200993731938
339740000.0 -0.6726332129513926 -0.42079774677614923
340740000.0 -0.6463171090513875 -0.46648164636907274
341740000.0 -0.6169894594657928 -0.5118708081392497
342740000.0 -0.5833216542146038 -0.5566556728062948
343740000.0 -0.54955238390408 -0.5976337277879019
344740000.0 -0.5072183273837886 -0.6399502618013482
345740000.0 -0.46104418268008973 -0.6796810202696336
346740000.0 -0.41224413092615947 -0.7169145163813918
347740000.0 -0.3628711154349996 -0.7463088167288627
348740000.0 -0.3102777548938039 -0.7737906903076939
349730000.0 -0.256550540354907 -0.7952447574934253
350730000.0 -0.20233299047261924 -0.8127217601285068
351730000.0 -0.15438596339425142 -0.8241585370489481
352730000.0 -0.09787448887821103 -0.8356831749000136
353730000.0 -0.039138392432041626 -0.8424260797786144
354730000.0 0.021414059790025045 -0.8459815886035649
355730000.0 0.08251792161895667 -0.8461445480612978
356730000.0 0.1445109513288381 -0.842766674963748
357730000.0 0.20327396716346008 -0.8376746577104562
358730000.0 0.265509383986558 -0.8284549849183436
359730000.0 0.32563818368834174 -0.8153914657320053
360730000.0 0.3859143390192821 -0.8022290529641657
361730000.0 0.44334365716467106 -0.7826508166674567
362720000.0 0.4916070074652717 -0.7619482923126158
363720000.0 0.5483253794485343 -0.7340294713238824
364720000.0 0.604461145791082 -0.6997809915349341
365720000.0 0.6622392927745431 -0.6606231106560753
366720000.0 0.7225983878671223 -0.6193417237277303
367720000.0 0.7779708847777376 -0.5708495229970632
368720000.0 0.8296083413339811 -0.5185981790210268
369720000.0 0.8784915626139401 -0.463176057290668
370720000.0 0.9220802885726488 -0.4045730183322414
371720000.0 0.969776152511986 -0.3375220147046828
372720000.0 1.0024561489638932 -0.2674824910799129
373720000.0 1.0291249395451165 -0.19333922248070995
374710000.0 1.0495263398921761 -0.11308844089588467
375710000.0 1.0608102457348987 -0.043348341598887015
376710000.0 1.0702811012641313 -0.0033623983068617096
377710000.0 1.0777005099391834 -0.0031976111656414853
378710000.0 1.0827413769356777 -0.05068200480409239
379710000.0 1.0812700234193313 -0.12893364425904696
380710000.0 1.0577609540669701 -0.20637436345553115
381710000.0 1.042450215604916 -0.2830320919016546
382710000.0 1.0219615812987066 -0.35368618487201053
383710000.0 0.985739079185196 -0.4137593534373498
384710000.0 0.9565460769025903 -0.4746255264136479
385710000.0 0.9200854717097737 -0.5346429537403072
386700000.0 0.8723411335423692 -0.5857470158968695
387700000.0 0.8301380468999994 -0.6402161061091601
388700000.0 0.782690778864178 -0.6919793935730622
389700000.0 0.7218884914361923 -0.7335739438592864
390700000.0 0.6622906514312441 -0.7707999083991744
391700000.0 0.6069410370830752 -0.8107246781466128
392700000.0 0.5497836323855507 -0.8449773076430189
393700000.0 0.4918391111565666 -0.8746576230666048
394700000.0 0.4304622393434577 -0.8924405882294911
395700000.0 0.3725461929862723 -0.9119864589657704
396700000.0 0.31529281781143453 -0.9261665672714438
397700000.0 0.2591372809016919 -0.937595345025065
398690000.0 0.20159933464246743 -0.9379804262482697
399690000.0 0.14659030058713612 -0.9425627599295576
400690000.0 0.0924911052324874 -0.9449955201263284
401690000.0 0.03838076091026939 -0.9432803694160576
402690000.0 -0.015744478497766765 -0.9395914068441644
403690000.0 -0.06956698024576213 -0.9317359087464631
404690000.0 -0.12395032669489206 -0.9228207801466362
405690000.0 -0.17832280058645572 -0.9106013018745381
406690000.0 -0.23101816536841238 -0.8887999578274565
407690000.0 -0.28492780736806683 -0.8696812213192305
408690000.0 -0.33804565629522026 -0.8481782353253167
