!Created with skrf (http://scikit-rf.org).
# Hz S RI R 50.0 
!freq ReS11 ImS11 ReS21 ImS21 ReS12 ImS12 ReS22 ImS22
25000000.0 -0.12087141820533286 0.3459286001110892 0.9062282465072904 -0.47779995174198586 -0.12087141820533286 0.3459286001110892 0.9062282465072904 -0.47779995174198586
26000000.0 -0.09879020503032611 0.31485473590754426 0.8255703566248782 -0.4822310937014758 -0.09879020503032611 0.31485473590754426 0.8255703566248782 -0.4822310937014758
27000000.0 -0.08292603528776026 0.2835849246879395 0.7607576753848986 -0.45837525779814914 -0.08292603528776026 0.2835849246879395 0.7607576753848986 -0.45837525779814914
28000000.0 -0.0772071657766141 0.26836926911453235 0.7491213499158148 -0.44232352200768354 -0.0772071657766141 0.26836926911453235 0.7491213499158148 -0.44232352200768354
29000000.0 -0.07301752375905782 0.2433800816163085 0.7277598940179056 -0.4261209339053594 -0.07301752375905782 0.2433800816163085 0.7277598940179056 -0.4261209339053594
30000000.0 -0.06044537965328122 0.22621682645341853 0.6991385062575055 -0.41643949472856895 -0.06044537965328122 0.22621682645341853 0.6991385062575055 -0.41643949472856895
31000000.0 -0.04938420116427267 0.21390647591384274 0.675301643536327 -0.4130151993685836 -0.04938420116427267 0.21390647591384274 0.675301643536327 -0.4130151993685836
31990000.0 -0.041876531564449065 0.20346563293811618 0.6571925432423306 -0.40636590370073405 -0.041876531564449065 0.20346563293811618 0.6571925432423306 -0.40636590370073405
32990000.000000004 -0.03519275004198736 0.1926971584993149 0.6769997100349011 -0.4241873157028726 -0.03519275004198736 0.1926971584993149 0.6769997100349011 -0.4241873157028726
33990000.0 -0.03126151438204105 0.18443761661162608 0.7025905672053043 -0.459412193831722 -0.03126151438204105 0.18443761661162608 0.7025905672053043 -0.459412193831722
34990000.0 -0.025680199322143746 0.1790938213637165 0.7072172500362982 -0.4893353004937759 -0.025680199322143746 0.1790938213637165 0.7072172500362982 -0.4893353004937759
35990000.0 -0.019125865473949462 0.1772087525388351 0.7022899112305125 -0.5117432053767522 -0.019125865473949462 0.1772087525388351 0.7022899112305125 -0.5117432053767522
36990000.0 -0.014520602244319926 0.17438115278713184 0.7156802918638844 -0.5414611352966082 -0.014520602244319926 0.17438115278713184 0.7156802918638844 -0.5414611352966082
37990000.0 -0.008941241198901792 0.17175616108698555 0.7137009305897448 -0.5711689766667831 -0.008941241198901792 0.17175616108698555 0.7137009305897448 -0.5711689766667831
38990000.0 -0.002796586649958529 0.1668933515434541 0.6977370013779872 -0.5938207334098838 -0.002796586649958529 0.1668933515434541 0.6977370013779872 -0.5938207334098838
39990000.0 0.003347562340787469 0.16252040302557097 0.687092425852367 -0.6252060029328572 0.003347562340787469 0.16252040302557097 0.687092425852367 -0.6252060029328572
40990000.0 0.00963306599819486 0.15440324350067358 0.6711006245889432 -0.6485272096314935 0.00963306599819486 0.15440324350067358 0.6711006245889432 -0.6485272096314935
41990000.0 0.011664159842548457 0.14340627902249575 0.6523341553725012 -0.6628937083048372 0.011664159842548457 0.14340627902249575 0.6523341553725012 -0.6628937083048372
42990000.0 0.009041623447294036 0.14096408122328943 0.6571158881975365 -0.6869120636592898 0.009041623447294036 0.14096408122328943 0.6571158881975365 -0.6869120636592898
43980000.0 0.01120427182151538 0.14048278708270032 0.6460600889737269 -0.70926436057963 0.01120427182151538 0.14048278708270032 0.6460600889737269 -0.70926436057963
44980000.0 0.01344889658792079 0.1364268864579123 0.6364616494366666 -0.7016732596423396 0.01344889658792079 0.1364268864579123 0.6364616494366666 -0.7016732596423396
45980000.0 0.012703667263042931 0.13414087171999906 0.6347534227329396 -0.7002810693301035 0.012703667263042931 0.13414087171999906 0.6347534227329396 -0.7002810693301035
46980000.0 0.015507263663870261 0.1312164101889099 0.6180257215163006 -0.7122115734823496 0.015507263663870261 0.1312164101889099 0.6180257215163006 -0.7122115734823496
47980000.0 0.017692389449810567 0.12865655680704205 0.6012692329545464 -0.7250043596697969 0.017692389449810567 0.12865655680704205 0.6012692329545464 -0.7250043596697969
48980000.0 0.018868509621788092 0.12520556398001215 0.589347986155505 -0.7277841523130919 0.018868509621788092 0.12520556398001215 0.589347986155505 -0.7277841523130919
49980000.0 0.01984564499171109 0.12199102818340248 0.5729818749418674 -0.725781292038301 0.01984564499171109 0.12199102818340248 0.5729818749418674 -0.725781292038301
50980000.0 0.021909529102302382 0.11821324055271747 0.545814709429668 -0.7293401610254501 0.021909529102302382 0.11821324055271747 0.545814709429668 -0.7293401610254501
51980000.0 0.02650899862058391 0.11266782977582035 0.5151316063773614 -0.7411772474461954 0.02650899862058391 0.11266782977582035 0.5151316063773614 -0.7411772474461954
52980000.0 0.028070369577915914 0.10916865577556878 0.49598889272267294 -0.7516356006400825 0.028070369577915914 0.10916865577556878 0.49598889272267294 -0.7516356006400825
53980000.0 0.02601153806010484 0.1057406609087503 0.4884078986444314 -0.7776840504382266 0.02601153806010484 0.1057406609087503 0.4884078986444314 -0.7776840504382266
54980000.0 0.027215163469340206 0.10440591540445399 0.4868513876846445 -0.7849049880890842 0.027215163469340206 0.10440591540445399 0.4868513876846445 -0.7849049880890842
55970000.0 0.03228115237988073 0.1063832765780037 0.47817507634061546 -0.7964465733077247 0.03228115237988073 0.1063832765780037 0.47817507634061546 -0.7964465733077247
56970000.0 0.038064553284676055 0.10596040978505378 0.4595193434557638 -0.8036664844451045 0.038064553284676055 0.10596040978505378 0.4595193434557638 -0.8036664844451045
57970000.0 0.04170953265527529 0.10443983129242422 0.4422776938511404 -0.8108579132864809 0.04170953265527529 0.10443983129242422 0.4422776938511404 -0.8108579132864809
58970000.0 0.045336580714260624 0.10221147074236107 0.42552126164165077 -0.8233742632583881 0.045336580714260624 0.10221147074236107 0.42552126164165077 -0.8233742632583881
59970000.0 0.04937544038332211 0.10060996731885834 0.40976136051946316 -0.8408801357224909 0.04937544038332211 0.10060996731885834 0.40976136051946316 -0.8408801357224909
60970000.0 0.0528829483051147 0.09895780866864545 0.39313177921238274 -0.8547297900530564 0.0528829483051147 0.09895780866864545 0.39313177921238274 -0.8547297900530564
61970000.0 0.055083640696223644 0.09583208820274165 0.3778247280684263 -0.8510054938825228 0.055083640696223644 0.09583208820274165 0.3778247280684263 -0.8510054938825228
62970000.0 0.05820441927608876 0.09486944419588933 0.36556019578783516 -0.8355414498145682 0.05820441927608876 0.09486944419588933 0.36556019578783516 -0.8355414498145682
63970000.0 0.0606117017791791 0.0936555803203723 0.3656355458930689 -0.8297911168038307 0.0606117017791791 0.0936555803203723 0.3656355458930689 -0.8297911168038307
64970000.0 0.062182936708005794 0.09323938019590694 0.3748803839075622 -0.8268027653402721 0.062182936708005794 0.09323938019590694 0.3748803839075622 -0.8268027653402721
65970000.0 0.06051705230381981 0.09448248778688256 0.40222912336068684 -0.8138487865282442 0.06051705230381981 0.09448248778688256 0.40222912336068684 -0.8138487865282442
66970000.0 0.060024836736178894 0.09602252236509558 0.41880073815812796 -0.8089849870254884 0.060024836736178894 0.09602252236509558 0.41880073815812796 -0.8089849870254884
67960000.0 0.06505455584694145 0.0941261068649461 0.4014470240412973 -0.8165674807391734 0.06505455584694145 0.0941261068649461 0.4014470240412973 -0.8165674807391734
68960000.0 0.07517568075149932 0.08730728263350114 0.34276346908005895 -0.839497381896617 0.07517568075149932 0.08730728263350114 0.34276346908005895 -0.839497381896617
69960000.0 0.08007775477203782 0.08338769906966974 0.29685234873517014 -0.8491022213071847 0.08007775477203782 0.08338769906966974 0.29685234873517014 -0.8491022213071847
70960000.0 0.07852609358688661 0.08557617338897588 0.26769595207590213 -0.849023090217603 0.07852609358688661 0.08557617338897588 0.26769595207590213 -0.849023090217603
71960000.0 0.08032559832206587 0.08370425195150848 0.242093654770387 -0.8481905525055797 0.08032559832206587 0.08370425195150848 0.242093654770387 -0.8481905525055797
72960000.0 0.08518169238481149 0.07659032753978388 0.21829450981892454 -0.8483566445456383 0.08518169238481149 0.07659032753978388 0.21829450981892454 -0.8483566445456383
73960000.0 0.08289977494920002 0.0734984328061222 0.1943700081813281 -0.8500273977112575 0.08289977494920002 0.0734984328061222 0.1943700081813281 -0.8500273977112575
74960000.0 0.08036912515557984 0.0658047942328295 0.1768373879840403 -0.8569277362311472 0.08036912515557984 0.0658047942328295 0.1768373879840403 -0.8569277362311472
75960000.0 0.07886018092214675 0.060928091625584484 0.16893758495715133 -0.8856018340952917 0.07886018092214675 0.060928091625584484 0.16893758495715133 -0.8856018340952917
76960000.0 0.08216101872224373 0.06119633395103288 0.1598191650121103 -0.9359641938134112 0.08216101872224373 0.06119633395103288 0.1598191650121103 -0.9359641938134112
77960000.0 0.08593386069680836 0.061931866827677415 0.1422180462773218 -0.9736795589793957 0.08593386069680836 0.061931866827677415 0.1422180462773218 -0.9736795589793957
78960000.0 0.08707983237662172 0.06095130794320535 0.11773934900258753 -0.9758013756324901 0.08707983237662172 0.06095130794320535 0.11773934900258753 -0.9758013756324901
79960000.0 0.08881370945772345 0.06060732162272206 0.09360196179274528 -0.9738751172729457 0.08881370945772345 0.06060732162272206 0.09360196179274528 -0.9738751172729457
80950000.0 0.09211839906223059 0.06155154641270765 0.07276409967029973 -0.9722706307687445 0.09211839906223059 0.06155154641270765 0.07276409967029973 -0.9722706307687445
81950000.0 0.0904276831653674 0.05908409505064419 0.05278702061309216 -0.9746844076307186 0.0904276831653674 0.05908409505064419 0.05278702061309216 -0.9746844076307186
82950000.0 0.08986228791006123 0.05722654426306394 0.03188907107193998 -0.9767167824746357 0.08986228791006123 0.05722654426306394 0.03188907107193998 -0.9767167824746357
83950000.0 0.08977300214855728 0.055531553383211134 0.010525932518577114 -0.9726902724456575 0.08977300214855728 0.055531553383211134 0.010525932518577114 -0.9726902724456575
84950000.0 0.08976578501520505 0.053681165256772606 -0.012674365539148361 -0.9681949015482679 0.08976578501520505 0.053681165256772606 -0.012674365539148361 -0.9681949015482679
85950000.0 0.08970910760427465 0.051647546555676146 -0.03729251478551232 -0.9619974489157035 0.08970910760427465 0.051647546555676146 -0.03729251478551232 -0.9619974489157035
86950000.0 0.08930201656875097 0.04948054295061412 -0.06212685815901345 -0.9529696180105637 0.08930201656875097 0.04948054295061412 -0.06212685815901345 -0.9529696180105637
87950000.0 0.08860483711143247 0.04685446342922378 -0.08730391223392346 -0.9411075978026883 0.08860483711143247 0.04685446342922378 -0.08730391223392346 -0.9411075978026883
88950000.0 0.08757514883299393 0.04462176707367273 -0.11315515964563651 -0.9296218214893653 0.08757514883299393 0.04462176707367273 -0.11315515964563651 -0.9296218214893653
89950000.0 0.08691329505753752 0.04242800824593282 -0.13747032680245636 -0.9187385139504037 0.08691329505753752 0.04242800824593282 -0.13747032680245636 -0.9187385139504037
90950000.0 0.0867441823905365 0.04046790978809434 -0.16269436481276398 -0.9124385267860882 0.0867441823905365 0.04046790978809434 -0.16269436481276398 -0.9124385267860882
91950000.0 0.0868831131120119 0.038301906375857016 -0.1881658223910178 -0.9086183882513673 0.0868831131120119 0.038301906375857016 -0.1881658223910178 -0.9086183882513673
92940000.0 0.0866980418200289 0.037087204304881216 -0.21420112204514857 -0.9061345126816526 0.0866980418200289 0.037087204304881216 -0.21420112204514857 -0.9061345126816526
93940000.0 0.0850807548672563 0.037827026169129474 -0.23146881008664255 -0.9074265871687409 0.0850807548672563 0.037827026169129474 -0.23146881008664255 -0.9074265871687409
94940000.0 0.08238852619430823 0.04104150207942868 -0.24163367963806354 -0.9081261285103146 0.08238852619430823 0.04104150207942868 -0.24163367963806354 -0.9081261285103146
95940000.0 0.07883672497482927 0.04522333790218193 -0.24917347720233626 -0.9083328631602281 0.07883672497482927 0.04522333790218193 -0.24917347720233626 -0.9083328631602281
96940000.0 0.05636339208858892 0.06970243363128843 -0.16986741224750843 -0.926445397362573 0.05636339208858892 0.06970243363128843 -0.16986741224750843 -0.926445397362573
97940000.0 0.05151883433599585 0.07172245683112653 -0.19216970683416504 -0.9198645031708931 0.05151883433599585 0.07172245683112653 -0.19216970683416504 -0.9198645031708931
98940000.0 0.04879857336741013 0.07202102600987599 -0.2103372650243969 -0.9103458701670306 0.04879857336741013 0.07202102600987599 -0.2103372650243969 -0.9103458701670306
99940000.0 0.050840705692048946 0.06936335772810341 -0.22620682402624476 -0.8999023418952525 0.050840705692048946 0.06936335772810341 -0.22620682402624476 -0.8999023418952525
100940000.0 0.05659500189517271 0.06383418994436789 -0.24481042567943137 -0.8905997807636408 0.05659500189517271 0.06383418994436789 -0.24481042567943137 -0.8905997807636408
101940000.0 0.06227543375612051 0.057586978827891676 -0.26143520105824103 -0.8803331150263022 0.06227543375612051 0.057586978827891676 -0.26143520105824103 -0.8803331150263022
102940000.0 0.06424937694670013 0.05477725680632463 -0.27584219869710347 -0.8759257041451765 0.06424937694670013 0.05477725680632463 -0.27584219869710347 -0.8759257041451765
103940000.0 0.05801929569183207 0.061203729167078086 -0.2860904813832477 -0.8737454329621366 0.05801929569183207 0.061203729167078086 -0.2860904813832477 -0.8737454329621366
104930000.0 0.04042619825892808 0.0744557949863102 -0.29123920792812397 -0.8709273686879259 0.04042619825892808 0.0744557949863102 -0.29123920792812397 -0.8709273686879259
105930000.0 0.027351140304428097 0.07066172759083068 -0.325553994384632 -0.928597034779597 0.027351140304428097 0.07066172759083068 -0.325553994384632 -0.928597034779597
106930000.0 0.03377696520751773 0.07008940981995264 -0.34581772285848683 -0.9200331415480554 0.03377696520751773 0.07008940981995264 -0.34581772285848683 -0.9200331415480554
107930000.0 0.04493895857533772 0.06649949366210134 -0.366076227011556 -0.9097254939819199 0.04493895857533772 0.06649949366210134 -0.366076227011556 -0.9097254939819199
108930000.0 0.05331865700353704 0.06334037480048398 -0.38356331248676473 -0.8988168730812837 0.05331865700353704 0.06334037480048398 -0.38356331248676473 -0.8988168730812837
109930000.0 0.0588803141154099 0.05983342961373791 -0.39783954310575803 -0.8839949142987417 0.0588803141154099 0.05983342961373791 -0.39783954310575803 -0.8839949142987417
110930000.0 0.06272398843462552 0.056081718221665994 -0.4103281477662104 -0.8684481782498679 0.06272398843462552 0.056081718221665994 -0.4103281477662104 -0.8684481782498679
111930000.0 0.06391516319342093 0.05142585416696114 -0.4209260793034962 -0.8535536518932989 0.06391516319342093 0.05142585416696114 -0.4209260793034962 -0.8535536518932989
112930000.0 0.06218302727172428 0.04496340370656881 -0.4336384683778504 -0.8397994775398513 0.06218302727172428 0.04496340370656881 -0.4336384683778504 -0.8397994775398513
113930000.0 0.06972842444409046 0.04777980834306373 -0.44503060035650543 -0.8338184745372481 0.06972842444409046 0.04777980834306373 -0.44503060035650543 -0.8338184745372481
114930000.0 0.07660995006719482 0.0527313449331501 -0.4563783517113559 -0.8301491399682195 0.07660995006719482 0.0527313449331501 -0.4563783517113559 -0.8301491399682195
115930000.0 0.07323560314977415 0.054528508850739156 -0.4661983875156149 -0.8246743951273067 0.07323560314977415 0.054528508850739156 -0.4661983875156149 -0.8246743951273067
116920000.0 0.06945721891323207 0.05748043060451403 -0.47799240987649716 -0.8153703084082434 0.06945721891323207 0.05748043060451403 -0.47799240987649716 -0.8153703084082434
117920000.0 0.0694373854035513 0.05734160868738414 -0.4879230950927763 -0.8069276120774613 0.0694373854035513 0.05734160868738414 -0.4879230950927763 -0.8069276120774613
118920000.0 0.07002060084610945 0.05629800848731861 -0.49576308457484286 -0.7995840004675385 0.07002060084610945 0.05629800848731861 -0.49576308457484286 -0.7995840004675385
119920000.0 0.07177080968024953 0.05336003586872564 -0.5011500864247624 -0.7936607990095436 0.07177080968024953 0.05336003586872564 -0.5011500864247624 -0.7936607990095436
120920000.0 0.07373111599210753 0.05006999981826641 -0.5053438611780907 -0.7871539602879825 0.07373111599210753 0.05006999981826641 -0.5053438611780907 -0.7871539602879825
121920000.0 0.07454154031229596 0.04677795149315055 -0.5098404297104655 -0.7791178421720714 0.07454154031229596 0.04677795149315055 -0.5098404297104655 -0.7791178421720714
122920000.0 0.07510280416842115 0.044894708765647925 -0.516914651891634 -0.7718664330223988 0.07510280416842115 0.044894708765647925 -0.516914651891634 -0.7718664330223988
123920000.0 0.07489886662809493 0.04366221155654979 -0.5323827790211947 -0.7625854020222017 0.07489886662809493 0.04366221155654979 -0.5323827790211947 -0.7625854020222017
124920000.0 0.07489264214504111 0.04247581153484874 -0.5755256941681866 -0.7387631531795977 0.07489264214504111 0.04247581153484874 -0.5755256941681866 -0.7387631531795977
125920000.0 0.07689713066268332 0.03960462474203924 -0.6370722090932833 -0.7025927568165211 0.07689713066268332 0.03960462474203924 -0.6370722090932833 -0.7025927568165211
126920000.0 0.07547440314891199 0.038705351688784584 -0.6729882470567686 -0.6853161653413853 0.07547440314891199 0.038705351688784584 -0.6729882470567686 -0.6853161653413853
127920000.0 0.07476782223380721 0.03859055068608359 -0.6968991846042957 -0.6786521110728684 0.07476782223380721 0.03859055068608359 -0.6968991846042957 -0.6786521110728684
128919999.99999999 0.07284674228713521 0.03751853765022338 -0.7177833131693039 -0.6731010114365792 0.07284674228713521 0.03751853765022338 -0.7177833131693039 -0.6731010114365792
129910000.0 0.07063302512288054 0.036737894258650663 -0.7398021939353039 -0.6694013229745204 0.07063302512288054 0.036737894258650663 -0.7398021939353039 -0.6694013229745204
130910000.0 0.06850400262806587 0.03593490746526477 -0.7628820429274015 -0.6678527432790765 0.06850400262806587 0.03593490746526477 -0.7628820429274015 -0.6678527432790765
131910000.0 0.06679551817863098 0.03577042595946338 -0.7877441398229164 -0.6697119152272204 0.06679551817863098 0.03577042595946338 -0.7877441398229164 -0.6697119152272204
132910000.0 0.06590708111826522 0.03559124075942153 -0.8199362877492334 -0.6783102883397564 0.06590708111826522 0.03559124075942153 -0.8199362877492334 -0.6783102883397564
133910000.0 0.06512972527321982 0.03558364582064276 -0.852202696325826 -0.6859235348653927 0.06512972527321982 0.03558364582064276 -0.852202696325826 -0.6859235348653927
134910000.0 0.060503484628706056 0.033385941417920756 -0.8463650057598681 -0.6631579896353488 0.060503484628706056 0.033385941417920756 -0.8463650057598681 -0.6631579896353488
135910000.0 0.05731543455343927 0.03194068043839276 -0.8373637581533587 -0.6367461978755347 0.05731543455343927 0.03194068043839276 -0.8373637581533587 -0.6367461978755347
136910000.0 0.055035737229813086 0.030708030257008766 -0.8369232938266855 -0.6132084587480234 0.055035737229813086 0.030708030257008766 -0.8369232938266855 -0.6132084587480234
137910000.0 0.05297008034768684 0.030582290147733098 -0.8400382734194124 -0.5925818157893399 0.05297008034768684 0.030582290147733098 -0.8400382734194124 -0.5925818157893399
138910000.0 0.05136374107963148 0.03083805196108585 -0.8459730910277904 -0.5736285805969624 0.05136374107963148 0.03083805196108585 -0.8459730910277904 -0.5736285805969624
