!Created with skrf (http://scikit-rf.org).
# Hz S RI R 50.0 
!freq ReS11 ImS11 ReS21 ImS21 ReS12 ImS12 ReS22 ImS22
25000000.0 -0.08333226429591092 -0.029947476537488006 0.3354429138884483 -0.9425798296874728 0.0 0.0 0.10023807363940665 -1.1084195475097118
25709999.999999996 -0.08170671638839232 -0.029578378293631757 0.3277506852695555 -0.9151576213841852 0.0 0.0 0.0812090513282085 -1.0661061359652413
26430000.0 -0.08081213346709017 -0.029017879469223958 0.3013544653400892 -0.8702603753889632 0.0 0.0 0.05619719564659773 -1.0062572664301892
27139999.999999996 -0.0805499670057873 -0.028173653343742524 0.2713091546999273 -0.8402370406145507 0.0 0.0 0.030411936158890453 -0.9641947129217837
27860000.0 -0.08077569031748566 -0.026571597150598907 0.24191831648911602 -0.8272613335233179 0.0 0.0 0.000981205490273938 -0.940392279665975
28570000.0 -0.08195465702170227 -0.028918113819745062 0.2092253232472491 -0.8053934544558723 0.0 0.0 -0.04616299270508881 -0.9328068310733373
29290000.0 -0.08136926165938618 -0.031022039608504852 0.18663287332115325 -0.8054699200398481 0.0 0.0 -0.07847571739400248 -0.9377726458214968
30000000.0 -0.07783264138038389 -0.031181318724723024 0.16683501471500872 -0.7981861775864532 0.0 0.0 -0.08438091874492472 -0.9097394629255491
30709999.999999996 -0.07722462483233879 -0.030189564632381177 0.14459175150358833 -0.7963206858040514 0.0 0.0 -0.10730456157150832 -0.896914225660564
31430000.0 -0.07702376691154508 -0.030239985516618915 0.11261710835699887 -0.7957186261604539 0.0 0.0 -0.14795251490697964 -0.8929222336668957
32140000.0 -0.07751150297045037 -0.03070067587081251 0.07358842639808266 -0.7970625627216614 0.0 0.0 -0.20131609243771925 -0.8953846565679436
32860000.0 -0.07962804421819972 -0.030097369275510735 0.05724864179989747 -0.7960993453242904 0.0 0.0 -0.22567020538645072 -0.903096134610708
33570000.0 -0.0816648947106601 -0.027367860308662017 0.03938394351833633 -0.7852854541059002 0.0 0.0 -0.25380906285160837 -0.8816017640176077
34290000.0 -0.0819961750765958 -0.02748094085020497 0.0042089778944792555 -0.7692385949479219 0.0 0.0 -0.3028995598941863 -0.8561889481443071
35000000.0 -0.07993198297504155 -0.03220321327034809 -0.0301724962451314 -0.7687436716256195 0.0 0.0 -0.361913155920981 -0.861067437285423
35710000.0 -0.0785517446920467 -0.03198838707495161 -0.07237661826069039 -0.7742207434023906 0.0 0.0 -0.3916901103534567 -0.8393646299199151
36430000.0 -0.0790225897358118 -0.030965789687011518 -0.11070929493258488 -0.7721087505868499 0.0 0.0 -0.4235807869197392 -0.8154544292844341
37140000.0 -0.08026086179050718 -0.029442387778691535 -0.14937785928604116 -0.7729817830536849 0.0 0.0 -0.4637135764363863 -0.7970295421539652
37860000.0 -0.07997864081210676 -0.02779521303001459 -0.18858728656321674 -0.7759030495627443 0.0 0.0 -0.5097203005611503 -0.7792260013168623
38570000.0 -0.07977733451974997 -0.027182468911967343 -0.22142885589297867 -0.7694688969133255 0.0 0.0 -0.550161946350072 -0.7507121388546719
39290000.0 -0.07946139025978569 -0.02810716148663955 -0.2530514669159207 -0.7606079519245988 0.0 0.0 -0.594606237001629 -0.7236416448225381
40000000.0 -0.07899645496975906 -0.03076926291578576 -0.2856097762209161 -0.7492981640173066 0.0 0.0 -0.647215917476719 -0.6983838346258548
40710000.0 -0.07947065178527042 -0.02809506147775881 -0.32360764576501216 -0.7356318937926646 0.0 0.0 -0.7032266550070246 -0.6493810819095671
41430000.0 -0.08050445728111418 -0.025773726929343748 -0.3563032827143094 -0.7185264470095398 0.0 0.0 -0.7319094790627642 -0.600605578474832
42140000.0 -0.08132055924714761 -0.026238388079982355 -0.3833843240966472 -0.7024309755923626 0.0 0.0 -0.7509780162034064 -0.565118509400932
42860000.0 -0.0796734027883622 -0.036113342982626515 -0.3986279869817609 -0.6805228821890638 0.0 0.0 -0.7865626308547211 -0.5459575525632376
43570000.0 -0.07807245215306623 -0.03730362846486593 -0.4248830744642589 -0.659452494830942 0.0 0.0 -0.8106647694059302 -0.5011087243755611
44290000.0 -0.07685784580774828 -0.037175889327292246 -0.4604236195628988 -0.6403543955233737 0.0 0.0 -0.826455956291857 -0.464166451090646
45000000.0 -0.07621137297303889 -0.037796670639126895 -0.5102913495696444 -0.5999055408048629 0.0 0.0 -0.8331157639508716 -0.42024173061653525
45710000.0 -0.077086156952935 -0.03691057986683468 -0.53282760649763 -0.5649248706220152 0.0 0.0 -0.8337650731278973 -0.38396383169381043
46430000.0 -0.07784562950158222 -0.035855809658061184 -0.5549066551681268 -0.5398683100025156 0.0 0.0 -0.8442082669203399 -0.35610496374324485
47140000.0 -0.07853855983077096 -0.03463256287617619 -0.5694569827892796 -0.5191667128064594 0.0 0.0 -0.8530840705217009 -0.3331698924220129
47860000.0 -0.0792933799833628 -0.03307567080970324 -0.5868092606804513 -0.4960205035189138 0.0 0.0 -0.8667243166645392 -0.3020115073310081
48570000.0 -0.07949012605686928 -0.03290272459005312 -0.6019174344460831 -0.4730989468363121 0.0 0.0 -0.8729950243731307 -0.27439450475369787
49290000.0 -0.07962716814898012 -0.032791685244297084 -0.6162202889430908 -0.45090746879927357 0.0 0.0 -0.877422185968659 -0.2478332863350573
50000000.0 -0.07986574126212338 -0.0323797007151289 -0.6116803934853252 -0.4455171598944194 0.0 0.0 -0.8695655426685145 -0.2452376854232469
50710000.0 -0.08103772397628817 -0.030915069482801597 -0.656629748118616 -0.35781180650143557 0.0 0.0 -0.8941712316006556 -0.13144832424451244
51430000.0 -0.0815344370282988 -0.02932819043348466 -0.6536046455983908 -0.3582875750556434 0.0 0.0 -0.8992743042289141 -0.12172894354502617
52140000.0 -0.0816878416358472 -0.02785921545024957 -0.6625767325265568 -0.3472700822411792 0.0 0.0 -0.9069208660112654 -0.09358899652757643
52860000.0 -0.08208762547000341 -0.02695663200384006 -0.6746971432407449 -0.3226144282384743 0.0 0.0 -0.9078419074292344 -0.05846459694194672
53570000.0 -0.08320414785135569 -0.031192776098044068 -0.6847814802167608 -0.30804279727369893 0.0 0.0 -0.9156157570564648 -0.04653565802265113
54290000.0 -0.08390901657660434 -0.03626120025513299 -0.6945339172525835 -0.29593541458681033 0.0 0.0 -0.9245814926467987 -0.02863742864821691
55000000.0 -0.08401343966042205 -0.04072383813536654 -0.6965301963584053 -0.28362844416521804 0.0 0.0 -0.9239279440173476 0.0006522687517443047
55710000.0 -0.08570184828126219 -0.04118527249875205 -0.7022731992664772 -0.27039603817180996 0.0 0.0 -0.9253308918625148 0.035945211185058744
56430000.0 -0.08662087107059448 -0.04200616554132293 -0.7103765022579162 -0.2534616210535653 0.0 0.0 -0.9247840385517725 0.06959119868955917
57140000.0 -0.08685343929548511 -0.04268169506588083 -0.7193980050272247 -0.22756602029508355 0.0 0.0 -0.9189196389216543 0.10885669548549781
57860000.0 -0.08634069535855297 -0.042275082672619986 -0.7278395057831667 -0.19909768395903782 0.0 0.0 -0.9102082342016625 0.1508170467462589
58570000.0 -0.08469905656508446 -0.04340412895860755 -0.736470180375111 -0.16770017018626318 0.0 0.0 -0.9017710318378643 0.1999952987086162
59290000.0 -0.08364100976318872 -0.04407369479158534 -0.7440603352768923 -0.13319035824489747 0.0 0.0 -0.8911900323528358 0.2536318948525844
60000000.0 -0.0836530919328931 -0.04368230580004057 -0.7523409744732269 -0.09452808695841222 0.0 0.0 -0.878815481720386 0.31297386341450445
60709999.99999999 -0.08432857981851204 -0.04080100588046242 -0.7614935704366724 -0.04371582954334524 0.0 0.0 -0.8509784573731448 0.3814040645182843
61430000.0 -0.08437331061180527 -0.039267736985318616 -0.7707955196270212 0.007593442274919451 0.0 0.0 -0.8167508140617645 0.44248488814208303
62140000.0 -0.08418858978538644 -0.03894542777501327 -0.7889563564416556 0.05254568574494378 0.0 0.0 -0.7924391656266572 0.49929260212110277
62860000.0 -0.08439611783469476 -0.03996456948752332 -0.8038524892562703 0.10297912331888169 0.0 0.0 -0.7594699669449444 0.5581398228697195
63570000.0 -0.0846796557361312 -0.04270926822352237 -0.812594105914414 0.15073959833908004 0.0 0.0 -0.7286198071701351 0.6117775941674419
64290000.00000001 -0.08328734829734401 -0.045552061246437174 -0.8203250709322806 0.1986294266733014 0.0 0.0 -0.6914525069674903 0.6549094323945704
65000000.0 -0.0798631661554555 -0.04791390880082338 -0.8296062573964403 0.2484650756829888 0.0 0.0 -0.6501724704447542 0.6876246970652665
65709999.99999999 -0.07688127643772415 -0.04931488385724345 -0.8319070612794517 0.2969307996781662 0.0 0.0 -0.6102828943438743 0.716139373319794
66430000.00000001 -0.07544904202404185 -0.048317439678637525 -0.8304244001119752 0.34304049419573573 0.0 0.0 -0.5720397713246541 0.7472574552326291
67140000.0 -0.07604043873506121 -0.04520698200197508 -0.8254816404657972 0.38998963658662744 0.0 0.0 -0.5295866308836273 0.7831875328389888
67860000.0 -0.08023607011186949 -0.03936486015921787 -0.8221916818418444 0.42731079165181757 0.0 0.0 -0.4864601137085309 0.8212848239693135
68570000.0 -0.08344810741903197 -0.03295739290112268 -0.8169409886828944 0.46102504290452434 0.0 0.0 -0.4405767587887785 0.8604587501658847
69289999.99999999 -0.08515104973563056 -0.028078313253787162 -0.7982991147122653 0.504487737091415 0.0 0.0 -0.3824398268326346 0.8914199071792723
70000000.0 -0.08531065952663239 -0.025501865668803744 -0.7663080399468101 0.5618479035182067 0.0 0.0 -0.3142090001776352 0.9146804375284606
70710000.0 -0.08538562646267599 -0.026367819368399117 -0.7165499620289556 0.6272468630463629 0.0 0.0 -0.25027336862453625 0.9270609697306819
71430000.0 -0.08459989261353987 -0.028437633369142824 -0.6658044523599651 0.678234416523245 0.0 0.0 -0.1805137034689533 0.9271466328968617
72140000.0 -0.08307892746619715 -0.0316696151806234 -0.6155550604468653 0.7169060777609063 0.0 0.0 -0.09997711698726733 0.9138922875613578
72860000.0 -0.0808102016715345 -0.03681470980563972 -0.5863377044259819 0.7433601419765105 0.0 0.0 -0.008627143810006035 0.8957142016457389
73570000.0 -0.08072456106820533 -0.03940301616694733 -0.5406018491051111 0.7785824454297973 0.0 0.0 0.06022868411325829 0.8883793743592864
74289999.99999999 -0.082553798646724 -0.0406587043538886 -0.4886670193600459 0.8112038616543105 0.0 0.0 0.11455615465827611 0.8837281356064409
75000000.0 -0.08627473249983958 -0.04080443214864741 -0.43390771184212656 0.8392916857403162 0.0 0.0 0.1557671817422081 0.8820773844852234
75710000.0 -0.09045060782597356 -0.04148368427811171 -0.38487124324237376 0.863112347310172 0.0 0.0 0.19266682333653476 0.8876655286068006
76430000.0 -0.09257733588812934 -0.04202263799891222 -0.32785109209626967 0.8888699362571152 0.0 0.0 0.24196594656692513 0.8918975071205985
77140000.0 -0.09346971568623956 -0.04243019068264277 -0.2504839500889439 0.9035388309504039 0.0 0.0 0.3070410441442343 0.8732946095998565
77860000.0 -0.09428414809768026 -0.0427797337080923 -0.1821408122067933 0.9081270949291449 0.0 0.0 0.3705814740277476 0.8440284880293203
78570000.0 -0.10090168818926255 -0.021697247386725602 -0.11604335316202131 0.9260563803847872 0.0 0.0 0.43125977343203564 0.8340507571453429
79289999.99999999 -0.10598363831806978 -0.009416988810533622 -0.04512647324229601 0.9187181764560307 0.0 0.0 0.47974339160955426 0.7904257758858131
80000000.0 -0.1076576777022762 -0.01157300437642114 0.01792890896325036 0.8936238347326645 0.0 0.0 0.5136262171184823 0.7257716917211502
80710000.0 -0.10643905087720144 -0.013258296669453065 0.0923875859454243 0.8607436257414401 0.0 0.0 0.555888798178958 0.6607947331393959
81430000.0 -0.10442017144600335 -0.014267139213481717 0.16186614387292902 0.836513148904821 0.0 0.0 0.5981424112600351 0.5996237685656576
82140000.0 -0.1021661964086629 -0.014820474497679006 0.23924334270094474 0.8078778506593641 0.0 0.0 0.639357032451897 0.5251924610578194
82860000.0 -0.1001998785543595 -0.015158207408130765 0.30391664581134176 0.774025613148566 0.0 0.0 0.6584082281993368 0.4485008446403346
83570000.0 -0.09810835623078971 -0.015391865497650252 0.35824402133856176 0.7497061847204286 0.0 0.0 0.6802184059260494 0.3883105963029329
84289999.99999999 -0.09600368084481724 -0.015531260593533174 0.39943865298137265 0.7260631494723444 0.0 0.0 0.6932331560724303 0.3373664562847343
85000000.0 -0.09400075593785016 -0.015585332128003733 0.4314993865975214 0.7023362730998317 0.0 0.0 0.6997795040543209 0.29247813306672255
85710000.0 -0.09295985348584135 -0.015615107997396785 0.4684948476475945 0.6645412781340112 0.0 0.0 0.7034461510518005 0.23301739510053573
86430000.0 -0.09237191454059356 -0.015592229221022743 0.479275025680889 0.6436162462677774 0.0 0.0 0.6961731058269913 0.2027590527768406
87140000.0 -0.09216670129423576 -0.01551568529862343 0.5043935959935866 0.6136136024059072 0.0 0.0 0.6918929417923718 0.15780306024070373
87860000.0 -0.09234558852298845 -0.015357012528008822 0.5311445568158302 0.5666899527803825 0.0 0.0 0.6751147293014315 0.09999560196051617
88570000.0 -0.09300494386392227 -0.014809707313034375 0.5512813889831872 0.5166666518095705 0.0 0.0 0.6514893014696782 0.04707358932789874
89289999.99999999 -0.09366101408292726 -0.014189221777592824 0.5692999375987078 0.47455837188798855 0.0 0.0 0.6332313554819405 0.0037974731684686873
90000000.0 -0.09418668618892144 -0.013590189156924901 0.5868679339234546 0.4250354570245974 0.0 0.0 0.6134293631111695 -0.04240176926162914
90710000.0 -0.0945874394977921 -0.013056915792217056 0.6011440200296647 0.3761078451148127 0.0 0.0 0.5957895247338784 -0.08533231020558528
91430000.0 -0.09496702602791658 -0.012301736891776922 0.6094829259994508 0.3321265153728703 0.0 0.0 0.5765225696021066 -0.12149400528160695
92140000.0 -0.09543459760505145 -0.011329500045532034 0.6146702232434353 0.2898242248417672 0.0 0.0 0.5562944334859563 -0.15505467177477586
92860000.0 -0.09611693574104836 -0.010030382168202276 0.6147093676326612 0.2476802202285231 0.0 0.0 0.5332593373417647 -0.18675295365871608
93570000.0 -0.09711488982574272 -0.005887474174510369 0.6123740057029579 0.2042193509853451 0.0 0.0 0.5088629071669144 -0.2196917294401794
94289999.99999999 -0.09771769879448747 -0.002080576953309734 0.6061808813729685 0.15890009744827707 0.0 0.0 0.4796101176913085 -0.2522136543001832
95000000.0 -0.09783260607187996 0.0008609613561929651 0.5965217065837899 0.11412235916639893 0.0 0.0 0.4468265570361959 -0.2819840945313059
95710000.0 -0.09709834965553565 0.003683553975171428 0.5832958341044292 0.07410201742885107 0.0 0.0 0.4123396527366502 -0.3038399615717319
96430000.0 -0.09616856622047847 0.001995688866905236 0.5682439311833596 0.04769663067782418 0.0 0.0 0.3647238881819579 -0.33719228336081614
97140000.0 -0.09482142002751254 0.0011075555125934745 0.5503886361053024 0.02710438522571985 0.0 0.0 0.31535535698145467 -0.35745124305318443
97860000.0 -0.093426148355794 0.007595364534629325 0.5323326268938742 0.004650979157039024 0.0 0.0 0.28676887625224184 -0.35717142427920306
98570000.0 -0.09190557664465615 0.014170980624264973 0.5113472192176144 -0.01940930298080029 0.0 0.0 0.2588191542624039 -0.35388193345882535
99289999.99999999 -0.09071514383077253 0.018341752145719103 0.4869717170080014 -0.04463058778904797 0.0 0.0 0.22824911913387652 -0.35094554716370474
100000000.0 -0.08992625815976106 0.01944802517457944 0.4599144747367755 -0.06973511923133831 0.0 0.0 0.1954971517253675 -0.3489387270032402
100710000.0 -0.08990173374844121 0.01717454029645062 0.4332362564140657 -0.09002515050158476 0.0 0.0 0.162869225377045 -0.3477428806526334
101430000.0 -0.09006228263234749 0.01149276131969967 0.4062344199168827 -0.10742016459156055 0.0 0.0 0.13048311101725601 -0.34769190455817944
102140000.0 -0.0900451649251129 0.004521919740649175 0.3786809425863262 -0.12093565061969316 0.0 0.0 0.09970040168109014 -0.3461445393877462
102860000.0 -0.0894543527420573 -0.002049559157555669 0.3513122589961393 -0.12980574174600526 0.0 0.0 0.07216057717177586 -0.34212675933935616
103570000.0 -0.08965575641844939 0.004745670304468129 0.320147724436913 -0.13615975777547198 0.0 0.0 0.04192179962627453 -0.3234204213758841
104289999.99999999 -0.08673528913255305 0.02108946453898998 0.3151831537696802 -0.07250305652654687 0.0 0.0 0.08273182393115747 -0.26356788956442273
105000000.0 -0.0803982160187281 0.04377625011677777 0.35927481337450423 -0.10175806668140973 0.0 0.0 0.09674492030081372 -0.30032881024384217
105710000.0 -0.07288071855582916 0.05245307027062862 0.3431316899927098 -0.11656166051447794 0.0 0.0 0.0851469494652657 -0.2986021986641964
106430000.0 -0.07035364344751203 0.05397139098474101 0.33027799240986394 -0.1315220115762316 0.0 0.0 0.06878130195701153 -0.2993208925399146
107140000.0 -0.07111884426681965 0.05095922232305372 0.31897622549013793 -0.14501987939485125 0.0 0.0 0.050378585168170106 -0.30167057346094933
107860000.0 -0.07428127221049764 0.04464726034651397 0.30753158083481125 -0.1556126973573102 0.0 0.0 0.030713854736760877 -0.3053525189328021
108570000.0 -0.0759778049493626 0.03593444939093458 0.29607805201846066 -0.16252643925850213 0.0 0.0 0.014306388322433788 -0.30973698559417573
109289999.99999999 -0.07740011449479994 0.027831844614562975 0.2831597694785726 -0.16771900788292488 0.0 0.0 -0.0024231401393243 -0.3113244142058994
110000000.0 -0.07868290211543474 0.021113983307209358 0.26955125474950037 -0.16949913921978396 0.0 0.0 -0.017513017196463046 -0.3085685640470792
110710000.0 -0.08010056069623968 0.01682086843564274 0.25602094865316233 -0.16777521178215965 0.0 0.0 -0.03024389125576236 -0.30132770629884037
111430000.0 -0.08151265249640369 0.013640015040396709 0.24347834935743934 -0.16221064716377512 0.0 0.0 -0.03876040469151243 -0.29156012855208274
112140000.0 -0.08294616417579256 0.011157917599513673 0.2327967841707888 -0.1543704612870951 0.0 0.0 -0.04343333587551397 -0.2813950546602838
112860000.0 -0.08470413167571565 0.009095508204945178 0.22232699437346837 -0.1509854764544429 0.0 0.0 -0.05087501492794073 -0.2750238590214881
113570000.0 -0.08934360880999219 0.007923039665011743 0.21480387979623805 -0.15626236365970195 0.0 0.0 -0.06656901595859036 -0.27265129745981875
114289999.99999999 -0.09319737677944322 0.00675851953937998 0.20642058941085967 -0.16362350437943737 0.0 0.0 -0.08452378048574698 -0.26935955986568166
115000000.0 -0.09531588695614115 0.005567692509941803 0.19622057166170842 -0.1691422516808609 0.0 0.0 -0.10105968742206872 -0.26198556167796533
115710000.0 -0.09269877901834625 0.004452725928958795 0.18467306906745468 -0.17255870434250564 0.0 0.0 -0.11283339212141079 -0.2527691766880786
116430000.0 -0.09012411982478197 0.002633608328079542 0.17268949997391989 -0.1741815329583615 0.0 0.0 -0.12315420118313682 -0.2436176862862421
117140000.0 -0.08841010529378272 0.0005296006979183666 0.16141207649461228 -0.17513469270584048 0.0 0.0 -0.13254023438810839 -0.23554122009227665
117860000.0 -0.08840348389629114 -0.0016260565577480444 0.15146384899614102 -0.17395528841663802 0.0 0.0 -0.1400369118365754 -0.2278791891690137
118570000.0 -0.09026262127481496 -0.0037638940504588197 0.14218025643849871 -0.1728575179777612 0.0 0.0 -0.14763374707208615 -0.2216025829782449
119289999.99999999 -0.09269105461975327 -0.006078187468506879 0.13284415369560834 -0.17088221544632695 0.0 0.0 -0.15377374674696534 -0.21531756389284135
120000000.0 -0.09530993800741187 -0.009321058657612194 0.12318722772774393 -0.16806043325542258 0.0 0.0 -0.15644875452556492 -0.21004071541393943
120710000.0 -0.09618635753944521 -0.018374224697959327 0.11362275646121227 -0.16497110582495048 0.0 0.0 -0.14084671350435235 -0.21110607648698204
121430000.0 -0.09695483588326796 -0.02420689666858871 0.10425466361674404 -0.16096404329449784 0.0 0.0 -0.13389634479031298 -0.20756508454490366
122140000.0 -0.09843560078319188 -0.02755625119718771 0.09290397739490427 -0.15834704831742466 0.0 0.0 -0.13644013676581107 -0.20232682595417106
122860000.0 -0.10083967332826457 -0.02819668241582806 0.08495751932323309 -0.15543128410109 0.0 0.0 -0.1429468506013928 -0.19686998049975865
123570000.0 -0.10226410641945852 -0.02886964184235234 0.07956950332677822 -0.1527915799160277 0.0 0.0 -0.14921718403010675 -0.19263301228530086
