!Created with skrf (http://scikit-rf.org).
# Hz S RI R 50.0 
!freq ReS11 ImS11
25000000.0 0.2673734701820794 -0.28538806368241326
25709999.999999996 0.2770483090190116 -0.26499077469204285
26430000.0 0.28742233080394236 -0.2437311434989512
27139999.999999996 0.28898838022849405 -0.22111868565673268
27860000.0 0.30325948024566196 -0.19126977200680562
28570000.0 0.3019533930661812 -0.1990988972141635
29290000.0 0.3016098351085125 -0.21212705048340819
30000000.0 0.28255811149378685 -0.20587893729522055
30709999.999999996 0.2646480945217458 -0.20302226336401655
31430000.0 0.25516551692045664 -0.19421183354847277
32140000.0 0.2486523306830295 -0.18756615420620318
32860000.0 0.25061748268482453 -0.17992842637352485
33570000.0 0.23366319127269264 -0.16803707197295545
34290000.0 0.21241300594234885 -0.16266987440094804
35000000.0 0.1928059436560282 -0.17703723222104317
35710000.0 0.15473989056643678 -0.18753590420205765
36430000.0 0.12805307339317057 -0.1890846037163895
37140000.0 0.10643665508036482 -0.19161975258657232
37860000.0 0.08909626630789629 -0.19012690446716604
38570000.0 0.07415257590083278 -0.19593099422001095
39290000.0 0.05459831057174909 -0.20014188588414913
40000000.0 0.041987794246883994 -0.20096177831665452
40710000.0 0.041217017477327866 -0.19036337617754304
41430000.0 0.0461769932198227 -0.17650729963003736
42140000.0 0.05227687023284394 -0.18621822643680147
42860000.0 0.050307108418145105 -0.2145334110308382
43570000.0 0.05372262762499283 -0.22485191691399534
44290000.0 0.05458656032851229 -0.22533091185276277
45000000.0 0.050026616298343846 -0.2281376119994709
45710000.0 0.06384778836646182 -0.23417832090669272
46430000.0 0.08401665957728713 -0.23962537604804135
47140000.0 0.10499851743835675 -0.24488720624795332
47860000.0 0.1250293958611297 -0.2483865450721374
48570000.0 0.13753603353053023 -0.2539519213981876
49290000.0 0.14767211145450415 -0.2567131360489115
50000000.0 0.16246831131102535 -0.2556270213880387
50710000.0 0.18213184887329786 -0.2563643059113978
51430000.0 0.20290311952686502 -0.26366028813147463
52140000.0 0.2024588897777011 -0.2696592652765603
52860000.0 0.19928670836289247 -0.2667251270330593
53570000.0 0.20190463547701354 -0.2718365194145663
54290000.0 0.20635371550136655 -0.2834021593154653
55000000.0 0.2097679760024944 -0.2945659583962541
55710000.0 0.20987161315530528 -0.30173327860410276
56430000.0 0.2113317550253024 -0.3069057816404212
57140000.0 0.21332977147360527 -0.31080924952562494
57860000.0 0.21494174688253276 -0.31623546286863274
58570000.0 0.21472326755148963 -0.32631121333417945
59290000.0 0.21135169227704542 -0.3375658498948986
60000000.0 0.20346050674721994 -0.34322734609140343
60709999.99999999 0.19413804671459856 -0.34304634109678867
61430000.0 0.18175314692066147 -0.3399638891593404
62140000.0 0.1714784230538764 -0.33337156203993085
62860000.0 0.1650139382055963 -0.3345000138765518
63570000.0 0.16681397144865065 -0.3528766391997725
64290000.00000001 0.16378692878847104 -0.3639253458596479
65000000.0 0.15737465384242796 -0.36418938742739343
65709999.99999999 0.1490246562139658 -0.36009828401792876
66430000.00000001 0.1404213996237417 -0.35297810030567817
67140000.0 0.12662875578923982 -0.34534293897794865
67860000.0 0.10415389457710196 -0.3371639672306436
68570000.0 0.08690119958221477 -0.3236355245288251
69289999.99999999 0.07589767316412699 -0.3133224482848023
70000000.0 0.06767296023480318 -0.2991986194057276
70710000.0 0.06371467489086888 -0.2850694875355088
71430000.0 0.060833589124566184 -0.27139581608382046
72140000.0 0.05873677984129844 -0.2606686560578857
72860000.0 0.05473188248867203 -0.25450881073318427
73570000.0 0.05162213499631102 -0.2441666878756829
74289999.99999999 0.049968981870568724 -0.22868905744003815
75000000.0 0.04990545688503174 -0.20712403436085455
75710000.0 0.05506265627652858 -0.1778898114168449
76430000.0 0.0643169138118302 -0.1372219664668214
77140000.0 0.0755081038878092 -0.09520178912936846
77860000.0 0.09472951691726746 -0.09173984700934254
78570000.0 0.11631041732927026 -0.07696987886382622
79289999.99999999 0.13489433310573995 -0.07835848231856014
80000000.0 0.1531018333375937 -0.09885166364793238
80710000.0 0.17703430280427201 -0.1209657984915247
81430000.0 0.19587022777833157 -0.1375202182729407
82140000.0 0.21258399526916116 -0.15010121526239378
82860000.0 0.22767263501806612 -0.16614789408066358
83570000.0 0.24343674235901896 -0.18751299658561493
84289999.99999999 0.25768903750188993 -0.21052663909292182
85000000.0 0.27146390191643777 -0.23452066727850077
85710000.0 0.2821052334156316 -0.2604885991562061
86430000.0 0.28680848579328316 -0.28731011872054607
87140000.0 0.28338699063549944 -0.31621294341107525
87860000.0 0.27079142148953533 -0.34536109645996504
88570000.0 0.2534488524499422 -0.3735746737757573
89289999.99999999 0.23476234501554713 -0.3991781180388875
90000000.0 0.2150907194854597 -0.42359284549807374
90710000.0 0.1921581208092088 -0.4457476983193896
91430000.0 0.1637409005491789 -0.4670979779732521
92140000.0 0.12818091855663938 -0.48769267250945225
92860000.0 0.08663418455742232 -0.5082014742214
93570000.0 0.040807436731939456 -0.5310032906178074
94289999.99999999 -0.008141741989428075 -0.5536461457235045
95000000.0 -0.05355228272625003 -0.5726690719267721
95710000.0 -0.08687586790046342 -0.5883691207808033
96430000.0 -0.12764018991754003 -0.5894315344214308
97140000.0 -0.17152271816950637 -0.5775164654845885
97860000.0 -0.20712648144729437 -0.5714730171602073
98570000.0 -0.23823439568845461 -0.5707612452950771
99289999.99999999 -0.2692169337420016 -0.5695312980777872
100000000.0 -0.301948914492631 -0.5662070378412856
100710000.0 -0.3370531020441401 -0.5602178321381919
101430000.0 -0.3707057592828077 -0.5525505385403279
102140000.0 -0.4013235972309419 -0.544733660099328
102860000.0 -0.42767257508589573 -0.5350778302984798
103570000.0 -0.44945886096198273 -0.5131809619948587
104289999.99999999 -0.4128447879819005 -0.5205662097581308
105000000.0 -0.48988913859112365 -0.5983371372884445
105710000.0 -0.521134754061673 -0.6021574051656464
106430000.0 -0.5544721425354002 -0.6050514789746683
107140000.0 -0.5876659775159409 -0.6073370193054014
107860000.0 -0.6211495031694532 -0.6075115884557589
108570000.0 -0.6524175620012258 -0.6111429279836819
109289999.99999999 -0.6842825511514944 -0.6086485849702302
110000000.0 -0.7135237794968448 -0.6022311671926622
110710000.0 -0.7388099370977245 -0.5907707766140449
111430000.0 -0.7664322022053348 -0.5795574057577579
112140000.0 -0.7980730395907383 -0.5665103818869234
112860000.0 -0.8373807327070711 -0.5531246634484795
113570000.0 -0.8740319559747941 -0.536421037981449
114289999.99999999 -0.8950843055474289 -0.5143499295453033
115000000.0 -0.9043038469316012 -0.4892804555839606
115710000.0 -0.9101366731961862 -0.46611049204280247
116430000.0 -0.9176898029110061 -0.4436312194830191
117140000.0 -0.9272540974264812 -0.42274745943525577
117860000.0 -0.9392932902857717 -0.3997471767618044
118570000.0 -0.9590758174828835 -0.3738221948743131
119289999.99999999 -0.9819489914144283 -0.339850268990503
120000000.0 -0.9919897615648158 -0.330693233708657
120710000.0 -0.9168819419955044 -0.4423731465712468
121430000.0 -0.8784726385556175 -0.4804050427183992
122140000.0 -0.8849455899288443 -0.47540573306622735
122860000.0 -0.9152881541064433 -0.45968166312974107
123570000.0 -0.9473319715757992 -0.44444951857224807
124289999.99999999 -0.9908557795750649 -0.42498874763179023
125000000.0 -1.0489260163613097 -0.39763785907920923
125710000.0 -1.1423317185964768 -0.32996074224677974
126430000.0 -1.3249313998036913 -0.1146030771514511
127140000.0 -1.3966620240912966 0.16993131743384274
127860000.0 -1.2720126874396744 0.2934757103883585
128570000.0 -1.0944834633415466 0.3191719449863052
129289999.99999999 -0.9793908177374314 0.3389893892760073
130000000.0 -0.9105054737168509 0.36463411728953277
130710000.00000001 -0.9150180198192248 0.43195567740941976
131430000.0 -0.9065407859652266 0.48644257365820626
132139999.99999999 -0.8888758443912363 0.529821065391857
132860000.00000001 -0.8659391644590626 0.5637834673054785
133570000.0 -0.8421249914727681 0.587019605608045
134290000.0 -0.8119527824388598 0.6125371649733512
135000000.0 -0.7836554807425248 0.6325206248687645
135710000.0 -0.7572944130849136 0.6484966102627381
136430000.0 -0.7347226819614817 0.6662478584033883
137140000.0 -0.7103025722604077 0.6862644314149827
137860000.0 -0.6873580018716292 0.6968011709541437
138570000.0 -0.6704603421014163 0.7087445828937768
139290000.0 -0.6590864456154157 0.7221209600735784
140000000.0 -0.6529331314243378 0.7346359430950458
140709999.99999997 -0.6557460500753783 0.7474593511528275
141430000.0 -0.6614037634703274 0.7552148065054604
142140000.0 -0.6637124545891426 0.7595758710919092
142860000.0 -0.6626740685935795 0.7659069403358723
143570000.0 -0.6550799928212693 0.7739296678661254
144290000.0 -0.6515041192638509 0.7847772042275653
145000000.0 -0.6445247971270583 0.7899101728698671
145709999.99999997 -0.6401784499713546 0.7955861228402978
146430000.0 -0.6390143683893196 0.8021402292460141
147140000.0 -0.6379081140289729 0.8091994508556436
147860000.0 -0.6379420350639117 0.8184947879090976
148570000.0 -0.632432032936011 0.8263038375621636
149290000.0 -0.6250043354229731 0.8356644486964225
150000000.0 -0.614747464610292 0.8461609990190442
150709999.99999997 -0.6043728572080057 0.8559176572834948
151430000.0 -0.5946204450178628 0.8659124200745643
152140000.0 -0.584187909185713 0.8753855492692451
152860000.0 -0.5811680845086896 0.8916648651358348
153570000.0 -0.5712512271479572 0.9009337028525352
154290000.0 -0.5591354461805171 0.9113661456457006
155000000.0 -0.5440608879944904 0.9239101146678128
155709999.99999997 -0.5249781514183189 0.9379476705861335
156430000.0 -0.5031884435093189 0.9497515636037724
157140000.0 -0.4828665238839157 0.9603489179198953
157860000.0 -0.46213849158128667 0.9669771951552146
158570000.0 -0.444044319045864 0.9722326535642274
159290000.0 -0.42722542326181007 0.9799760479632639
160000000.0 -0.4128712039504979 0.9891355393522688
160709999.99999997 -0.3977653873048649 1.0015629492490838
161430000.0 -0.3829807043096732 1.010549234977632
162140000.0 -0.37065532935902673 1.0194980356924386
162860000.0 -0.36202557243898553 1.0301132429346422
163570000.0 -0.358719105907554 1.0407296469514828
164290000.0 -0.3598853875292313 1.0553204899423538
165000000.0 -0.3633862038921178 1.0743149813772535
165709999.99999997 -0.36862010527324807 1.0948304172914831
166429999.99999997 -0.37220359306782164 1.1161934776016518
167140000.0 -0.37249598560022557 1.136174836393221
167860000.0 -0.37126878824940335 1.1543633337141777
168570000.0 -0.3611185410308101 1.1641581230008768
169290000.0 -0.3521128974487484 1.1734927200827783
170000000.0 -0.33436844904408947 1.1849145973195376
170709999.99999997 -0.3098153540266568 1.1922143161033019
171429999.99999997 -0.282530594565786 1.1974450630217224
172140000.0 -0.2529489536539907 1.2023831504841729
172860000.0 -0.220109467881737 1.2032032577849858
173570000.0 -0.18747121761110663 1.1984125038237858
174290000.0 -0.1566837201292462 1.1904573708184387
175000000.0 -0.12870421846496233 1.1757254004309983
175709999.99999997 -0.10357199442908809 1.1500441269661132
176429999.99999997 -0.07725828302349921 1.1180042115553321
177140000.0 -0.0520388305194091 1.0946917441181674
177860000.0 -0.02765317732279436 1.0873624678056804
178570000.0 -0.008980248672085078 1.1314421649425115
179290000.0 0.0196379821401865 1.181945585756608
180000000.0 0.05750552606029012 1.226613269565471
180709999.99999997 0.09960854462534889 1.2345437511683817
181429999.99999997 0.1312452194919163 1.2235233789932303
182140000.0 0.15233170575540939 1.2028449457480679
182860000.0 0.1652341227833157 1.1787585892274024
183570000.0 0.1728881620397555 1.1595502259615835
184290000.0 0.17784163254611154 1.14360325463866
185000000.0 0.18069830775662057 1.131564767377005
185709999.99999997 0.1821686136118513 1.1239495676150768
186429999.99999997 0.18427710482822768 1.1191676275665823
187140000.0 0.18355663992476778 1.1159728038682442
187860000.0 0.17623248638689432 1.115543389739545
188570000.0 0.1517985203119799 1.1179680963786203
189290000.0 0.11913324248812036 1.1168687896753944
190000000.0 0.08504538471072037 1.1117857269444222
190709999.99999997 0.05662613501116995 1.0933498591568407
191429999.99999997 0.04337795295918806 1.072711499960873
192140000.0 0.04129794866981723 1.0530014265167624
192860000.0 0.047606861949697904 1.0350632469765368
193570000.0 0.06193429334729998 1.0236363731935894
194290000.0 0.07933568771774574 1.0121494716347692
195000000.0 0.09886350743509349 1.002995313825135
195709999.99999997 0.11870115541804085 0.9959253132174901
196429999.99999997 0.13767814244815296 0.9904030272923491
197140000.0 0.1532542931913341 0.983772324637472
197860000.0 0.16609093541527153 0.9789974951836298
198570000.0 0.17618909481805667 0.9772380347090108
199290000.0 0.1825494601812457 0.9753469620789043
