# Hz S RI R 50
25000000 -0.124560035 -0.070880457 0.237066477 -0.961160182 0 0 0 0
25579400 -0.129057139 -0.067567229 0.204670011 -0.969767451 0 0 0 0
26158900 -0.133352667 -0.063764214 0.171926468 -0.977497518 0 0 0 0
26738400 -0.137908473 -0.059456169 0.13830462 -0.983871459 0 0 0 0
27317800 -0.142154574 -0.054734732 0.104330956 -0.989535152 0 0 0 0
27897300 -0.146118655 -0.049732174 0.070119321 -0.993770062 0 0 0 0
28476800 -0.149865165 -0.0445537 0.035531461 -0.99651283 0 0 0 0
29056200 -0.153387978 -0.038971159 0.000438749 -0.998033046 0 0 0 0
29635700 -0.156389847 -0.033193573 -0.034702926 -0.997914195 0 0 0 0
30215200 -0.158965215 -0.027345616 -0.069809854 -0.995925068 0 0 0 0
30794700 -0.161579594 -0.020941654 -0.105416178 -0.993239402 0 0 0 0
31374100 -0.163513392 -0.014735086 -0.140215724 -0.988905012 0 0 0 0
31953600 -0.165312603 -0.00831689 -0.175303399 -0.983085274 0 0 0 0
32533100 -0.166489884 -0.001509584 -0.210468053 -0.976185679 0 0 0 0
33112500 -0.167506068 0.00521348 -0.245230704 -0.96733874 0 0 0 0
33692000 -0.167860314 0.012092032 -0.279601693 -0.956911563 0 0 0 0
34271500 -0.167865335 0.018795609 -0.313389569 -0.945361912 0 0 0 0
34850900 -0.167732909 0.025772068 -0.34682542 -0.932345271 0 0 0 0
35430400 -0.166845768 0.032477382 -0.37961328 -0.917812705 0 0 0 0
36009900 -0.165586784 0.039416331 -0.412002831 -0.902225613 0 0 0 0
36589400 -0.16395764 0.046227686 -0.443578451 -0.885191321 0 0 0 0
37168800 -0.161988839 0.052903175 -0.474070578 -0.866518855 0 0 0 0
37748300 -0.159532144 0.059479359 -0.503721475 -0.846926331 0 0 0 0
38327800 -0.156680196 0.065908908 -0.532651126 -0.826148152 0 0 0 0
38907200 -0.153595879 0.072041809 -0.560515582 -0.8045547 0 0 0 0
39486700 -0.150147929 0.078138902 -0.587732374 -0.78189516 0 0 0 0
40066200 -0.146069005 0.083987556 -0.613403439 -0.757798135 0 0 0 0
40645600 -0.141821175 0.089492671 -0.63825947 -0.732923328 0 0 0 0
41225100 -0.137409552 0.094689399 -0.661860525 -0.707361221 0 0 0 0
41804600 -0.132576867 0.099579185 -0.684152364 -0.680819451 0 0 0 0
42384100 -0.127504363 0.104155726 -0.7054407 -0.653808057 0 0 0 0
42963500 -0.122004218 0.108396209 -0.725448727 -0.625933468 0 0 0 0
43543000 -0.116377197 0.112353347 -0.744424283 -0.597604155 0 0 0 0
44122500 -0.110626555 0.115952908 -0.761833548 -0.568634748 0 0 0 0
44701900 -0.104543432 0.119099535 -0.777935504 -0.539022266 0 0 0 0
45281400 -0.098490521 0.121840864 -0.792842447 -0.509219825 0 0 0 0
45860900 -0.092125907 0.124416694 -0.806722223 -0.479086667 0 0 0 0
46440300 -0.085818558 0.126436993 -0.819297611 -0.448674559 0 0 0 0
47019800 -0.079423747 0.128250986 -0.830834686 -0.418040573 0 0 0 0
47599300 -0.07296437 0.129462867 -0.841035544 -0.387362539 0 0 0 0
48178800 -0.066506527 0.130353018 -0.849806785 -0.356636196 0 0 0 0
48758200 -0.060086585 0.13088715 -0.85767579 -0.325751721 0 0 0 0
49337700 -0.053564533 0.131107434 -0.864409208 -0.294799923 0 0 0 0
49917200 -0.047147922 0.130931392 -0.869957745 -0.26395893 0 0 0 0
50496600 -0.040656611 0.130368173 -0.874637246 -0.233172461 0 0 0 0
51076100 -0.034634489 0.129272416 -0.878310441 -0.202676504 0 0 0 0
51655600 -0.028484949 0.128003537 -0.880659162 -0.172079116 0 0 0 0
52235000 -0.022517403 0.126454308 -0.882115542 -0.141635119 0 0 0 0
52814500 -0.016731502 0.124291479 -0.882391989 -0.111669361 0 0 0 0
53394000 -0.011115773 0.121929258 -0.881879925 -0.081727564 0 0 0 0
53973500 -0.005465218 0.11948315 -0.880589544 -0.051877349 0 0 0 0
54552900 -0.000337934 0.116399608 -0.878495216 -0.022504001 0 0 0 0
55132400 0.00472538 0.113269634 -0.875474214 0.006744533 0 0 0 0
55711900 0.009563513 0.109682768 -0.871444225 0.035513818 0 0 0 0
56291300 0.014082729 0.106009505 -0.866469264 0.064239054 0 0 0 0
56870800 0.018246348 0.101938106 -0.861228585 0.092579096 0 0 0 0
57450300 0.022325128 0.097721032 -0.854845762 0.120789855 0 0 0 0
58029700 0.025824969 0.093162931 -0.848038911 0.148563474 0 0 0 0
58609200 0.029287835 0.088579505 -0.840337038 0.176280349 0 0 0 0
59188700 0.032270338 0.083794802 -0.831694006 0.20360592 0 0 0 0
59768200 0.035054463 0.078687638 -0.822421669 0.230568796 0 0 0 0
60347600 0.037395413 0.07359372 -0.812461137 0.257394462 0 0 0 0
60927100 0.039483942 0.068298511 -0.80168581 0.283835977 0 0 0 0
61506600 0.04113147 0.062709495 -0.790307641 0.31016919 0 0 0 0
62086000 0.042318295 0.057381946 -0.778287589 0.336334705 0 0 0 0
62665500 0.043379656 0.05159422 -0.765460252 0.362112522 0 0 0 0
63245000 0.043696831 0.045939248 -0.751926124 0.38750422 0 0 0 0
63824400 0.043760914 0.040228188 -0.737602055 0.412970781 0 0 0 0
64403900 0.043391823 0.034365389 -0.722328543 0.437782227 0 0 0 0
64983400 0.042359355 0.028710409 -0.706719696 0.462882906 0 0 0 0
65562900 0.041186567 0.022913131 -0.690078675 0.487248092 0 0 0 0
66142300 0.039595447 0.017194712 -0.672597944 0.511852145 0 0 0 0
66721800 0.037393305 0.011699353 -0.654218852 0.53584367 0 0 0 0
67301300 0.034767404 0.006077506 -0.634907245 0.559504389 0 0 0 0
67880700 0.031669173 0.000611884 -0.614612996 0.583165943 0 0 0 0
68460200 0.0280294 -0.004773634 -0.593346178 0.606268703 0 0 0 0
69039700 0.023889947 -0.009741317 -0.571085512 0.629250109 0 0 0 0
69619100 0.01927204 -0.014350659 -0.547775149 0.651928782 0 0 0 0
70198600 0.014148199 -0.018963387 -0.523262023 0.674003243 0 0 0 0
70778100 0.008309624 -0.023201007 -0.497542828 0.695547223 0 0 0 0
71357600 0.002125489 -0.027044404 -0.470418989 0.716551303 0 0 0 0
71937000 -0.0046947 -0.03038075 -0.442418217 0.73687309 0 0 0 0
72516500 -0.01187755 -0.033409912 -0.412715435 0.75674057 0 0 0 0
73096000 -0.019710019 -0.035466141 -0.381667166 0.775838494 0 0 0 0
73675400 -0.027993634 -0.037327155 -0.349175542 0.794064879 0 0 0 0
74254900 -0.036820605 -0.038182344 -0.315195918 0.811002135 0 0 0 0
74834400 -0.045986372 -0.038697544 -0.279779911 0.826595067 0 0 0 0
75413800 -0.055498436 -0.038156822 -0.242510169 0.84095484 0 0 0 0
75993300 -0.065449148 -0.036667712 -0.203823268 0.853676557 0 0 0 0
76572800 -0.075647793 -0.034304846 -0.163751542 0.864821314 0 0 0 0
77152300 -0.086005352 -0.030789634 -0.122051298 0.87392956 0 0 0 0
77731700 -0.096547409 -0.026322785 -0.078848123 0.880578517 0 0 0 0
78311200 -0.107029534 -0.02060749 -0.034369856 0.884817481 0 0 0 0
78890700 -0.117357634 -0.013540435 0.011285126 0.886233448 0 0 0 0
79470100 -0.12750791 -0.005154624 0.057797998 0.884647071 0 0 0 0
80049600 -0.137180402 0.00465496 0.105159968 0.880085408 0 0 0 0
80629100 -0.146402776 0.015654357 0.153209388 0.872015297 0 0 0 0
81208500 -0.154647096 0.028145425 0.201383218 0.860281825 0 0 0 0
81788000 -0.162110194 0.041710644 0.249358803 0.844266474 0 0 0 0
82367500 -0.168471589 0.05664277 0.296550989 0.824571311 0 0 0 0
82947000 -0.173186868 0.072813026 0.342881143 0.800937652 0 0 0 0
83526472 -0.176981627 0.089626021 0.387595206 0.77340877 0 0 0 0
84105872 -0.178330376 0.107654482 0.42991209 0.741838335 0 0 0 0
84685372 -0.178415745 0.125813603 0.469998896 0.706792831 0 0 0 0
85264872 -0.176399022 0.145341128 0.507041454 0.668249189 0 0 0 0
85844272 -0.172520413 0.163461655 0.539706528 0.626704216 0 0 0 0
86423772 -0.166795089 0.182403057 0.568924844 0.582765817 0 0 0 0
87003272 -0.158589035 0.200829103 0.593592643 0.536336302 0 0 0 0
87582672 -0.148592367 0.219186037 0.614549279 0.488188952 0 0 0 0
88162172 -0.137558072 0.23509112 0.629517555 0.440508902 0 0 0 0
88741672 -0.123758696 0.251233786 0.641235351 0.391214787 0 0 0 0
89321172 -0.109328828 0.265829235 0.64829117 0.342697978 0 0 0 0
89900572 -0.093158088 0.279417723 0.65182054 0.294239759 0 0 0 0
90480072 -0.075581602 0.29044947 0.648677527 0.247315064 0 0 0 0
91059572 -0.057591937 0.299858391 0.642856419 0.203074783 0 0 0 0
91638972 -0.039735842 0.307853877 0.634614229 0.160860776 0 0 0 0
92218472 -0.020609173 0.315361976 0.624075293 0.119198918 0 0 0 0
92797972 -0.002036526 0.319350689 0.609338164 0.082392603 0 0 0 0
93377372 0.017538392 0.322060406 0.590770184 0.047189563 0 0 0 0
93956872 0.035972058 0.324131697 0.573441505 0.014784336 0 0 0 0
94536372 0.05500574 0.324768334 0.553353905 -0.015350043 0 0 0 0
95115872 0.073591671 0.323496639 0.531712055 -0.041875451 0 0 0 0
95695272 0.090930543 0.320607215 0.509105443 -0.065318286 0 0 0 0
96274772 0.108006224 0.317372828 0.486935615 -0.086887851 0 0 0 0
96854272 0.124805554 0.312766641 0.462778419 -0.106061473 0 0 0 0
97433672 0.140584707 0.307581871 0.440138012 -0.122501775 0 0 0 0
98013172 0.156198337 0.302200376 0.41790235 -0.138508647 0 0 0 0
98592672 0.169690832 0.29521507 0.395953059 -0.149457216 0 0 0 0
99172072 0.183936104 0.288362532 0.373813927 -0.161414891 0 0 0 0
99751572 0.196282029 0.280794948 0.353450536 -0.169948294 0 0 0 0
100331072 0.208313539 0.272428601 0.332161009 -0.176629051 0 0 0 0
100910572 0.219768822 0.263899862 0.312193065 -0.182431742 0 0 0 0
101489972 0.230494275 0.255188971 0.29264301 -0.187214806 0 0 0 0
102069472 0.240306332 0.246171548 0.274161815 -0.190147817 0 0 0 0
102648972 0.249759182 0.237049356 0.256279885 -0.192599564 0 0 0 0
103228372 0.258578568 0.227908357 0.239478215 -0.194095969 0 0 0 0
103807872 0.266730427 0.218486309 0.223428249 -0.194640517 0 0 0 0
104387372 0.27437821 0.209279879 0.208131 -0.194681525 0 0 0 0
104966772 0.281697183 0.199925184 0.193455129 -0.193858474 0 0 0 0
105546272 0.288259804 0.190342336 0.179625481 -0.192576453 0 0 0 0
106125772 0.294617712 0.181157514 0.166294902 -0.190898045 0 0 0 0
106705272 0.300338298 0.171787872 0.153834894 -0.188820928 0 0 0 0
107284672 0.305707871 0.162581607 0.142385914 -0.186306655 0 0 0 0
107864172 0.310659736 0.15329504 0.131118953 -0.183255165 0 0 0 0
108443672 0.315263956 0.144230589 0.12061052 -0.18023622 0 0 0 0
109023072 0.319533884 0.135122865 0.110825151 -0.176744401 0 0 0 0
109602572 0.323383778 0.126054674 0.101665332 -0.17325215 0 0 0 0
110182072 0.327030926 0.117262333 0.092903845 -0.169521957 0 0 0 0
110761472 0.330406129 0.108478277 0.084747686 -0.165755137 0 0 0 0
111340972 0.333398133 0.099773913 0.076990649 -0.161869972 0 0 0 0
111920472 0.336176633 0.091235429 0.069731533 -0.157918959 0 0 0 0
112499972 0.338786959 0.082830458 0.063020676 -0.153845161 0 0 0 0
113079372 0.341100543 0.074486441 0.056754399 -0.149825319 0 0 0 0
113658872 0.343225836 0.066109083 0.050885222 -0.145817384 0 0 0 0
114238372 0.345219343 0.058012556 0.045291114 -0.14171487 0 0 0 0
114817772 0.346862822 0.050008393 0.040204398 -0.137789711 0 0 0 0
115397272 0.348477661 0.042151186 0.035348277 -0.133734926 0 0 0 0
115976772 0.349906295 0.034424666 0.030812412 -0.12966904 0 0 0 0
116556172 0.351142495 0.026591718 0.02666529 -0.125748887 0 0 0 0
117135672 0.3521429 0.019131867 0.022682523 -0.12190558 0 0 0 0
117715172 0.353093564 0.011359405 0.019127218 -0.118078127 0 0 0 0
118294672 0.353957712 0.004060255 0.015668515 -0.11425016 0 0 0 0
118874072 0.354782909 -0.003299552 0.012520958 -0.11057122 0 0 0 0
119453572 0.355175852 -0.01033992 0.009605908 -0.106963463 0 0 0 0
120033072 0.355519771 -0.017330961 0.006971879 -0.103434175 0 0 0 0
120612472 0.355981469 -0.024518454 0.004570946 -0.099940568 0 0 0 0
121191972 0.356147289 -0.031234225 0.002225581 -0.09657333 0 0 0 0
121771472 0.356138914 -0.038248792 0.00012264 -0.093335516 0 0 0 0
122350872 0.356292575 -0.044984567 -0.001792221 -0.090089552 0 0 0 0
122930372 0.356039315 -0.051473677 -0.00359987 -0.086981654 0 0 0 0
123509872 0.355933338 -0.058163426 -0.005216711 -0.083885498 0 0 0 0
124089372 0.355864226 -0.064561836 -0.006781004 -0.080986909 0 0 0 0
124668772 0.355454176 -0.071048676 -0.00813745 -0.078068211 0 0 0 0
125248272 0.355067521 -0.077256724 -0.009404421 -0.075273521 0 0 0 0
125827772 0.354495376 -0.083408303 -0.010555266 -0.072567686 0 0 0 0
126407172 0.354080945 -0.089677989 -0.01162724 -0.069919645 0 0 0 0
126986672 0.353207141 -0.095557697 -0.012490176 -0.067392207 0 0 0 0
127566172 0.352731496 -0.101635292 -0.013347538 -0.064895845 0 0 0 0
128145572 0.351938903 -0.107469066 -0.014090395 -0.062499027 0 0 0 0
128725072 0.351128697 -0.113467603 -0.014760315 -0.06020563 0 0 0 0
129304572 0.350369811 -0.119236379 -0.015345226 -0.057998474 0 0 0 0
129884072 0.349241644 -0.124916031 -0.015863858 -0.055840209 0 0 0 0
130463472 0.348422259 -0.130632728 -0.01635506 -0.05371524 0 0 0 0
131042972 0.347477525 -0.136116936 -0.01673986 -0.051687151 0 0 0 0
131622472 0.346191555 -0.141560718 -0.017081927 -0.049735743 0 0 0 0
132201872 0.345349133 -0.147277474 -0.017409445 -0.04783412 0 0 0 0
132781372 0.343892186 -0.152530282 -0.017585957 -0.04600244 0 0 0 0
133360872 0.342712134 -0.157983556 -0.017787339 -0.044215328 0 0 0 0
133940272 0.341460555 -0.163171604 -0.017958372 -0.042566329 0 0 0 0
134519772 0.340221434 -0.168370708 -0.018072705 -0.040942911 0 0 0 0
135099272 0.339095741 -0.173678174 -0.018172767 -0.039320368 0 0 0 0
135678772 0.337607175 -0.178945884 -0.018187932 -0.037784878 0 0 0 0
136258172 0.336369007 -0.183850184 -0.018257955 -0.036316037 0 0 0 0
136837672 0.334820747 -0.188669458 -0.018220111 -0.034894417 0 0 0 0
137417172 0.33335638 -0.193624526 -0.018181771 -0.033501178 0 0 0 0
137996572 0.331601202 -0.198815286 -0.018065974 -0.032215636 0 0 0 0
138576072 0.330384254 -0.203689515 -0.018078314 -0.030944062 0 0 0 0
139155572 0.328568786 -0.208576396 -0.017910253 -0.029746793 0 0 0 0
139734972 0.327269852 -0.213422253 -0.01782152 -0.028579009 0 0 0 0
140314472 0.325637459 -0.218060478 -0.017646392 -0.027447532 0 0 0 0
140893972 0.323530197 -0.222726479 -0.017574822 -0.026338603 0 0 0 0
141473472 0.321999043 -0.227324038 -0.017368242 -0.025322614 0 0 0 0
142052944 0.320335656 -0.232024535 -0.017212383 -0.024337543 0 0 0 0
142632344 0.318742275 -0.236547186 -0.017026232 -0.02338658 0 0 0 0
143211844 0.316615134 -0.241169616 -0.016804195 -0.022438313 0 0 0 0
143791344 0.314807057 -0.245426952 -0.016578391 -0.021606758 0 0 0 0
144370744 0.313114702 -0.249701127 -0.016419356 -0.020690672 0 0 0 0
144950244 0.310919404 -0.254185169 -0.016183111 -0.019924271 0 0 0 0
145529744 0.309337586 -0.258339405 -0.015957318 -0.019101245 0 0 0 0
146109144 0.307691365 -0.262798815 -0.015754666 -0.018363883 0 0 0 0
146688644 0.305720925 -0.267163962 -0.015546209 -0.017620559 0 0 0 0
147268144 0.303604632 -0.271442234 -0.015330051 -0.016901057 0 0 0 0
147847544 0.301667422 -0.275508642 -0.015081538 -0.016231495 0 0 0 0
148427044 0.29959768 -0.27978295 -0.014840546 -0.01558138 0 0 0 0
149006544 0.29771164 -0.283871531 -0.014645779 -0.014945837 0 0 0 0
149585944 0.295915752 -0.287943303 -0.014388611 -0.014362541 0 0 0 0
150165444 0.293313592 -0.291767686 -0.014142945 -0.013758755 0 0 0 0
150744944 0.291404694 -0.295870631 -0.013933849 -0.013259348 0 0 0 0
151324444 0.289273291 -0.299876421 -0.013700843 -0.012729499 0 0 0 0
151903844 0.287093251 -0.303867638 -0.013485568 -0.012214427 0 0 0 0
152483344 0.284995883 -0.307806044 -0.013232261 -0.011676183 0 0 0 0
153062844 0.282654404 -0.311679333 -0.012984187 -0.011254903 0 0 0 0
153642244 0.280568093 -0.31558758 -0.012762526 -0.010833784 0 0 0 0
154221744 0.27831006 -0.31929323 -0.012454933 -0.010361129 0 0 0 0
154801244 0.27640748 -0.322960138 -0.012223209 -0.009943037 0 0 0 0
155380644 0.273917108 -0.326979398 -0.012013071 -0.009556059 0 0 0 0
155960144 0.271701902 -0.3306185 -0.01178137 -0.009104484 0 0 0 0
156539644 0.269313991 -0.334420382 -0.011535856 -0.008753336 0 0 0 0
157119044 0.267172008 -0.338045507 -0.011304963 -0.008415609 0 0 0 0
157698544 0.264779835 -0.341719388 -0.011117634 -0.008093579 0 0 0 0
158278044 0.262449115 -0.345159977 -0.010867468 -0.007778737 0 0 0 0
158857544 0.260158151 -0.348660469 -0.010639054 -0.007432412 0 0 0 0
159436944 0.257800817 -0.352235078 -0.010455124 -0.007145925 0 0 0 0
160016444 0.255436182 -0.355668336 -0.010263071 -0.006882483 0 0 0 0
160595944 0.253164052 -0.359234035 -0.010051686 -0.006612522 0 0 0 0
161175344 0.250638425 -0.362665951 -0.009798086 -0.006317129 0 0 0 0
161754844 0.247991815 -0.366099387 -0.009667651 -0.006071813 0 0 0 0
162334344 0.245667561 -0.369381517 -0.009462665 -0.005800514 0 0 0 0
162913744 0.243221104 -0.372673153 -0.009238395 -0.005595556 0 0 0 0
163493244 0.240582361 -0.376352876 -0.009113999 -0.00536853 0 0 0 0
164072744 0.238252148 -0.379330009 -0.008867697 -0.005156635 0 0 0 0
164652144 0.235749706 -0.382753044 -0.008717196 -0.004902151 0 0 0 0
165231644 0.233305916 -0.386012017 -0.008519529 -0.004769477 0 0 0 0
165811144 0.230596467 -0.389293402 -0.008362969 -0.004529066 0 0 0 0
166390544 0.228089362 -0.392472803 -0.008160317 -0.00435144 0 0 0 0
166970044 0.225506007 -0.395654231 -0.007995007 -0.004098796 0 0 0 0
167549544 0.222875729 -0.398888647 -0.007933106 -0.003922181 0 0 0 0
168129044 0.220734372 -0.401934087 -0.007717041 -0.003813989 0 0 0 0
168708444 0.217787861 -0.405041515 -0.007558693 -0.003668147 0 0 0 0
169287944 0.215244919 -0.408122032 -0.007368182 -0.003485728 0 0 0 0
169867444 0.2127202 -0.411249905 -0.007204908 -0.003413953 0 0 0 0
170446844 0.210232004 -0.414371907 -0.007046289 -0.003245513 0 0 0 0
171026344 0.207547545 -0.417185604 -0.006871503 -0.003122145 0 0 0 0
171605844 0.204869583 -0.420229077 -0.00677213 -0.00299288 0 0 0 0
172185244 0.201971262 -0.423148572 -0.006653914 -0.002927558 0 0 0 0
172764744 0.199453353 -0.426271528 -0.006494109 -0.002777352 0 0 0 0
173344244 0.196720123 -0.429184734 -0.006374296 -0.00265071 0 0 0 0
173923644 0.193825915 -0.431729555 -0.006256129 -0.002583512 0 0 0 0
174503144 0.1912162 -0.43481028 -0.006140585 -0.002411749 0 0 0 0
175082644 0.188425719 -0.437578111 -0.006038419 -0.002316244 0 0 0 0
175662144 0.185689583 -0.440324246 -0.005910816 -0.002227455 0 0 0 0
176241544 0.18292652 -0.443134665 -0.005810756 -0.002102796 0 0 0 0
176821044 0.180046603 -0.445846319 -0.005690121 -0.002054943 0 0 0 0
177400544 0.177381411 -0.448451906 -0.005541753 -0.001983843 0 0 0 0
177979944 0.174547597 -0.451518058 -0.005401002 -0.001868521 0 0 0 0
178559444 0.171656891 -0.453932285 -0.005352241 -0.00176791 0 0 0 0
179138944 0.168892577 -0.456750392 -0.005230338 -0.001696709 0 0 0 0
179718344 0.166220888 -0.459450781 -0.005137681 -0.001610759 0 0 0 0
180297844 0.163203656 -0.461894512 -0.005032382 -0.00156749 0 0 0 0
180877344 0.160216987 -0.464697211 -0.004979865 -0.001498066 0 0 0 0
181456744 0.157362356 -0.467117905 -0.004827994 -0.001420735 0 0 0 0
182036244 0.15485014 -0.469815284 -0.004701779 -0.001414092 0 0 0 0
182615744 0.151546776 -0.472332 -0.004656109 -0.001338473 0 0 0 0
183195144 0.148714423 -0.474856972 -0.004523417 -0.001216042 0 0 0 0
183774644 0.145734176 -0.477342635 -0.004469948 -0.001215389 0 0 0 0
184354144 0.143128976 -0.479779154 -0.004317258 -0.001165011 0 0 0 0
184933644 0.14016667 -0.482341051 -0.004219988 -0.001143735 0 0 0 0
185513044 0.137358814 -0.484753847 -0.004117053 -0.001047638 0 0 0 0
186092544 0.134352356 -0.487145751 -0.004012412 -0.001047287 0 0 0 0
186672044 0.131433919 -0.489849567 -0.004027801 -0.000916958 0 0 0 0
187251444 0.128504022 -0.491833895 -0.003881458 -0.000854767 0 0 0 0
187830944 0.125742584 -0.49452725 -0.003820562 -0.000928833 0 0 0 0
188410444 0.122631087 -0.496585905 -0.003760239 -0.000808416 0 0 0 0
188989844 0.11946886 -0.499150037 -0.003637709 -0.000744897 0 0 0 0
189569344 0.116553887 -0.501496076 -0.003636287 -0.000715145 0 0 0 0
190148844 0.113762065 -0.503761887 -0.003529561 -0.000640979 0 0 0 0
190728244 0.110634699 -0.505649983 -0.003458533 -0.00063575 0 0 0 0
191307744 0.107586354 -0.508117139 -0.003391969 -0.000548841 0 0 0 0
191887244 0.104664348 -0.510318279 -0.003351396 -0.000534419 0 0 0 0
192466744 0.101520538 -0.512419521 -0.003272472 -0.000533857 0 0 0 0
193046144 0.098384983 -0.514578104 -0.003262542 -0.000553369 0 0 0 0
193625644 0.09527377 -0.516655147 -0.003210124 -0.000478024 0 0 0 0
194205144 0.092133909 -0.518662512 -0.003086916 -0.000526419 0 0 0 0
194784544 0.089194305 -0.521035969 -0.003165998 -0.000415014 0 0 0 0
195364044 0.086324177 -0.523136377 -0.003069349 -0.000413686 0 0 0 0
195943544 0.082838326 -0.524788677 -0.003044856 -0.000352509 0 0 0 0
