!Created with skrf (http://scikit-rf.org).
# Hz S RI R 50.0 
!freq ReS11 ImS11
25000000.0 -0.9612061398733337 0.24191655373023332
30000000.0 -0.9424280661844769 0.28776608961459504
35000000.0 -0.9865332024889228 0.08084763405489032
40000000.0 -0.9850009109522104 0.11330466181202328
45000000.0 -0.9831055214811528 0.0895226179271333
50000000.0 -0.9977174754786634 0.05819930617788946
55000000.0 -1.0029438739492451 0.12155667473789733
60000000.0 -1.0026939373569586 0.13860244547338285
65000000.0 -0.9543111258703695 0.145737132076535
70000000.0 -0.9852383596906511 0.16234836832914804
75000000.0 -1.025668372878742 0.1635887445600805
80000000.0 -1.013033917246602 0.1177311192062659
85000000.0 -0.9776434434380336 0.1407684598549812
90000000.0 -0.9637703768860204 0.21489153745130082
95000000.0 -0.9573896333507561 0.20115096582702408
100000000.0 -0.9890182888480021 0.2636181369831526
105000000.0 -0.9926498963661499 0.2814177001235638
110000000.0 -0.9378479929731722 0.25838258136779485
115000000.0 -0.9015768650997953 0.20298689763293484
120000000.0 -0.9027567151593414 0.2371560072337764
125000000.0 -0.9341831232056577 0.13908298939771674
130000000.0 -0.9404555098019027 0.28823774204998287
135000000.0 -0.9146727424056298 0.32568584777746906
140000000.0 -0.9713809446079802 0.3091414010382278
145000000.0 -0.968822615877291 0.29646147481009416
150000000.0 -0.976188829594754 0.27212499672429413
155000000.0 -0.974545154518497 0.29267586613904273
160000000.0 -0.9547724817014008 0.321315121505234
165000000.0 -0.9682707891600006 0.33428929005864305
170000000.0 -0.976992177631713 0.4317924924785028
175000000.0 -0.9465495026611903 0.4553272041747813
180000000.0 -0.9099135990194689 0.39871971218507796
185000000.0 -0.8719326280243594 0.4805879449609989
190000000.0 -0.9082458635889556 0.3820591549802609
195000000.0 -0.9048290894492936 0.34443547439732214
200000000.0 -0.9137194274571699 0.3792778661762973
205000000.0 -0.9232602811851707 0.3938387172006796
210000000.0 -0.9203717434522669 0.4241706232099636
215000000.0 -0.9118468181329608 0.444906391675178
220000000.0 -0.9229134462600018 0.4662229447486197
225000000.0 -0.8738240654314878 0.47275634908683634
230000000.0 -0.8774904428515106 0.48694827837409527
235000000.0 -0.8635245762313284 0.5017983552831455
240000000.0 -0.8587398088970715 0.5005794070309683
245000000.0 -0.8613248587095284 0.4933014577656597
250000000.0 -0.8674135084306612 0.49965262466074806
255000000.0 -0.8647721182352714 0.5198094440056673
260000000.0 -0.8630144202116893 0.5334866261699159
265000000.0 -0.8513369235311786 0.5622351492326952
270000000.0 -0.8541094771145752 0.5717085757578264
275000000.0 -0.8270310740529462 0.6134599732455706
280000000.0 -0.8139467975853677 0.6303939912817902
285000000.0 -0.8082829560255127 0.630448082177848
290000000.0 -0.7958329546683147 0.6258809997695268
295000000.0 -0.7938567366609106 0.6280013205740278
300000000.0 -0.7770614132087931 0.6340464240477527
305000000.0 -0.7562537727144305 0.6442466864046742
310000000.0 -0.7450765210631685 0.6520594043247551
315000000.0 -0.7298289648011047 0.6569686255546745
320000000.0 -0.7157079842099247 0.6656780864872672
325000000.0 -0.7051522778758802 0.6775601756827335
330000000.0 -0.6950119842335871 0.694505761102832
335000000.0 -0.6829642417878782 0.7129564903743743
340000000.0 -0.669567866417242 0.7281904118174488
345000000.0 -0.6518792623355633 0.7471566406101895
350000000.0 -0.6370577206882124 0.7645254348162639
355000000.0 -0.6195575741714967 0.7962458663610649
360000000.0 -0.59107345264047 0.818584788763364
365000000.0 -0.5738792769127272 0.8226067279853787
370000000.0 -0.5534520138336589 0.8052028739268207
375000000.0 -0.5275668663910331 0.8053294787477797
380000000.0 -0.46564929630040086 0.8036654640317922
385000000.0 -0.38789533151982647 0.8140301808901901
390000000.0 -0.32490322611658906 0.8299947353403594
395000000.0 -0.26860035487639455 0.8286130882992306
400000000.0 -0.24095273605441153 0.8211922202452651
405000000.0 -0.21093969251464814 0.8071881845137961
410000000.0 -0.18125486569505841 0.7917464200990807
415000000.0 -0.154437733294831 0.7596902138998177
420000000.0 -0.1308103679664342 0.7400885680436577
425000000.0 -0.12305833807245553 0.7280748601837003
430000000.0 -0.10298868529461186 0.7251937311791866
435000000.0 -0.039429472526471325 0.7409280834892248
440000000.0 0.0810048354461611 0.7566347819530189
445000000.0 0.22753055339583872 0.7382828081652308
450000000.0 0.35014659004310056 0.6716693102068544
455000000.0 0.41756414885872006 0.5612185077476307
460000000.0 0.4974528018055519 0.3440847088347029
465000000.0 0.406982362680443 0.30213246128607985
470000000.0 0.3450371591853675 0.10897493371286618
475000000.0 0.2530257804512077 -0.04416836416584752
480000000.0 0.1207636250129909 -0.1741285508997088
485000000.0 -0.05218722812757062 -0.23606854978229488
490000000.0 -0.16734711171211414 -0.23176667079290703
495000000.0 -0.27797134926876577 -0.2699266799640999
500000000.0 -0.3659629120938627 -0.3048738679738925
505000000.0 -0.33662018634504776 -0.4130868827507007
510000000.0 -0.271702708634949 -0.4775351296919263
515000000.0 -0.20324484076684704 -0.4923207505685934
520000000.0 -0.1262002742797882 -0.45853216012450215
525000000.0 -0.0462423435183906 -0.38804294697633374
530000000.0 0.009995527354275585 -0.3169284486063904
535000000.0 0.07492662333749295 -0.25959822061591076
540000000.0 0.192531733037748 -0.24765011357745803
545000000.0 0.28496112990728983 -0.29867692790922074
550000000.0 0.3012445171051854 -0.38650365245490736
555000000.0 0.3876590102009803 -0.40766146663761227
560000000.0 0.46818386267847834 -0.3197385634025546
565000000.0 0.40859146433041377 -0.23981226994156074
570000000.0 0.3054874822298471 -0.1814877146445012
575000000.0 0.31561007281909714 -0.1865470173618887
580000000.0 0.3854333075819604 -0.2207748828280165
585000000.0 0.4772495349270096 -0.26552193258056395
590000000.0 0.556886132578058 -0.2774108884094248
595000000.0 0.6657094589161082 -0.13711067631337542
600000000.0 0.738956083864581 -0.10347154749300838
605000000.0 0.7238431357916993 -0.04808637658837371
610000000.0 0.7783664951010382 -0.0154193034642158
615000000.0 0.8295427691678499 -0.011908920086433544
620000000.0 0.8688110798819133 -0.04118275300468327
625000000.0 0.8902538614201363 -0.07470624336721404
630000000.0 0.9082280507649149 -0.09900614456430956
635000000.0 0.9217232520174075 -0.1033057354808084
640000000.0 0.931670970214734 -0.09557606945748381
645000000.0 0.9384047916192465 -0.08059339759443543
650000000.0 0.9489634884382825 -0.056254967942758624
655000000.0 0.9598587128837133 -0.022984070769291105
660000000.0 0.9693040596329547 0.02665552928572839
665000000.0 0.972404609366129 0.09327191237165124
670000000.0 0.970721945046259 0.1744866779524031
675000000.0 0.9606666453949211 0.24895416215589783
680000000.0 0.9497045578015657 0.2994749364985619
685000000.0 0.9469758401680016 0.33328767142692195
690000000.0 0.948490837092941 0.359715575138555
695000000.0 0.9517156103239809 0.3881284336542154
700000000.0 0.9528505046128372 0.4121000720828273
705000000.0 0.9550153289482793 0.42973928709155085
710000000.0 0.9595197840146388 0.4434787715500468
715000000.0 0.9618686683503436 0.4466485135291206
720000000.0 0.9722202796161765 0.4450835615640365
725000000.0 0.9810319490393735 0.44129936289717153
730000000.0 0.9805958574892999 0.44947330741321717
735000000.0 0.9732233184218965 0.4715191622697723
740000000.0 0.9630187846153617 0.5053561838865611
745000000.0 0.9526677250468965 0.533890325097257
750000000.0 0.9429034687423326 0.5588124232172048
755000000.0 0.9293485211444263 0.580519442251781
760000000.0 0.9102608284839737 0.5975616681063365
765000000.0 0.8890583929074379 0.61251270279858
770000000.0 0.8629959526151947 0.6236794441317837
775000000.0 0.8292437292964584 0.6345554767378119
780000000.0 0.7901089009383101 0.6492442427027774
785000000.0 0.7494214982409335 0.6647606689361445
790000000.0 0.722989563861193 0.6782382340283714
795000000.0 0.7236348649464955 0.6715271346233551
800000000.0 0.7566586032871143 0.6528857691039895
805000000.0 0.793343406955804 0.6102964831802511
810000000.0 0.8002321593280417 0.5639217313197541
815000000.0 0.7491399215340668 0.587591219573718
820000000.0 0.6659113263040927 0.6731824624293635
825000000.0 0.5372986316933748 0.8122202553303213
830000000.0 0.3433723819224207 0.9688202228456052
835000000.0 0.13365423119868408 1.0666657851041004
840000000.0 -0.005197606621039675 1.0948742453554314
845000000.0 -0.03958664798003571 1.0999745398948162
850000000.0 -0.028660061013801058 1.1019449274826345
855000000.0 -0.012110062169528826 1.1025920544911036
860000000.0 -0.010554913271643488 1.0993291980641149
865000000.0 -0.024071526628613053 1.095448160709748
870000000.0 -0.04622371814417063 1.0932892085369432
875000000.0 -0.06616034805275844 1.0902664132022948
880000000.0 -0.07953719407603602 1.0872328947127434
885000000.0 -0.090616757620504 1.0792648890251482
890000000.0 -0.10724208256499922 1.0672961536210372
895000000.0 -0.13069850968367241 1.0515076996118928
900000000.0 -0.1591729066743755 1.0314992898954076
905000000.0 -0.1844281247803052 1.0120557370109526
910000000.0 -0.20257077720034838 0.9958418922876543
915000000.0 -0.2160329577352555 0.9794348509310009
920000000.0 -0.23711675571754115 0.9543897287472752
925000000.0 -0.2582731061464347 0.9319037437075004
930000000.0 -0.26181248464904344 0.9196646779324568
935000000.0 -0.2502890349373555 0.9141741222660618
940000000.0 -0.23284505379092446 0.9077514969658156
945000000.0 -0.21093975037222246 0.9017930856801395
950000000.0 -0.18641076997607406 0.8951742099977036
955000000.0 -0.15799497091555176 0.8874157157958185
960000000.0 -0.12835932004749695 0.8778579981663379
965000000.0 -0.0995984752774843 0.8687683084368221
970000000.0 -0.08048983536420698 0.8523761406525968
975000000.0 -0.07037828483480763 0.8371895592438556
980000000.0 -0.06223526127098554 0.8239611338209749
985000000.0 -0.05320147761704742 0.8099584670491707
990000000.0 -0.04619106148528897 0.7982929415330657
995000000.0 -0.03631758563673101 0.785241795711393
1000000000.0 -0.02025789975178205 0.7770604549778746
1005000000.0 -0.00523285943678517 0.7680678627742297
1010000000.0 0.009116489346962645 0.7569648545301996
1015000000.0 0.02162672054552492 0.7444601690486327
1020000000.0 0.034480004615412535 0.7329361315301174
1025000000.0 0.045172321882538696 0.7209217402030851
1030000000.0 0.050920495967593016 0.7047715948706456
1035000000.0 0.055749551788586954 0.6899986271100149
1040000000.0 0.060298855472550775 0.6754496877230671
1045000000.0 0.06383847595289247 0.6599756083122705
1050000000.0 0.06969397298128568 0.6431707577949227
1055000000.0 0.07529289899287334 0.6249704703458752
1060000000.0 0.07606840727651465 0.6034481684825033
1065000000.0 0.07543985482071908 0.5780959652962632
1070000000.0 0.06991515964732903 0.5519937745377956
1075000000.0 0.0602938406004295 0.5261795714105266
1080000000.0 0.049380864227086346 0.5058884432027795
1085000000.0 0.038541422265408104 0.4845456282490102
1090000000.0 0.02874274723205278 0.46301529134145125
1095000000.0 0.015604688571399405 0.4448760727046718
1100000000.0 0.0011676051436294577 0.4251235430104067
1105000000.0 -0.006746503732835529 0.40769679941459713
1110000000.0 -0.015665502703673256 0.3926087768475277
1115000000.0 -0.039225296249069064 0.3742267494799556
1120000000.0 -0.06568536183051883 0.35854142834055736
1125000000.0 -0.09360426772439132 0.3466126047524485
1130000000.0 -0.11758071814362822 0.33682474255515493
1135000000.0 -0.13644825396025562 0.33027223383281135
1140000000.0 -0.15846005534661436 0.3232213507605374
1145000000.0 -0.18261003412291102 0.3143323472414497
1150000000.0 -0.20381134476797894 0.308956570047803
1155000000.0 -0.2236452501942473 0.3060082408626679
1160000000.0 -0.24176244825896842 0.305740900138584
1165000000.0 -0.25893018619264274 0.30752283423737853
1170000000.0 -0.2720495209868647 0.31191331261401917
1175000000.0 -0.283158937147728 0.3172768673029764
1180000000.0 -0.2901730718325507 0.32278233732716816
1185000000.0 -0.29367677341083276 0.3296951710966967
1190000000.0 -0.2930734727830477 0.3389574051451576
1195000000.0 -0.2870900328023202 0.34928581678795967
1200000000.0 -0.28002144220890857 0.3564339975246725
1205000000.0 -0.26980926999514737 0.36138285554940835
1210000000.0 -0.2551273551884794 0.36236534233750084
1215000000.0 -0.23361117487568814 0.3603472717976935
1220000000.0 -0.2158189406410239 0.35146016349274034
1225000000.0 -0.2090124353438546 0.3312638496728992
1230000000.0 -0.22462821465987662 0.30422151046770746
1235000000.0 -0.2572869884167327 0.2725499897454675
1240000000.0 -0.29154627055816595 0.24618634473180326
