# Hz S RI R 50
300000000 1.91096127 0.734294831
300993300 -0.235829129 0.277532696
301986700 -0.248654574 0.29482451
302980100 1.62393856 -0.422290056
303973500 0.817768931 -0.544957697
304966800 0.814000546 -0.546709239
305960200 0.808159828 -0.541060686
306953600 0.802276194 -0.548038601
307947000 0.802511811 -0.554411709
308940300 0.797757565 -0.558684766
309933700 0.796673536 -0.562402069
310927100 0.798405647 -0.56409955
311920500 0.795116901 -0.566884338
312913800 0.793452739 -0.57120788
313907200 0.791445791 -0.567103564
314900600 0.787356913 -0.571386814
315894000 0.784834444 -0.578448355
316887300 0.782791674 -0.578755974
317880700 0.780098378 -0.581891179
318874100 0.776048541 -0.586231529
319867500 0.774476587 -0.590746998
320860800 0.76789534 -0.592061758
321854200 0.767164409 -0.597405552
322847600 0.767136752 -0.601704895
323841000 0.764987885 -0.603772938
324834400 0.764311611 -0.607508003
325827700 0.756602764 -0.610821604
326821100 0.753764569 -0.61470735
327814500 0.7522161 -0.61648035
328807900 0.752333819 -0.618995487
329801200 0.746771156 -0.621830642
330794600 0.743257343 -0.625017404
331788000 0.741229295 -0.626315057
332781400 0.73905754 -0.630431354
333774700 0.737698376 -0.633954346
334768100 0.729258954 -0.638035774
335761500 0.728876292 -0.6409446
336754900 0.725585341 -0.644875645
337748200 0.720462143 -0.647182226
338741600 0.717475116 -0.65004754
339735000 0.713685333 -0.653025329
340728400 0.706393778 -0.655160844
341721700 0.708792805 -0.66279608
342715100 0.69979912 -0.660334587
343708500 0.696301281 -0.668700456
344701900 0.690644919 -0.670605659
345695200 0.683645188 -0.672530233
346688600 0.681948661 -0.678183376
347682000 0.679214596 -0.680758535
348675400 0.675382137 -0.684372246
349668800 0.673511743 -0.686366558
350662100 0.66461724 -0.689718008
351655500 0.659954071 -0.693322122
352648900 0.655365526 -0.697540044
353642300 0.649331152 -0.705201864
354635600 0.643627703 -0.702885031
355629000 0.639742016 -0.709417819
356622400 0.635891735 -0.715148389
357615800 0.631409466 -0.711906492
358609100 0.626257359 -0.718174874
359602500 0.615350186 -0.719440519
360595900 0.611782431 -0.723800182
361589300 0.606308281 -0.72386986
362582600 0.598324894 -0.725260794
363576000 0.595841705 -0.727955877
364569400 0.585635662 -0.731716752
365562800 0.578971266 -0.72751379
366556100 0.572839677 -0.735703527
367549500 0.564928293 -0.740353703
368542900 0.558305323 -0.742238283
369536300 0.548547565 -0.742979347
370529600 0.545051693 -0.752043128
371523000 0.535358428 -0.748596012
372516400 0.528754055 -0.75242865
373509800 0.520438671 -0.750598967
374503200 0.514595806 -0.754226624
375496500 0.503408551 -0.7533077
376489900 0.496618181 -0.751010894
377483300 0.485270351 -0.752441465
378476700 0.477866709 -0.7519207
379470000 0.467740476 -0.749057948
380463400 0.459623843 -0.749468445
381456800 0.454694241 -0.74921596
382450200 0.447920799 -0.746807217
383443500 0.440906375 -0.746648788
384436900 0.434670686 -0.744839549
385430300 0.423777937 -0.741083681
386423700 0.416870117 -0.74008429
387417000 0.408980906 -0.737415134
388410400 0.402818441 -0.735254704
389403800 0.395984411 -0.732443451
390397200 0.386240273 -0.731479108
391390500 0.378613173 -0.728094398
392383900 0.37135902 -0.726653456
393377300 0.365981698 -0.721556007
394370700 0.357018649 -0.716280102
395364000 0.349815994 -0.712351679
396357400 0.343667268 -0.706423401
397350800 0.339817404 -0.702410697
398344200 0.333833485 -0.69675064
399337600 0.329937607 -0.691349148
400331072 0.325924128 -0.686707258
401324372 0.323124289 -0.680657625
402317772 0.320374578 -0.67537415
403311172 0.316791296 -0.669142663
404304572 0.319642871 -0.663169085
405297872 0.319612413 -0.660485863
406291272 0.320159226 -0.6566841
407284672 0.314934551 -0.658084213
408278072 0.318242341 -0.656886041
409271372 0.317513495 -0.658352613
410264772 0.315311729 -0.656565189
411258172 0.313162326 -0.65947318
412251572 0.315617084 -0.661850392
413244872 0.307575255 -0.663939177
414238272 0.308928072 -0.665322184
415231672 0.304123789 -0.670197367
416225072 0.299217224 -0.674155712
417218372 0.292044371 -0.676349401
418211772 0.286271929 -0.68211776
419205172 0.282041251 -0.685450673
420198572 0.275934338 -0.692429721
421191872 0.264158189 -0.693789958
422185272 0.254938244 -0.696513354
423178672 0.248777121 -0.700442671
424172072 0.23611626 -0.698794603
425165472 0.227224737 -0.701410114
426158772 0.215875834 -0.700819015
427152172 0.209283202 -0.702851057
428145572 0.196868598 -0.706250548
429138972 0.186205238 -0.709265053
430132272 0.171615213 -0.712037444
431125672 0.162479251 -0.709629833
432119072 0.148562788 -0.706725239
433112472 0.136647999 -0.706221163
434105772 0.12053629 -0.704011142
435099172 0.105379678 -0.703087747
436092572 0.090202562 -0.698814749
437085972 0.075101532 -0.694926738
438079272 0.058148298 -0.68923223
439072672 0.04459973 -0.684694707
440066072 0.027627041 -0.679786264
441059472 0.013672613 -0.671814978
442052772 -0.001995177 -0.664269268
443046172 -0.018608726 -0.655323326
444039572 -0.034332867 -0.646610498
445032972 -0.048715591 -0.633688628
446026272 -0.065880388 -0.621767342
447019672 -0.080624468 -0.607827484
448013072 -0.093640603 -0.593609869
449006472 -0.109893128 -0.579903125
449999872 -0.120448254 -0.567209899
450993172 -0.133533656 -0.549453675
451986572 -0.146600291 -0.533824801
452979972 -0.156579017 -0.517660439
453973372 -0.169225528 -0.500559329
454966672 -0.179770246 -0.481512069
455960072 -0.190781876 -0.464100003
456953472 -0.197425141 -0.446166187
457946872 -0.203161746 -0.427434176
458940172 -0.21205008 -0.410025238
459933572 -0.218007728 -0.393214404
460926972 -0.226394519 -0.375511527
461920372 -0.233102485 -0.355349183
462913672 -0.241949677 -0.338726907
463907072 -0.250757306 -0.319776266
464900472 -0.258696347 -0.298547923
465893872 -0.26431486 -0.277565807
466887172 -0.268846422 -0.253003865
467880572 -0.272114813 -0.230716601
468873972 -0.277964442 -0.205303266
469867372 -0.280314087 -0.180131927
470860672 -0.278725981 -0.153072327
471854072 -0.280688494 -0.125369846
472847472 -0.277944833 -0.100159071
473840872 -0.273649573 -0.075350753
474834272 -0.265827894 -0.047325633
475827572 -0.257150977 -0.022440759
476820972 -0.248648628 0.002361311
477814372 -0.238071292 0.024961147
478807772 -0.227301105 0.045890484
479801072 -0.220219269 0.069541431
480794472 -0.20921202 0.086468435
481787872 -0.199229627 0.110280707
482781272 -0.186617732 0.137030273
483774572 -0.173898831 0.157694786
484767972 -0.158309653 0.178103357
485761372 -0.142434328 0.200174495
486754772 -0.124629862 0.21979697
487748072 -0.106367386 0.238079875
488741472 -0.087447367 0.251762956
489734872 -0.067711845 0.268156826
490728272 -0.051803432 0.281297534
491721572 -0.034191556 0.296798527
492714972 -0.013537752 0.309436023
493708372 0.00405197 0.324865162
494701772 0.024742702 0.337347745
495695072 0.044187892 0.349669218
496688472 0.063785374 0.36211735
497681872 0.085779376 0.371898263
498675272 0.107927918 0.384791821
499668672 0.13041006 0.391176819
500662144 0.155250653 0.403359383
501655444 0.180166929 0.408349752
502648844 0.203671902 0.411417573
503642244 0.227700784 0.416053175
504635644 0.249807313 0.418242186
505628944 0.274258553 0.421224087
506622344 0.297914236 0.420124411
507615744 0.319562137 0.415872305
508609144 0.338443577 0.41833803
509602444 0.359463483 0.412258088
510595844 0.379369884 0.410665631
511589244 0.398723542 0.403081268
512582644 0.417524725 0.399612486
513576044 0.434446156 0.392753392
514569344 0.451192796 0.386477172
515562744 0.467814236 0.38068062
516556144 0.482071101 0.374010652
517549544 0.495860517 0.367457926
518542844 0.510798573 0.364211082
519536244 0.516744017 0.364714682
520529644 0.536220252 0.349274158
521523044 0.549676477 0.340008676
522516344 0.565433919 0.334137231
523509744 0.57541573 0.30047661
524503144 0.587427258 0.319371104
525496544 0.599317908 0.311463624
526489944 0.610637903 0.303235858
527483244 0.651640534 0.326166421
528476644 0.629213035 0.285596758
529470044 0.636024653 0.279636412
530463444 0.644147396 0.269290238
531456744 0.628723323 0.27671349
532450144 0.660657644 0.253917574
533443544 0.667637109 0.250226169
534436944 0.672257959 0.245980724
535430244 0.680977225 0.238459438
536423644 0.687094628 0.229653194
537417044 0.695831179 0.225918039
538410444 0.703679144 0.218758732
539403844 0.712504088 0.213828772
540397144 0.719384312 0.20602259
541390544 0.728087544 0.202729761
542383944 0.733980774 0.197621047
543377344 0.743792474 0.186689704
544370644 0.748574912 0.18156822
545364044 0.751616597 0.171445518
546357444 0.760438144 0.167593389
547350844 0.765433907 0.160616219
548344144 0.771514236 0.153522238
549337544 0.778316199 0.145235896
550330944 0.78261578 0.136933833
551324344 0.788850843 0.13112913
552317744 0.790993332 0.122259661
553311044 0.794656991 0.11899928
554304444 0.800896286 0.110413357
555297844 0.802408218 0.100678682
556291244 0.809417188 0.097369417
557284544 0.813998043 0.092930048
558277944 0.817158043 0.08755815
559271344 0.818712234 0.078667633
560264744 0.822776496 0.069737702
561258044 0.827709972 0.06559024
562251444 0.833109259 0.056110955
563244844 0.834454834 0.051497824
564238244 0.838343143 0.045400895
565231644 0.839375674 0.037052556
566224944 0.849881827 0.029977986
567218344 0.847456634 0.021313467
568211744 0.852416336 0.021907329
569205144 0.851950883 0.013081593
570198444 0.856013417 0.005801931
571191844 0.861216068 -0.003805594
572185244 0.865945041 -0.008486713
573178644 0.865664601 -0.012822584
574171944 0.865948855 -0.019272118
575165344 0.867601513 -0.026969168
576158744 0.86698687 -0.031222572
577152144 0.8695091 -0.040257114
578145544 0.871518075 -0.046316456
579138844 0.873190939 -0.050895869
580132244 0.875273048 -0.05855441
581125644 0.880240559 -0.062366425
582119044 0.881438195 -0.069134362
583112344 0.879926741 -0.074656747
584105744 0.889277279 -0.0839428
585099144 0.888059794 -0.086751386
586092544 0.882895827 -0.095059141
587085844 0.885109007 -0.09815149
588079244 0.888477921 -0.106523185
589072644 0.884992301 -0.106970235
590066044 0.887400686 -0.117168001
591059444 0.889885902 -0.121989779
592052744 0.889954328 -0.128307506
593046144 0.888659894 -0.132336318
594039544 0.88895899 -0.13995108
595032944 0.893699765 -0.142029687
596026244 0.886419892 -0.146477371
597019644 0.891405284 -0.153265655
598013044 0.887017011 -0.160347208
599006444 0.888385236 -0.16053757
599999844 0.889317929 -0.167604714
