!Created with skrf (http://scikit-rf.org).
# Hz S RI R 50.0 
!freq ReS11 ImS11
300000000.0 -0.7646841182207987 0.6451402373992737
301220000.0 -0.7567184995608768 0.644960167565347
302450000.0 -0.748907397232183 0.645728105126119
303670000.0 -0.7412618416860819 0.645400185412661
304900000.0 -0.7350330136856752 0.6459855152736733
306120000.0 -0.729712535294946 0.6453398899268703
307350000.0 -0.725467019435146 0.6438163193494515
308570000.0 -0.7223586975439436 0.642033528079449
309800000.0 -0.7205635255140618 0.6403470953385801
311020000.0 -0.7176629530843309 0.636028909012294
312240000.0 -0.7152247334246379 0.6332733920309548
313470000.0 -0.7142735015791928 0.6321728377112409
314690000.0 -0.7132225657387318 0.6308466812186835
315920000.0 -0.711238182223124 0.6307485363946895
317140000.0 -0.7100134319405464 0.6320014208025557
318370000.0 -0.7094309736964852 0.634875587420901
319590000.0 -0.7079541876898111 0.6359596336152062
320820000.0 -0.706519066592365 0.6369374130563887
322040000.0 -0.7062154807632893 0.6396259440609808
323270000.0 -0.7059286932197038 0.641036347246831
324490000.0 -0.7060769167876542 0.6446360482181401
325710000.0 -0.7062750549401458 0.649457753152459
326940000.0 -0.7049059901454332 0.6520742885546067
328160000.0 -0.7048887892171708 0.6558534489599059
329390000.0 -0.705191950052584 0.6573055757707453
330610000.0 -0.7036662657385979 0.6614696252755469
331840000.0 -0.7013234556780971 0.6643724557131045
333060000.0 -0.7007294373288158 0.6693877529300495
334290000.0 -0.6995333473079745 0.6738301327593719
335510000.0 -0.6981105055359633 0.6786977890607766
336730000.0 -0.6968335023293052 0.6832870745801383
337960000.0 -0.6945704321552362 0.6880877298487634
339180000.0 -0.6925530219935115 0.6929802218537452
340410000.0 -0.6869905066475717 0.6982613566309877
341630000.0 -0.6836007338715789 0.7042545058960019
342860000.0 -0.6804792427863886 0.7082451958152988
344080000.0 -0.6774478371027923 0.7131145899381652
345310000.0 -0.6742329504138008 0.7184142453246898
346530000.0 -0.6710254563517944 0.7232249083330958
347760000.0 -0.6675777070196396 0.7292154868334736
348980000.0 -0.6635731060727386 0.7358554769645411
350200000.0 -0.6579208807539413 0.7403348006987645
351430000.0 -0.6527028975742333 0.7451907737631037
352650000.0 -0.6494007544316113 0.7550805072438955
353880000.0 -0.6473536100173721 0.7633020516194516
355100000.0 -0.6461407915022617 0.7642612587785286
356330000.0 -0.6455397439379438 0.7716192854802582
357550000.0 -0.6447103824345667 0.7782439281634308
358780000.0 -0.6306607662081222 0.7849443625999143
360000000.0 -0.6272855864692674 0.7841153703467769
361220000.0 -0.6235327905685215 0.7843930036283424
362450000.0 -0.6199999968804368 0.7795526968654194
363670000.0 -0.6219826806006523 0.7781657012682832
364900000.0 -0.6245140216959766 0.7796593499290169
366120000.0 -0.6233465281179363 0.7803603183132395
367350000.0 -0.6191130800247442 0.7726585995533115
368570000.0 -0.6172428145765063 0.7612155709184935
369800000.0 -0.6201331591887111 0.7514763600684521
371020000.0 -0.6224622263514288 0.7547568474620984
372240000.0 -0.6181393896320098 0.7580991539580543
373470000.0 -0.6136654519016992 0.7549054402533345
374690000.0 -0.608495010324988 0.7578822223192124
375920000.0 -0.5985910776775762 0.7625432596731805
377140000.0 -0.5806076484945877 0.7651542822870498
378370000.0 -0.5589810713934531 0.7700924736602042
379590000.0 -0.538789298823405 0.7778456733142728
380820000.0 -0.5145138818346127 0.7868887204900805
382040000.0 -0.4869120646490724 0.7993133169197629
383270000.0 -0.4676277407574115 0.8069358110389316
384490000.0 -0.4409414627814424 0.8104046188457777
385710000.0 -0.42533432720159536 0.8167625732333772
386940000.0 -0.40267239230929125 0.8276912953981508
388160000.0 -0.38513960845895284 0.8299887203043311
389390000.0 -0.3674599062268835 0.8331510872687695
390610000.0 -0.35067063490866907 0.8397646799445222
391840000.0 -0.3322269509734719 0.8371416540593913
393060000.0 -0.3136934174178381 0.8383171910178011
394290000.0 -0.2979552131176314 0.839676967471348
395510000.0 -0.28366619065418414 0.8394629807643629
396730000.0 -0.2710020254762304 0.8397939611424413
397960000.0 -0.256062725581609 0.8414205564746254
399180000.0 -0.2445096210725276 0.8406057008289273
400410000.0 -0.23376299325714078 0.8325360663450695
401630000.0 -0.22451842900806693 0.8316734214956566
402860000.0 -0.21422695109358383 0.8280428164762732
404080000.0 -0.20583099705327407 0.8216265627960465
405310000.0 -0.19580062964159387 0.8145196673285059
406530000.0 -0.18590887342857954 0.8059927643231625
407750000.0 -0.17888345618681514 0.7964481756449792
408980000.0 -0.1688733667931559 0.7847855280275349
410200000.0 -0.15768119957498755 0.7762524394530298
411430000.0 -0.14712610462536374 0.7605228521789669
412650000.0 -0.13824387853579756 0.747316573849632
413880000.0 -0.13123268258128432 0.7346903390748222
415100000.0 -0.12628755088099022 0.7197647483715057
416330000.0 -0.1238341208187876 0.7070145743692758
417550000.0 -0.12408523157268321 0.6929359944718327
418780000.0 -0.12718077259576224 0.6805970065053054
420000000.0 -0.131702280443786 0.6688842209818292
421220000.0 -0.13753945489967745 0.6589791165080525
422450000.0 -0.14437720910668295 0.6511491280815612
423670000.0 -0.1523211827045462 0.6443016946987465
424900000.0 -0.16115478500690109 0.636874290378303
426120000.0 -0.17151788019080158 0.6312053507459382
427350000.0 -0.183082914505998 0.6278091489045587
428570000.0 -0.19456979557381057 0.6249311423106292
429800000.0 -0.20590347773182832 0.6238821338745648
431020000.0 -0.2163249782995506 0.6257646391136378
432240000.0 -0.22431495669190277 0.631264586599983
433470000.0 -0.22973658676490977 0.6402619772605618
434690000.0 -0.2305144430522761 0.6514096667436307
435920000.0 -0.22772186392628474 0.6673155487632161
437140000.0 -0.21903221680403553 0.684919219867727
438370000.0 -0.20568805389585917 0.7055936612918999
439590000.0 -0.18775205833815561 0.7258888107811697
440820000.0 -0.16521941264315393 0.7453438861368762
442040000.0 -0.1390411234011141 0.7643306859529543
443270000.0 -0.10772986553602384 0.7830196242407335
444490000.0 -0.0725523819848608 0.7989582804969678
445710000.0 -0.03273812965630319 0.8136697367299455
446940000.0 0.01038224525535178 0.8242927339388182
448160000.0 0.05754749363070567 0.8298481878256049
449390000.0 0.10587289703097832 0.830523435173269
450610000.0 0.15526721916347475 0.8245301014679784
451840000.0 0.20424719059343116 0.8098788480906297
453060000.0 0.24614693998534623 0.789712081295682
454290000.0 0.27718682573587244 0.7643192008377838
455510000.0 0.2923681890149611 0.7336198445832385
456730000.0 0.2902469457592913 0.7104085459899209
457960000.0 0.28041038366119636 0.6944004350068984
459180000.0 0.2841834528092003 0.6868292810796343
460410000.0 0.3063925608644065 0.6827370892508504
461630000.0 0.3347716797176402 0.6714374523406793
462860000.0 0.3583596335907988 0.6449621243531085
464080000.0 0.378181305057504 0.6020234697327318
465310000.0 0.3922547535930996 0.5487512016133496
466530000.0 0.40219138640929375 0.48877617390745587
467750000.0 0.40437871723478674 0.4288095654055119
468980000.0 0.3998939626168984 0.37738835100312645
470200000.0 0.3810757932408938 0.34560235410520557
471430000.0 0.3590971598705498 0.32108123572040104
472650000.0 0.35167977233232495 0.2791213923076631
473880000.0 0.3490791795328928 0.22766488834419818
475100000.0 0.3435133083958118 0.17367357068632325
476330000.0 0.33366462460146024 0.12269007207055174
477550000.0 0.31898837557108833 0.07710378994751603
478780000.0 0.30056906212254897 0.032311643973071125
480000000.0 0.27823464605408604 -0.011665342633386196
481220000.0 0.2519270732178069 -0.05592880136755771
482450000.0 0.22023127809619725 -0.09889503902148003
483670000.0 0.18560311398587181 -0.1377206956142539
484900000.0 0.1503541277054894 -0.17143218733093374
486120000.0 0.11516619179416873 -0.19873550854406782
487350000.0 0.07689383927227768 -0.2217113529249249
488570000.0 0.02897957593503199 -0.23915863075132526
489800000.0 -0.029666829652526525 -0.24533792867046975
491020000.0 -0.08258191894458108 -0.24758181752161312
492240000.0 -0.12472076617406244 -0.2534863504949441
493470000.0 -0.15937966309182605 -0.26411458951465544
494690000.0 -0.1903005572059146 -0.2737120572956679
495920000.0 -0.2205294393676293 -0.28053122811227127
497140000.0 -0.2525176176191025 -0.2805866853327661
498370000.0 -0.28338771787831585 -0.2771873123480968
499590000.0 -0.3103827451584059 -0.27317915139861404
500820000.0 -0.3314158224245184 -0.27047758057236726
502040000.0 -0.34565308692306485 -0.27268697325478547
503260000.0 -0.37130925858795016 -0.2587706004192782
504490000.0 -0.3868999933648235 -0.25436199790396696
505710000.0 -0.4049037581086089 -0.2449066753600221
506940000.0 -0.422696257652176 -0.23263099317919456
508160000.0 -0.4409603564115865 -0.2184937912956603
509390000.0 -0.45658469426436443 -0.20590789154728595
510610000.0 -0.47286159354536494 -0.19329289930239918
511840000.0 -0.4867916302881424 -0.18188414596590827
513059999.99999994 -0.49912372840348035 -0.1721496774481772
514289999.99999994 -0.5107566557072727 -0.1622279948036899
515510000.0 -0.5216591353158055 -0.15235038304492454
516730000.0 -0.5321859527297677 -0.14289524455544006
517960000.00000006 -0.541127547548154 -0.1318626429314993
519179999.99999994 -0.5491888473515536 -0.1204942349021322
520409999.99999994 -0.5593562890103834 -0.10222853695439764
521630000.0 -0.5690395056622859 -0.0919190534152787
522860000.0 -0.574157402944912 -0.08060091114616967
524080000.00000006 -0.5796194816326163 -0.06936105354660217
525309999.99999994 -0.5868609085866847 -0.05749130924902393
526530000.0 -0.5914040738631544 -0.04581955386438896
527750000.0 -0.5957612463351696 -0.035367226638606836
528980000.0 -0.5971347997745399 -0.029894107863399105
530200000.00000006 -0.5940768150841755 -0.026189413189269983
531429999.99999994 -0.5959828887827042 -0.01752734750634033
532650000.0 -0.6062909567243142 -0.007675568001979882
533880000.0 -0.6114361953891165 -0.0013554220627929603
535100000.0 -0.6129418987266766 0.0020182237144812654
536330000.00000006 -0.6126987260515264 0.0050644182518623515
537550000.0 -0.6110715600043815 0.007281919571704959
538780000.0 -0.611497874212642 0.0027456230844553897
540000000.0 -0.6194329302713226 -0.002305565615045413
541220000.0 -0.6246988445119395 -0.008643656309863135
542450000.0 -0.6413700109287598 -0.00875713451340468
543670000.0 -0.6586486599497364 -0.011229439805755442
544900000.0 -0.679547456600921 -0.010981749852745137
546120000.0 -0.695921468716836 6.927047935945119e-05
547350000.0 -0.7130061977660413 0.0025419269529045607
548570000.0 -0.7300168646304915 0.00782979748808639
549800000.0 -0.7521961908242927 0.016426949940887697
551020000.0 -0.7737329124560753 0.023043989491361286
552240000.0 -0.7783469983917713 0.008404924391480478
553470000.0 -0.7778033940442513 0.006662619274494101
554690000.0 -0.7722185038617491 0.010026413027872435
555920000.0 -0.7714776276341812 0.017681197613883988
557140000.0 -0.7690710074781475 0.02316473069372379
558370000.0 -0.7655258498304474 0.03446651272924468
559590000.0 -0.7658313058977123 0.0515556023528992
560820000.0 -0.7837070551532612 0.07535088772831913
562040000.0 -0.7796757888893613 0.10479147170032646
563260000.0 -0.7824910599695774 0.1409194668289177
564490000.0 -0.7940881376091666 0.17510040483768474
565710000.0 -0.7973395776410991 0.19961847166532998
566940000.0 -0.807690634466808 0.23740663068595974
568160000.0 -0.7833534715188992 0.24709405761995967
569390000.0 -0.7952625424639537 0.2507615002028644
570610000.0 -0.8117323989578455 0.26210510672673243
571840000.0 -0.8164881114399658 0.26331066552568816
573060000.0 -0.8254584245590233 0.2610683937869934
574290000.0 -0.8247687550147892 0.25914103872330035
575510000.0 -0.835834311151913 0.2595219855609113
576730000.0 -0.8281452087378689 0.26157092620310063
577960000.0 -0.8406533353344545 0.258996664487358
579180000.0 -0.8432555240971098 0.25999395015238397
580410000.0 -0.8437500841381758 0.2572117773128987
581630000.0 -0.8451246034256031 0.2662713338133136
582860000.0 -0.8414756013270739 0.27208569430168134
584080000.0 -0.8435538201851205 0.26809537546857704
585310000.0 -0.8472645871061246 0.27211501998773197
586530000.0 -0.8423688408431708 0.27967894883517913
587750000.0 -0.8492365057508977 0.28135898039010904
588980000.0 -0.8465985742939779 0.2895772602564042
590200000.0 -0.8508026357235187 0.29676918641580524
591430000.0 -0.9040716197475989 0.06797992891807175
592650000.0 -0.9067780155421252 0.058735068387781225
593880000.0 -0.9134062758496456 0.07389901184550321
595100000.0 -0.9060201083952426 0.09087255103753179
596330000.0 -0.90406332322266 0.10486596117320172
597550000.0 -0.9005602914275832 0.12546304904101088
598770000.0 -0.9032453283562294 0.14462872282004882
