!Created with skrf (http://scikit-rf.org).
# Hz S RI R 50.0 
!freq ReS11 ImS11
25000000.0 0.02084432703841499 0.05037285412776491
30000000.0 0.024273489106842343 0.022598733741854074
35000000.0 0.021937417299419282 0.013631676519002676
40000000.0 0.028879408043556792 0.009964005548658478
45000000.0 0.018001634797256784 -0.03163951515257367
50000000.0 0.012617579198344844 -0.04636900833034456
55000000.0 -0.01382528300895508 -0.07187041004035025
60000000.0 -0.037165352349302044 -0.07873439084337021
65000000.0 -0.045858036827882684 -0.09259427277621303
70000000.0 0.003155671465543991 -0.09610741724764521
75000000.0 0.0015334210770251294 -0.10179037764840532
80000000.0 0.031192257159653777 -0.1189076612834799
85000000.0 0.020627351990917815 -0.10949761914986897
90000000.0 0.023341907046251983 -0.11001539195885934
95000000.0 0.03332742721008333 -0.08976687522943731
100000000.0 0.01537694526097639 -0.07750399235617117
105000000.0 0.0019790802503772825 -0.041632080053688694
110000000.0 0.02901675637921327 -0.04987638049543377
115000000.0 0.009769709477872812 -0.04144125884164959
120000000.0 0.03594185853110732 -0.07200230761838862
125000000.0 0.06368560845377605 -0.07595675820167282
130000000.0 0.12853733038750417 -0.056550984627946874
135000000.0 0.1666097113349909 -0.0357373245592572
140000000.0 0.16610600641713077 -0.008772711475233397
145000000.0 0.1760530236283868 0.0011553727793068846
150000000.0 0.18231801036597053 -0.002445562731956785
155000000.0 0.19436194763086723 0.02004666762844881
160000000.0 0.22722258769035575 0.03879938901115512
165000000.0 0.2857827964766899 0.030863223845995942
170000000.0 0.32279286780611516 0.043807163626681966
175000000.0 0.35421738394287816 0.060048651787628624
180000000.0 0.3632114083082575 0.016705181468063844
185000000.0 0.3522673517367252 0.03255902610906055
190000000.0 0.3934550929889403 0.0018737376823521681
195000000.0 0.33817679480864393 -0.04123477709079573
200000000.0 0.32101034361025277 -0.07743178104589982
205000000.0 0.3166668642131574 -0.11050522861019804
210000000.0 0.3121478285137186 -0.11848933192751226
215000000.0 0.3080608878923606 -0.12932925495469894
220000000.0 0.2764412248820788 -0.14286275301859253
225000000.0 0.2999101294089616 -0.14468515201843285
230000000.0 0.26830203755224274 -0.1404388440964609
235000000.0 0.25009874831027473 -0.13518304509971818
240000000.0 0.23321281032326183 -0.1304586028082758
245000000.0 0.21793964757650464 -0.1268867761399801
250000000.0 0.19869888729148932 -0.12720880282353506
255000000.0 0.1799505044440176 -0.12018740842528651
260000000.0 0.1600557645751953 -0.10581529706045895
265000000.0 0.14250855462157241 -0.0863485494676157
270000000.0 0.12707950698180548 -0.07768864678963583
275000000.0 0.11768842937988194 -0.06612230251340732
280000000.0 0.11921009302899685 -0.04073948314099725
285000000.0 0.11564277891808833 -0.015387576109277046
290000000.0 0.11045211322539272 0.01318686403522347
295000000.0 0.11058013829708575 0.036642374884558584
300000000.0 0.11618407922098785 0.055066546122581564
305000000.0 0.12339975470949807 0.06802776600192353
310000000.0 0.12846154763061846 0.07633081834224531
315000000.0 0.12999273332274794 0.08406682412578187
320000000.0 0.12670323146692736 0.09704550534855932
325000000.0 0.11807795106417103 0.11156577190007239
330000000.0 0.11270369989890056 0.12104226091293628
335000000.0 0.10960762441755953 0.12887070030797063
340000000.0 0.10306119319386281 0.1381369450937442
345000000.0 0.09114240537034286 0.1481097216997344
350000000.0 0.079726786701773 0.15650091058234955
355000000.0 0.08635495483144295 0.1538091783218697
360000000.0 0.11452465680920854 0.1340089187069751
365000000.0 0.1259678475612417 0.102741832976952
370000000.0 0.11844688002581212 0.07191387140880967
375000000.0 0.09900646313735562 0.08864209703894897
380000000.0 0.07298775001522648 0.08213729157056396
385000000.0 0.05285564904189949 0.03230389581374046
390000000.0 0.043043415216755046 -0.024251701772618775
395000000.0 0.0321412276949259 -0.0567810113572543
400000000.0 0.01781318180574227 -0.06757051607770448
405000000.0 0.00021359763894908748 -0.07022028576026892
410000000.0 -0.01995174694082624 -0.05964908880235405
415000000.0 -0.033725625635725565 -0.041151312151099934
420000000.0 -0.04056519219822913 -0.02494905554430704
425000000.0 -0.042174979875885005 -0.010803042974372457
430000000.0 -0.04031958613987842 0.0010198526270446817
435000000.0 -0.038543744462326904 0.012377189082273657
440000000.0 -0.03554607996117633 0.022033501630392055
445000000.0 -0.0296612051350075 0.028494867600373695
450000000.0 -0.02260443159562847 0.03216093077978869
455000000.0 -0.01607797719617271 0.03405332170408329
460000000.0 -0.01128868921357587 0.031606033861321825
465000000.0 -0.009078886115433171 0.02347177869728333
470000000.0 -0.009057218394696975 0.019182724793167044
475000000.0 -0.008970276490674445 0.01821036015825892
480000000.0 -0.01003068135751943 0.018076051037775556
485000000.0 -0.013043605676293424 0.01963809147186321
490000000.0 -0.01899036825860337 0.023987127258058072
495000000.0 -0.027900991361140888 0.03300636687319364
500000000.0 -0.040958551879932165 0.053542513654931734
505000000.0 -0.0535106014957518 0.09981489250320308
510000000.0 -0.0018771753137688807 0.09940812139350928
515000000.0 0.04220082668207803 -0.012985446379565418
520000000.0 0.044737656747880744 -0.06527335985034112
525000000.0 0.08036345692679797 -0.07097598382255543
530000000.0 0.10540960374451279 -0.07016426804507939
535000000.0 0.08453751276031118 -0.034593402786251656
540000000.0 0.09867319840479288 -0.022467830296802993
545000000.0 0.08737294019032206 0.01528722901797576
550000000.0 0.07254970724246436 0.04225810568678609
555000000.0 0.089348169837454 -0.011087257281623304
560000000.0 0.08843310357561686 -0.04845715153978531
565000000.0 0.1320471846724554 -0.05620693021291021
570000000.0 0.17674598516998538 -0.006179970950564231
575000000.0 0.16398675005896174 0.000308098933458234
580000000.0 0.16522730735166505 -1.84661716205875e-05
585000000.0 0.13862405739375358 -0.05129146003323329
590000000.0 0.1607445754184046 -0.02759068698807164
595000000.0 0.08525688193295698 -0.05388716671947316
600000000.0 0.09303730124273013 -0.049957254881163315
605000000.0 0.06864923647440464 -0.023929703264225097
610000000.0 0.07785873313638408 -0.03422374956471562
615000000.0 0.09321611407098487 -0.03929161548557267
620000000.0 0.10852744486915512 -0.0359230653452325
625000000.0 0.11454337013641927 -0.009071690059963002
630000000.0 0.11178256037543449 0.01767001828023575
635000000.0 0.10590256430766581 0.039014300338095186
640000000.0 0.09873353631361875 0.05721999388847711
645000000.0 0.10009225702974835 0.059312670477629816
650000000.0 0.1041187766577801 0.08067421877431068
655000000.0 0.1122162765645621 0.0993212601219797
660000000.0 0.12216467759364082 0.12906755248700016
665000000.0 0.1424885127139949 0.150431054991298
670000000.0 0.1691281516616152 0.16659544066414458
675000000.0 0.19381920021362137 0.18139357992900315
680000000.0 0.22223075752812127 0.18492966192315086
685000000.0 0.2485055732447797 0.17679376526837706
690000000.0 0.2687881967672039 0.1606589430668594
695000000.0 0.28502920560869327 0.13947153662913625
700000000.0 0.29801270824936865 0.11333243597634515
705000000.0 0.30970331870324347 0.08355349808958253
710000000.0 0.3205265897666646 0.0524945539279523
715000000.0 0.3263169915570034 0.01779988140152987
720000000.0 0.32751236531498185 -0.018366363072987765
725000000.0 0.3239342276708003 -0.05764804729392503
730000000.0 0.31582853437830233 -0.09990454916206279
735000000.0 0.30614013874040946 -0.1443913322719121
740000000.0 0.2952704461234863 -0.18992492671736103
745000000.0 0.28091892177397615 -0.2342623241269054
750000000.0 0.26301487796737155 -0.2784770599027069
755000000.0 0.23974193065792354 -0.32259158287884826
760000000.0 0.21151680442049875 -0.3652767507609632
765000000.0 0.1813550118562051 -0.40683170713820216
770000000.0 0.14957867485629173 -0.44532752882821525
775000000.0 0.11329363113705847 -0.4794187782134451
780000000.0 0.068944011562319 -0.507005362072216
785000000.0 0.021001960060680547 -0.5270027333876929
790000000.0 -0.010951791854468838 -0.5395776995468786
795000000.0 -0.022144744707937064 -0.5396157213451331
800000000.0 -0.027256688368477524 -0.5283286121835244
805000000.0 -0.04524182797171912 -0.5035322734825738
810000000.0 -0.07467263913715422 -0.46898521412494887
815000000.0 -0.09159683929912898 -0.4349790653364208
820000000.0 -0.08145692632733546 -0.40517420504461166
825000000.0 -0.1019720861067799 -0.360784602973563
830000000.0 -0.08349593338280824 -0.32284616528601784
835000000.0 -0.04391514389427899 -0.28954080317572306
840000000.0 -0.015278833095776746 -0.26359163504443417
845000000.0 -0.01790910856752665 -0.24678381887142448
850000000.0 0.00333548213735331 -0.2315965558076461
855000000.0 0.04292709454325852 -0.21249158097854287
860000000.0 0.07358238101017822 -0.1961360949285028
865000000.0 0.097944709863237 -0.18409907955252963
870000000.0 0.11657572424810911 -0.1730968038369692
875000000.0 0.12747161475611954 -0.15806657880237
880000000.0 0.13230707616693826 -0.13914938685465167
885000000.0 0.1312180385249777 -0.11289793107065543
890000000.0 0.12771771546994187 -0.07607069693140459
895000000.0 0.12007406012036237 -0.03143692926828698
900000000.0 0.10991365358040851 0.011035964331372832
905000000.0 0.100819385506063 0.05233916947645045
910000000.0 0.09418222132135591 0.07393615759890759
915000000.0 0.08792551751322973 0.06592266348682208
920000000.0 0.06927714984078145 0.04942528731945146
925000000.0 0.042437949261033184 0.051902701782011215
930000000.0 0.011362415416353244 0.0729537864713949
935000000.0 -0.04990308360388584 0.09540527726845134
940000000.0 -0.06655621374415122 0.11960267132238675
945000000.0 -0.07271139852596431 0.08704321787784464
950000000.0 -0.07391979878723033 0.047079337790287196
955000000.0 -0.07114037206388293 0.0018781397075459116
960000000.0 -0.060502011495013816 -0.05064063935580107
965000000.0 -0.03874491263854421 -0.10887876234744676
970000000.0 -0.007181426358272833 -0.17111208029160468
975000000.0 0.03461531397332318 -0.23776047824153929
980000000.0 0.09360611777697524 -0.3061614226479153
985000000.0 0.16264882394188715 -0.3732371219182835
990000000.0 0.172019366553826 -0.43389061548246144
995000000.0 0.19119726556249614 -0.49618791094357717
1000000000.0 0.26903983993274255 -0.5554355984448702
1005000000.0 0.32843593448552044 -0.6101018527552068
1010000000.0 0.3792224693556697 -0.6596541302530758
1015000000.0 0.42421652072544863 -0.7049205159582754
1020000000.0 0.46493332517641056 -0.7449314937142434
1025000000.0 0.501032596521275 -0.7826925086772986
1030000000.0 0.5320892863226543 -0.8148740194390359
1035000000.0 0.5598750179541141 -0.8454667337458975
1040000000.0 0.5849660131903867 -0.8747396030108232
1045000000.0 0.6025324308338138 -0.9010255646207795
1050000000.0 0.6149213732798454 -0.9290455020809802
1055000000.0 0.6223659706151248 -0.9730778773145158
1060000000.0 0.6240640061181029 -1.001972602607555
1065000000.0 0.6085378283794307 -1.0099934320912207
1070000000.0 0.5848748478844881 -1.0093226058040805
1075000000.0 0.5933473057709221 -0.9902285146990303
1080000000.0 0.6703618556289145 -0.9198753536177016
1085000000.0 0.7288410705867041 -0.8390629791500593
1090000000.0 0.7379061538258443 -0.7911654920928923
1095000000.0 0.6731695811462977 -0.864055061956077
1100000000.0 0.5531144905501422 -0.9732123386811702
1105000000.0 0.5314020820751328 -0.9532942706505674
1110000000.0 0.5618479970099837 -0.880377386105567
1115000000.0 0.5734318551473985 -0.8342394925390503
1120000000.0 0.585845534479054 -0.7896410260227507
1125000000.0 0.5988409514876312 -0.7512611227514955
1130000000.0 0.614735638490759 -0.716433781977761
1135000000.0 0.634486405884725 -0.6828989284696285
1140000000.0 0.6596316009327738 -0.6494567546261831
1145000000.0 0.6789805142303849 -0.6228798303572173
1150000000.0 0.6992908594275672 -0.596292189701652
1155000000.0 0.7210012585527894 -0.5727521490708944
1160000000.0 0.7421498294484192 -0.5521631919712247
1165000000.0 0.7635895608323315 -0.5337206880217034
1170000000.0 0.7834439845077158 -0.5146776839693438
1175000000.0 0.8060588156233884 -0.49749847559495786
1180000000.0 0.8276628569411696 -0.4810038783667805
1185000000.0 0.8523021352453943 -0.46221939729705164
1190000000.0 0.8975662199858019 -0.42864970971915606
1195000000.0 0.8864211863478554 -0.46236176227756026
1200000000.0 0.8678914376527028 -0.48973656757685113
1205000000.0 0.8625505489844184 -0.4949925731016126
1210000000.0 0.9453969732114693 -0.4334963300884411
1215000000.0 1.0331979568584437 -0.3886929092264505
1220000000.0 1.0083781030964096 -0.43680705190652547
1225000000.0 0.997652414365279 -0.4558435987561432
1230000000.0 1.0197097190210087 -0.45820221368159514
1235000000.0 0.9960439728271002 -0.487719923745416
1240000000.0 0.9846740554537803 -0.49769772488944947
