# Hz S RI R 50
50000 -0.0010141126556276617 0.00010830937022025214
3029900 -0.0015396556893055764 -0.0037068686527849427
6009900 -0.0018404283764040436 -0.006792209325525731
8989800 -0.0019090062404557595 -0.00983207981015445
11969800 -0.002061066058079663 -0.012651338163928246
14949800 -0.002144634834158265 -0.015619648700038749
17929700 -0.002114476979698106 -0.018303852390750868
20909700 -0.0020849412037316855 -0.020798565291067606
23889700 -0.0016637948086739452 -0.024231128529956993
26869600 -0.0019076534871157133 -0.027200263789240522
29849600 -0.0017200100469643446 -0.029916667775725794
32829600 -0.0020618353289662402 -0.03260210073929323
35809500 -0.001633273274579217 -0.0355278788106674
38789500 -0.0015344847275228794 -0.03781593012575408
41769500 -0.0015131962415459313 -0.0403340770642313
44749400 -0.0016050584416030733 -0.04249562435291078
47729400 -0.0013607315314303468 -0.04485016404929995
50709400 -0.0012943369684580385 -0.046998997573701094
53689300 -0.0014002849233645455 -0.04908751955865239
56669300 -0.001399991646874283 -0.05086225327367161
59649300 -0.0012011768339225196 -0.052532181344793503
62629200 -0.0014234286108201148 -0.054453003399086465
65609200 -0.001340975510266701 -0.055523938465266286
68589100 -0.0013783483815183837 -0.05709315056519991
71569100 -0.0015993705306947229 -0.05777920051785472
74549100 -0.0017366490145805343 -0.05874415408040602
77529000 -0.00139389959449399 -0.05924667730655168
80509000 -0.0018040636952364603 -0.059959572400363266
83489000 -0.0021881680896119055 -0.0605411753254662
86468900 -0.0023488535663219647 -0.06058118332348875
89448900 -0.0028995505932202553 -0.06059095851472381
92428900 -0.0030503244148702966 -0.06044625733351247
95408800 -0.003557860126372247 -0.060255037617869725
98388800 -0.003733710838143951 -0.059927763775183926
101368800 -0.004166761792270759 -0.059109230702233444
104348700 -0.004373616049564135 -0.05859669021741958
107328700 -0.005054611856307757 -0.05785797926258511
110308700 -0.0055637207605141546 -0.05644597480534729
113288600 -0.005861757312411714 -0.05555434944682896
116268600 -0.00644911378396035 -0.05407927471460617
119248600 -0.007017999993144117 -0.053137434917181335
122228500 -0.007472779480152403 -0.05160433692617379
125208500 -0.00783635190809901 -0.04994219231087551
128188400 -0.008200678638748708 -0.04823072056341179
131168400 -0.009282474377508896 -0.046723633222788684
134148400 -0.010095636752192546 -0.04498135325481247
137128300 -0.01061093431441005 -0.04306264593711129
140108300 -0.011679392854743077 -0.041276668690710804
143088300 -0.012332912088957045 -0.03950663439346921
146068200 -0.013104298410799345 -0.03744553014060603
149048200 -0.013890344098407026 -0.035536130095736244
152028200 -0.015037541589005976 -0.033712288202991686
155008100 -0.016254568897728135 -0.03220312724575302
157988100 -0.01750376214243627 -0.030364462261052712
160968100 -0.018754429099241354 -0.028143431127074976
163948000 -0.019865583419035448 -0.02630176407451245
166928000 -0.02160258375686276 -0.024536651236131853
169908000 -0.02277706383949571 -0.02230619846882062
172887900 -0.023910884834304785 -0.020375415091637226
175867900 -0.025838147443336186 -0.018916805480842337
178847900 -0.02743837901258504 -0.016778211532779336
181827800 -0.029029553811852654 -0.01531568583750815
184807800 -0.03133015501385944 -0.01339914060663892
187787700 -0.033049405310756196 -0.011240533110155066
190767700 -0.034938587297857066 -0.010025293690636478
193747700 -0.03731465280002908 -0.008339239043687592
196727600 -0.03913343099620489 -0.006570602854974675
199707600 -0.041525816318215523 -0.004972652867389872
202687600 -0.043823617732896177 -0.003725065172624951
205667500 -0.045709207965232375 -0.0013746855681859877
208647500 -0.04802819457951747 -0.00017954813850486317
211627500 -0.05030396096221677 0.0013396198155988855
214607400 -0.05313106223268153 0.0028582117075513216
217587400 -0.05530166587354737 0.004473343936580146
220567400 -0.05830611930445081 0.005420367910416134
223547300 -0.06053172819503442 0.006876842619122284
226527300 -0.062497744720552376 0.009163975157491093
229507300 -0.06518747689774783 0.010466579965496294
232487200 -0.06700908483337724 0.011827823946606437
235467200 -0.06932622498293074 0.014078205889291017
238447200 -0.07143675312510202 0.015129101538097978
241427100 -0.0732819752897857 0.01696979304588067
244407100 -0.07506613584036212 0.01889832997591696
247387000 -0.07666657686383088 0.019952629075791352
250367000 -0.07837196505266686 0.022104972695488667
253347000 -0.07966917681595581 0.0241962987589035
256326900 -0.08134636552882694 0.025940678994467954
259306900 -0.08269382510566282 0.02728859364135389
262286900 -0.0832172938408422 0.02888606850929164
265266800 -0.08392596512443064 0.030618629576375744
268246800 -0.08389499669946966 0.0322131339000949
271226800 -0.08365392760583482 0.03406162602116901
274206700 -0.08407349541777509 0.035203655978864073
277186700 -0.08358344853978494 0.036641342445310726
280166700 -0.08284817670639241 0.037841467021862786
283146600 -0.08153537763287588 0.038746103425671134
286126600 -0.08105014145883538 0.03908329818198379
289106600 -0.07884171335563157 0.0408312710628892
292086500 -0.0770698324644817 0.0417992749072487
295066500 -0.07552637644289772 0.04237989895858049
298046500 -0.07237301034366599 0.04202302681951392
301026560 -0.06712275106710078 0.03942372436005747
304006460 -0.061613991402600696 0.04101537309627283
306986460 -0.05682983848220569 0.041572982794575684
309966360 -0.05599593472990112 0.042405734485289406
312946360 -0.057006077144389794 0.04414345452527854
315926360 -0.05572254446251815 0.044155320329762195
318906260 -0.053843321697015015 0.04210870039401497
321886260 -0.05088730959448902 0.040341850849478327
324866260 -0.04873608051359255 0.03932914093827584
327846160 -0.04559593116651263 0.03890830945340259
330826160 -0.04147482356902913 0.03838071160841423
333806160 -0.03693222117696694 0.03866577288599011
336786060 -0.03500004824911157 0.038488124312719696
339766060 -0.031455443708831736 0.03637093611919401
342746060 -0.02851783317445363 0.03476069203320373
345725960 -0.025703029941148557 0.03403317313729818
348705960 -0.02368960191195666 0.032235482429683056
351685960 -0.020335500034729472 0.030821533538039812
354665860 -0.015077821232226044 0.030682597021531713
357645860 -0.013928997068652848 0.028959714582769414
360625860 -0.010883228135088642 0.030490860380768054
363605760 -0.007333173109622344 0.02733441877424852
366585760 -0.0053719585286174 0.025988977427699126
369565760 -0.0020815739125710116 0.025640014318050804
372545660 0.0006812107309168922 0.022659961806860467
375525660 0.00328056991436983 0.02363981669743929
378505660 0.005840122911674624 0.02367385394334941
381485560 0.008549814722435099 0.021972123759869545
384465560 0.010708040124971353 0.02166000749975908
387445560 0.014409994566914136 0.020928906369561406
390425460 0.01597458183517396 0.02107095694458601
393405460 0.019697602894537765 0.019162341699812176
396385460 0.021023542617199943 0.018734099281630105
399365360 0.023866782613605517 0.020218464548988995
402345360 0.02496763081388094 0.019191442533513133
405325360 0.027539328248308934 0.01756687293790227
408305260 0.028297470324607898 0.01853429631304888
411285260 0.030114055199405205 0.01780334194814827
414265260 0.03250935260666138 0.017973625468770276
417245160 0.03390689764560064 0.016343695670549874
420225160 0.03518069760183746 0.017868092012710595
423205160 0.0371673733218278 0.017537126291859086
426185060 0.03876897325671199 0.01768814946606538
429165060 0.04000990404192039 0.0181662281091216
432145060 0.04183250732958417 0.016544370041141964
435124960 0.041374896835127406 0.016495437026535525
438104960 0.04493799342357837 0.017460013394299742
441084960 0.044003964201164494 0.01799182940928674
444064860 0.04291117895134549 0.016985825784212722
447044860 0.04411652557273542 0.015645450051099092
450024860 0.04367741538235033 0.016335510095578456
453004760 0.043738481824506584 0.015349328593153438
455984760 0.04269313950120117 0.018222826196091228
458964660 0.041745429026542526 0.017407781163746482
461944660 0.04095962491321678 0.016935792897730825
464924660 0.04128992321036723 0.01822247740244546
467904560 0.04163726830549955 0.01818420897203793
470884560 0.03793536971471865 0.018558705841660073
473864560 0.038954836578717934 0.016682600047881017
476844460 0.03673269386158874 0.01755689435587336
479824460 0.035434664341582364 0.016673650429208393
482804460 0.03514531659915005 0.018118763209143608
485784360 0.03436919698327339 0.020344486314140382
488764360 0.03283461125739635 0.019438846604260235
491744360 0.02811495737428852 0.01995594120960596
494724260 0.027688141695483955 0.018894981199296102
497704260 0.026129948968113798 0.018626544344705856
500684260 0.02306883345059337 0.01816936367173432
503664160 0.01986424998124427 0.018164345886797575
506644160 0.018395669706368346 0.01775661075941737
509624160 0.015790476217696095 0.019888890634396264
512604060 0.01547225160495377 0.018963794694156905
515584060 0.010190544467670311 0.017918696322644725
518564060 0.008480051870725194 0.01917713190822114
521543960 0.006067533597831153 0.018784114349894455
524523960 0.0048672386039533555 0.01680864888077178
527503960 0.0019378171947666526 0.016151012825323597
530483860 -0.0014286970320556292 0.015944655307908884
533463860 -0.0054112086633939 0.015317650089548478
536443860 -0.007723723515581768 0.014303106230117536
539423760 -0.00846254943015663 0.014261516536415152
542403760 -0.013825875177077025 0.01306202752023234
545383760 -0.015251011091400878 0.01040151175089902
548363660 -0.016328674856588014 0.01139608529804305
551343660 -0.01849732095006436 0.01125069838330035
554323660 -0.021139531656971345 0.012579425832076111
557303560 -0.02528199552565789 0.009049870033812451
560283560 -0.027648260984600184 0.009613135462126927
563263560 -0.030428632370950195 0.01071899855327596
566243460 -0.030394487853609167 0.007237607559075466
569223460 -0.03334404253104535 0.006197394170830401
572203460 -0.035039819012722184 0.0067657815100530955
575183360 -0.03686833846594171 0.006197729108870489
578163360 -0.03819768265916201 0.004005914340560996
581143360 -0.04033540448941994 0.0019364903370114827
584123260 -0.0428497672309544 0.004814869919364838
587103260 -0.04409270517449534 0.00381197418927256
590083260 -0.04322865383101397 0.004248669930546956
593063160 -0.04764393166355205 0.003344462977290687
596043160 -0.04532457632915991 0.004315763826802346
599023160 -0.04479149691521689 0.0014399416838728044
602003136 -0.04964428105686274 0.0004813805980902213
604983036 -0.04409675119950977 -0.0019462776803488757
607963036 -0.04718153839447629 0.00036568286583225077
610942936 -0.04728178007272814 -0.0007965065592581722
613922936 -0.04450758020718006 0.001983467909366364
616902936 -0.04426700300497275 -0.0010954783113831903
619882836 -0.04451124192669499 -0.0013511674082955615
622862836 -0.043559939664332525 -0.00016218204552240816
625842836 -0.04035613325840175 -0.00012620009637540205
628822736 -0.03942543699459413 -0.0006300987552729948
631802736 -0.03674324110406359 0.0024393864611563986
634782736 -0.03784141455817221 -0.00019658609616252692
637762636 -0.03478186288079776 -0.002503322006777094
640742636 -0.030677154730145678 -0.002240577974334691
643722636 -0.028367469065683316 -0.0036259195741918733
646702536 -0.02400773585093713 -0.0027402434617581598
649682536 -0.022902605899121534 -0.002227190383166279
652662536 -0.021812564550793435 -0.004862388220312395
655642436 -0.017834454833297684 -0.004986549113709202
658622436 -0.014998373597671316 -0.005850529042579093
661602436 -0.012506858441081023 -0.004824853762458094
664582336 -0.007732671567250412 -0.004613501537932754
667562336 -0.005091721840725795 -0.0037166067699312007
670542336 0.00011743588206315249 -0.005673174101972922
673522236 0.003386035870182425 -0.0009388405144915004
676502236 0.006327848347583597 -0.00696418744883534
679482236 0.010494932744006077 -0.009216407562681085
682462136 0.01393905244231714 -0.009025361857193904
685442136 0.013681053000801325 -0.009562072148928987
688422136 0.018392614436316033 -0.011959409689586266
691402036 0.01977199873259462 -0.012727149636264269
694382036 0.028470687791186458 -0.01211322140604056
697362036 0.02852460219986811 -0.013859333245893248
700341936 0.029146067263685942 -0.017124590391729696
703321936 0.03346384204664681 -0.014218322348751311
706301936 0.0361832064156699 -0.01198611245100682
709281836 0.03873877819558247 -0.013690134570683965
712261836 0.04017569688624208 -0.01713203841278224
715241836 0.041026730717682196 -0.018376864117598205
718221736 0.04290058608636473 -0.016233378372400683
721201736 0.04602429371562767 -0.015420264845702551
724181736 0.048948875356343964 -0.014495274890151143
727161636 0.04837046771384847 -0.01476263183519187
730141636 0.051503503998472616 -0.019861939936304675
733121636 0.047535842969482656 -0.01315639112275393
736101536 0.04442285511535971 -0.018322532490073044
739081536 0.05094730785592237 -0.018222631672772126
742061536 0.05320319709466354 -0.018655830285186272
745041436 0.052894376522603224 -0.01916316058840682
748021436 0.05114300633277234 -0.025467129848616744
751001436 0.050887693731030074 -0.020351413130571972
753981336 0.050025179439521936 -0.025401338687234692
756961336 0.05088559794481457 -0.02269330461641553
759941236 0.0504513424454704 -0.021341246267221146
762921236 0.04918468447958153 -0.024396095554510798
765901236 0.04279469351656926 -0.019358240161841043
768881136 0.040337501084883896 -0.020410275273995106
771861136 0.04048441825963109 -0.02250493676484094
774841136 0.03933513843134917 -0.022360045035221404
777821036 0.032586588890686566 -0.01961935068967811
780801036 0.03402799868930387 -0.02143518481633956
783781036 0.02834468474429495 -0.02654178983151961
786760936 0.02939861637272688 -0.025704632496479685
789740936 0.022780103282830748 -0.026589136649296168
792720936 0.018894703752683775 -0.029855862231370094
795700836 0.01856456796716665 -0.025416929461489025
798680836 0.011846197851936236 -0.031548163870086535
801660836 0.008115468619702085 -0.027462925944376975
804640736 0.004825304558779426 -0.027852642595259863
807620736 -0.0031467279142072427 -0.03180510868024539
810600736 -0.0015989443873210077 -0.03304356947983508
813580636 -0.00974575559309851 -0.03272693646639816
816560636 -0.014277082889791078 -0.03162937884778078
819540636 -0.016995185624696322 -0.033169995079560165
822520536 -0.018280714988126553 -0.033239131345835365
825500536 -0.020907929680189924 -0.029949263341603402
828480536 -0.029448673534798468 -0.04154396448694191
831460436 -0.03202074537684523 -0.0403476897926853
834440436 -0.039130810406205495 -0.036338160268640465
837420436 -0.03861265080522002 -0.03603521407601803
840400336 -0.04503953458284122 -0.03816802445401498
843380336 -0.050524060011744865 -0.038022991054644635
846360336 -0.05428642482500507 -0.03857671158693596
849340236 -0.05404828131124511 -0.03709191726964108
852320236 -0.060472056883270765 -0.03733728793983163
855300236 -0.06850228893559727 -0.038337825472592534
858280136 -0.0691793411055543 -0.03878980360150912
861260136 -0.07568652005947916 -0.03188933142046229
864240136 -0.07689017089878174 -0.036664297854671346
867220036 -0.07851046711618626 -0.028603427884682873
870200036 -0.08007338606713385 -0.025850634415964194
873180036 -0.08436361668836376 -0.018764409876656788
876159936 -0.08712205041544475 -0.019608647884212172
879139936 -0.08397170797900141 -0.023926866428074695
882119936 -0.07948157664719277 -0.019612301202195686
885099836 -0.08592878354211449 -0.014437032983686043
888079836 -0.08399515285098064 -0.000673784406470165
891059836 -0.08320490533413427 -0.008086340555198784
894039736 -0.07405503444938989 -0.00479757058650808
897019736 -0.07286477969968874 0.0007516036581221504
899999736 -0.06432644293221487 0.002820995193021884
