# Hz S RI R 50
50000 1.0000923847950165 -9.893368341232842e-05
941900 0.999928019966753 -0.0016725449835632248
1833800 0.9998561557984535 -0.003064102599569895
2725700 0.9998027735509882 -0.00450358473990218
3617600 0.9997937162546087 -0.006404896964238921
4509600 0.99985645881074 -0.007804891466744726
5401500 1.0000217788599226 -0.009483266922891993
6293400 1.000145423035731 -0.01063814873708306
7185300 0.999759431313613 -0.012384440585905864
8077200 0.9998915925845985 -0.013839097845583235
8969200 0.99997418241408 -0.015471851662809743
9861100 0.9997767288066767 -0.016974830897737634
10753000 0.9998355057597151 -0.018449980872604566
11644900 0.9997431660543983 -0.020062818114011154
12536900 0.9995731664855599 -0.021665657706310668
13428800 0.9995717735196787 -0.023284123440035963
14320700 0.9994232503791186 -0.02484973085401432
15212600 0.9992921454260767 -0.026217508420988557
16104500 0.9991146299451736 -0.027943507013005246
16996500 0.9990749840798795 -0.02957743477042265
17888400 0.9985363721411693 -0.030629995886349997
18780300 0.9992302036262241 -0.032161684352224135
19672200 0.9990801913832844 -0.033931654376149534
20564200 0.9991873855927296 -0.03546450774570192
21456100 0.9989006582407698 -0.03685494970134116
22348000 0.9990872604501808 -0.03890221418116493
23239900 0.9983950708942209 -0.04040981306046558
24131800 0.9984090199656991 -0.04158145098208442
25023800 0.9981595976227894 -0.04334355072459626
25915700 0.9984025203942419 -0.0447799930185664
26807600 0.9977128822376414 -0.0460592429457508
27699500 0.9981146710491864 -0.04723002516015431
28591500 0.998446350024797 -0.04896707892647926
29483400 0.9981059053344672 -0.05060704601600534
30375300 0.9982705253037071 -0.052473921073864296
31267200 0.9979789444274089 -0.05380605664633238
32159100 0.9978130817495694 -0.05526545690446705
33051100 0.9978786784515274 -0.05719424827137051
33943000 0.99798453908654 -0.05898226125883211
34834900 0.9980166900665297 -0.06045635717568581
35726800 0.9976893221000248 -0.06200552049283775
36618800 0.9978163884932622 -0.06390512404156082
37510700 0.9974562362570791 -0.06517585972079437
38402600 0.9974151124966646 -0.0671402202000367
39294500 0.9969146908785061 -0.06870288256873366
40186400 0.9971267135844795 -0.070299460339862
41078400 0.996707131175297 -0.07221103295544996
41970300 0.9965088880236673 -0.07415284635368749
42862200 0.9961978906660501 -0.07605300759924474
43754100 0.9961059855632979 -0.0779524465113042
44646100 0.9956413196588269 -0.07996415336914124
45538000 0.9951938678210304 -0.08213192209832922
46429900 0.9950078388395959 -0.08463190645545872
47321800 0.9939903749032482 -0.08726820817775698
48213700 0.9924609600193056 -0.0901767256351775
49105700 0.9897682806778382 -0.09343468087478848
49997600 0.9848933998624222 -0.09536895708278213
50889500 0.9789155591001271 -0.09131063220680172
51781400 0.9804015683571697 -0.08833072205179482
52673300 0.9816525218587354 -0.08825651997207277
53565300 0.9820208033339747 -0.08773495966459183
54457200 0.982981870051587 -0.08607027434560578
55349100 0.9858064800500486 -0.08616443476922174
56241000 0.9878412370723711 -0.08793011289640694
57133000 0.989508268276387 -0.09035833838112216
58024900 0.9898829622757552 -0.0931166572669847
58916800 0.989380546280028 -0.09458900646250716
59808700 0.9896815740666747 -0.09651548957181481
60700600 0.989342521434239 -0.0984711377948611
61592600 0.9887038977326683 -0.09964835189927079
62484500 0.988201722442109 -0.10089672917401399
63376400 0.9879162437476485 -0.10121504996218844
64268300 0.9886843585433209 -0.10196474919919889
65160300 0.989472105797644 -0.10293641565047885
66052200 0.9900802022076137 -0.1045992175758687
66944100 0.9904484726151603 -0.1061790401208335
67836000 0.9910895659284757 -0.10783441704100596
68727900 0.991871853900447 -0.10970907852429036
69619900 0.9918189812045857 -0.11172589254758959
70511800 0.9922047360670269 -0.11361620079250602
71403700 0.9920746403877563 -0.11591604146518032
72295600 0.9920028914429613 -0.11757174752953463
73187600 0.9917319726576745 -0.1195280324643369
74079500 0.9920866807464988 -0.12135635392204952
74971400 0.9913497480589901 -0.12322273379565762
75863300 0.9912640070950277 -0.12490535562056496
76755200 0.9908069637820085 -0.12648510545028907
77647200 0.9904834104431397 -0.12794890618707172
78539100 0.9905119902761149 -0.12969270323326076
79431000 0.9902465354980285 -0.13142433230187361
80322900 0.9901761555703582 -0.13293991943281158
81214900 0.989676726995605 -0.13498929149307431
82106800 0.9891154157271701 -0.1363021894583686
82998700 0.9892382217344021 -0.1378328332971527
83890600 0.9891033250709496 -0.13938260846213885
84782500 0.9890803426511593 -0.14120034678113363
85674500 0.9892091172685377 -0.14240263171529227
86566400 0.9891016743409465 -0.14459285637720373
87458300 0.9886324057441435 -0.14642265827605527
88350200 0.9883619252211828 -0.14800104132021652
89242200 0.9881162865819457 -0.14982049214458548
90134120 0.9872978299815989 -0.15141638584276707
91026020 0.9866649821490524 -0.15234948014534824
91917920 0.987465724539258 -0.15479477994686083
92809820 0.9865280195183341 -0.1562821545066942
93701720 0.985816517677263 -0.158969725095968
94593720 0.9868088741524327 -0.15950560081258167
95485620 0.9862989364554727 -0.16114615431811874
96377520 0.9864300128722248 -0.16207820627944058
97269420 0.9862985422577583 -0.16428160821811102
98161320 0.9856334967958532 -0.16665766253326822
99053320 0.985210207925878 -0.1685423848447893
99945220 0.9849667340019632 -0.1700894242061691
100837120 0.9848736057339808 -0.17175803497890915
101729020 0.9842092967308975 -0.17348178343924028
102621020 0.98418383268054 -0.17526232681335133
103512920 0.9839620853555403 -0.17717549456360415
104404820 0.9835543410925344 -0.17865443363346445
105296720 0.9831868321366495 -0.1804265637629378
106188620 0.9829646816093582 -0.18224586168018678
107080620 0.982342775540011 -0.18432144479361415
107972520 0.9819356984587317 -0.1861424922430233
108864420 0.9814528385301177 -0.18798184141600383
109756320 0.980640283089349 -0.18963002421355016
110648320 0.9806174119158471 -0.1918905757331672
111540220 0.9797197690293058 -0.19380070499312857
112432120 0.9790722283174017 -0.19551611635669028
113324020 0.9784911602554694 -0.19778517762705936
114215920 0.9776988287671036 -0.1995522521744502
115107920 0.9761628522957729 -0.20175113523588675
115999820 0.9754797261260423 -0.20319069677085028
116891720 0.9739620169849802 -0.20463375531703074
117783620 0.9727460200801776 -0.20600285732135654
118675620 0.9719912185871515 -0.2072210280750797
119567520 0.9712960403001337 -0.20777526947956318
120459420 0.9712206617277255 -0.20897579889189397
121351320 0.9713627826467153 -0.21066951131834957
122243220 0.9708493835858467 -0.21276029003362879
123135220 0.9703305609921379 -0.2148399418156715
124027120 0.9688067925880945 -0.21672080545094968
124919020 0.9679571734302647 -0.21865448005947907
125810920 0.9659726731598819 -0.2197486502246356
126702920 0.964039533902589 -0.22087880789822606
127594820 0.9618547567500454 -0.22110625080552734
128486720 0.9612435832620305 -0.2201818529199916
129378620 0.9616238803222493 -0.2191277294982512
130270520 0.9628517649049184 -0.21993616044592557
131162520 0.9645928589495518 -0.22139416881350737
132054420 0.9654559654385174 -0.2233197550728332
132946320 0.9657909934695763 -0.2253459496442863
133838220 0.9661658528364454 -0.2276199352815231
134730220 0.9661956546890035 -0.23016155500075708
135622120 0.9660809551395003 -0.23304633953800835
136514020 0.9653870234097454 -0.23568201200441674
137405920 0.9643963272194569 -0.2385236676662417
138297820 0.9639682473329171 -0.24057585663138503
139189820 0.9626867876293547 -0.24299550316741933
140081720 0.9616232198456247 -0.2453941801538926
140973620 0.9597903952257921 -0.24742818957867838
141865520 0.9586402403259264 -0.2496227436275817
142757420 0.956860056065762 -0.2511164716957915
143649420 0.9552603086632816 -0.2533765273140468
144541320 0.9534342773515212 -0.2551119596103793
145433220 0.9521247050863708 -0.256931329323135
146325120 0.9503123510960698 -0.25891977827554874
147217120 0.9478385787791186 -0.2607042990286697
148109020 0.9458574181855712 -0.2617604364844082
149000920 0.9430789742530448 -0.26276893413687397
149892820 0.9409398286721387 -0.26437669929436014
150784720 0.9383624281047805 -0.26532831987747074
151676720 0.9347250119134417 -0.2651944115889441
152568620 0.9311206408833985 -0.26525585655725337
153460520 0.9275203473278223 -0.26355445998449684
154352420 0.923508156870655 -0.2613263438312463
155244420 0.922130277428825 -0.2562478909357961
156136320 0.9213442472207278 -0.2509039463469608
157028220 0.9248011773718633 -0.2460443582942659
157920120 0.9287587056563429 -0.24393024842084776
158812020 0.9327400696227753 -0.24282424295785732
159704020 0.9376419866433747 -0.2437785427607671
160595920 0.9413437478781344 -0.2451761950365373
161487820 0.9444461716511615 -0.2472189355732753
162379720 0.9470853244480272 -0.249840070300684
163271720 0.9484139868584671 -0.2537302783081782
164163620 0.9498841157424045 -0.2560212390621122
165055520 0.9504745624088453 -0.258630918646647
165947420 0.9506561714850446 -0.26157948343791954
166839320 0.9513046904346005 -0.26410557956494507
167731320 0.9516006174475193 -0.2664668542130112
168623220 0.951332117903171 -0.26881959124537586
169515120 0.9520430622350828 -0.27157710996711365
170407020 0.9518894093544162 -0.2733257774946288
171299020 0.9525022700357277 -0.2764257993781193
172190920 0.9524072112396497 -0.27922822519808094
173082820 0.9520871599902013 -0.2812537035624202
173974720 0.9520661008398668 -0.28376735325869235
174866620 0.9514667653889556 -0.2864009887772396
175758620 0.9512602479440778 -0.288830859567985
176650520 0.9501529551787388 -0.2910368736004778
177542420 0.9498739569217135 -0.2938777418803404
178434320 0.9493377896327779 -0.29551675167948815
179326320 0.9481882342100885 -0.29792676179548794
180218240 0.9480561935005621 -0.2986714646307416
181110140 0.9455002887709429 -0.3009920458724875
182002040 0.9456017057270407 -0.3030223420585376
182893940 0.9451176444257459 -0.30466811174848324
183785840 0.9446770098859841 -0.3062938647506771
184677840 0.9442901350709865 -0.3083998350499433
185569740 0.9444995222386321 -0.31011120486261445
186461640 0.944054565946869 -0.31157881404303694
187353540 0.9427955816660399 -0.3138139903120242
188245440 0.9426514628446044 -0.31556903674824693
189137440 0.9424179560248694 -0.3179647033730976
190029340 0.9413281126710688 -0.31934630286557647
190921240 0.9415001928694345 -0.3219883856774476
191813140 0.9405789551724073 -0.323629094320758
192705040 0.9403092865344552 -0.32588082370274923
193597040 0.9397354927423404 -0.3269618629874467
194488940 0.9391766956636463 -0.32932806806549114
195380840 0.9383124994741486 -0.33145348474339875
196272740 0.938267278670598 -0.333455912359771
197164640 0.9378503879515021 -0.33512800933765297
198056640 0.9375757473999164 -0.33754944573445
198948540 0.9362850594561318 -0.33922951944717106
199840440 0.9363066878533668 -0.3419225235325279
200732340 0.9358271519838542 -0.34348385763436245
201624340 0.9347217240229793 -0.34588662719634133
202516240 0.9336292852477177 -0.3479190069836387
203408140 0.9333668437426906 -0.3497548535099659
204300040 0.9326893981933936 -0.35184566770525383
205191940 0.9319502055936787 -0.3544878821769794
206083940 0.9313107899076636 -0.35666050657167636
206975840 0.9305576753036572 -0.35905104906324986
207867740 0.9298206718892507 -0.3606656270591828
208759640 0.9285962411526897 -0.3634184254928428
209651540 0.9280509308850317 -0.3649903940898641
210543540 0.9268848321340029 -0.367541766851947
211435440 0.9258588826930932 -0.3696982882067268
212327340 0.9254962844743024 -0.37176973935168195
213219240 0.9246246803137714 -0.37420405082914504
214111140 0.9237837289799324 -0.37684821062734275
215003140 0.9228144419002744 -0.3785652693948442
215895040 0.9222936492364612 -0.3812938935337449
216786940 0.9212266844895427 -0.3839496338427642
217678840 0.920406610589027 -0.3856593251884097
218570840 0.9188860784677733 -0.38925836620738824
219462740 0.9181476556735692 -0.3912879593284497
220354640 0.9170140638466674 -0.39403834891461825
221246540 0.916478299223952 -0.3962110648038332
222138440 0.914142019486683 -0.3991350222540002
223030440 0.9136077273240625 -0.4018734902152801
223922340 0.911953135559033 -0.4047858444125495
224814240 0.9110785136638255 -0.40676837908755126
225706140 0.9098889560871368 -0.4101624591910851
226598040 0.90813877498384 -0.4135583276365372
227490040 0.9063177452209893 -0.4164905889709467
228381940 0.9047993360961283 -0.41918458190504476
229273840 0.9018404946648086 -0.4221568654573249
230165740 0.9009664249761757 -0.4259146072491326
231057640 0.8986414767681159 -0.42847822681584496
231949640 0.895589104303664 -0.43300570135137956
232841540 0.893716331472349 -0.43651343178548174
233733440 0.8909269841758415 -0.44071850890346953
234625340 0.8874043826645855 -0.4441611404454388
235517340 0.8836230870314562 -0.4496638056695642
236409240 0.8797037095592467 -0.4529786700874969
237301140 0.8735981048745471 -0.4576940651560808
238193040 0.8676823758169326 -0.4624279334957735
239084940 0.8600572529455784 -0.46628033350685544
239976940 0.8520181740570218 -0.47022577279356076
240868840 0.8413488839117689 -0.47314295013200824
241760740 0.8279002433581013 -0.47395367506834507
242652640 0.8141525102386142 -0.47178554537937467
243544540 0.7987244424572587 -0.4646181364378287
244436540 0.7852465728245331 -0.45235208775785407
245328440 0.7747533673258605 -0.4348181754358613
246220340 0.7735684252556415 -0.41413508352061673
247112240 0.7795050628311792 -0.3954243619420917
248004140 0.7906911511823967 -0.38139228401368563
248896140 0.8046083517136792 -0.373747138295529
249788040 0.8171844583420419 -0.3709531123702586
250679940 0.827715359980446 -0.37046776720714214
251571840 0.8362121982832194 -0.3727865299106733
252463840 0.8445368560931097 -0.3764939833289317
253355740 0.8494288343252557 -0.3808514548416315
254247640 0.8535978623477424 -0.3839655824068
255139540 0.8571935560397709 -0.3872604341294059
256031440 0.8605546394350233 -0.39076929578107145
256923440 0.8633799623856993 -0.39409352135619885
257815340 0.8669804937235973 -0.3973489481610138
258707240 0.8695072573365836 -0.40158794279665017
259599140 0.8714176271902611 -0.4066355277854498
260491040 0.8726179523531516 -0.41013342513567896
261383040 0.8740686941795568 -0.4147651251537447
262274940 0.8743993551500601 -0.4197438745737093
263166840 0.8748955246705891 -0.42443929264545593
264058740 0.8751016132848576 -0.42857845306032044
264950640 0.8751858716435796 -0.43215732131545165
265842640 0.875687656354699 -0.4361138415789206
266734540 0.8743880014543517 -0.4410163604764216
267626440 0.8738785262697244 -0.4444976747862441
268518340 0.8726655005001691 -0.44801709771116144
269410340 0.872693982492134 -0.4519329678411527
270302368 0.866754263759676 -0.45476524939146623
271194268 0.8705745488883226 -0.4593902179627331
272086168 0.8686969207737033 -0.46197048608673613
272978068 0.8666906318780571 -0.46530321010510745
273869968 0.8654542260446006 -0.46823779295123075
274761968 0.8646715834442 -0.47139876575577905
275653868 0.8613685355099308 -0.4738542941418462
276545768 0.8605048220252827 -0.4778134217813445
277437668 0.8591137386793947 -0.4790290405985676
278329568 0.8567731911506234 -0.48279619831661313
279221568 0.8576247957273511 -0.48522079849281696
280113468 0.8551400718324762 -0.48781449045967645
281005368 0.8536765371303641 -0.4914898295138418
281897268 0.8518875523181311 -0.49414336541941206
282789168 0.850731471499549 -0.49619003960680585
283681168 0.8491220156554543 -0.4993430017860483
284573068 0.8468169562537197 -0.5025114899035998
285464968 0.8454204155537431 -0.5049820392512975
286356868 0.8445350712915701 -0.5072131331145777
287248768 0.8427653901584833 -0.5109230160428659
288140768 0.840818138904042 -0.5127144191614551
289032668 0.8394193481838756 -0.5138493135996927
289924568 0.8366513363557164 -0.5189405722078769
290816468 0.8344429547321901 -0.5219924862249934
291708468 0.8328332449875377 -0.5225284335516163
292600368 0.8307401917177827 -0.5251051157184791
293492268 0.8302317401263414 -0.5279875267110126
294384168 0.8293577960869103 -0.5300769762553602
295276068 0.8272126444991538 -0.5325437270268539
296168068 0.8237487029203728 -0.5353696743523011
297059968 0.8217019097245696 -0.5373279981257754
297951868 0.8190669124164706 -0.5398789108873513
298843768 0.817471894782815 -0.5433242024445911
299735668 0.8147311996045514 -0.5443635077946184
300627668 0.7914072657784 -0.5308137344513773
301519568 0.8178046407691816 -0.5469631993947606
302411468 0.8060146723894127 -0.5589278737942843
303303368 0.8051084343166598 -0.5537460875653628
304195268 0.8048099715424247 -0.5585801255795392
305087268 0.8010480340973789 -0.5580275828731317
305979168 0.7940336141181175 -0.5601443874511637
306871068 0.7969074418485153 -0.5645961577464113
307762968 0.7932888246299613 -0.5666643157519785
308654968 0.7911754858780502 -0.5679040991082484
309546868 0.7904930229804136 -0.5723944379063916
310438768 0.7867329704271657 -0.5720147240565663
311330668 0.7859174193599846 -0.5751079856466245
312222568 0.7813317796618938 -0.5771227378987052
313114568 0.7792557914363651 -0.5782094767795235
314006468 0.7769009845473067 -0.5820973788912206
314898368 0.7735888063405374 -0.5818537319613386
315790268 0.7707874186166958 -0.58498026607467
316682168 0.7716196099760839 -0.585234075537333
317574168 0.7687072412720126 -0.5873147297980492
318466068 0.7669054161732608 -0.5885975818743735
319357968 0.7664740790236793 -0.5901379908523947
320249868 0.763582054659324 -0.5916341922624339
321141768 0.761454135430599 -0.5988796708251595
322033768 0.759383436084735 -0.5986279901661575
322925668 0.759165492900492 -0.6015954834116991
323817568 0.7538741849811339 -0.6032802832836541
324709468 0.7504432677541533 -0.6052287880603318
325601468 0.7504950841174601 -0.6087537318740096
326493368 0.7496305569821337 -0.6120981296498517
327385268 0.7471498537083638 -0.6149845798213368
328277168 0.7421009756901292 -0.6156344244857486
329169068 0.7412597447900983 -0.619295996142482
330061068 0.7378893968339788 -0.6189535068067654
330952968 0.7357762271729635 -0.6228579105878906
331844868 0.7345218904369435 -0.6273167852527833
332736768 0.7353275774876772 -0.631789207943619
333628668 0.72729631980827 -0.6344546977303912
334520668 0.7266560673202507 -0.6365748769946135
335412568 0.7218131741909715 -0.6383368638855724
336304468 0.7200396682415573 -0.6405152553305344
337196368 0.7185809221753144 -0.6431776385502658
338088268 0.7144880272525579 -0.6478476312554324
338980268 0.7113248178992914 -0.6489379702441573
339872168 0.7086592553422494 -0.6533714008671233
340764068 0.7056310190201912 -0.6542381457887988
341655968 0.6990292369833487 -0.6563312383694975
342547968 0.6982740234342426 -0.6613820245511083
343439868 0.6960139981518544 -0.6632565989565652
344331768 0.6914277554020509 -0.6650549789534914
345223668 0.6869895397733576 -0.6676146849567204
346115568 0.6813147532997644 -0.6709661041349214
347007568 0.6820213563252695 -0.6750940732433625
347899468 0.6792515266508229 -0.6775870064094254
348791368 0.6725100764643155 -0.681342020217844
349683268 0.6708065122639906 -0.6844745840993238
350575168 0.6670595827760363 -0.6872217948001909
351467168 0.6595772889658083 -0.6896352130208399
352359068 0.6584262450872342 -0.6954956071571441
353250968 0.6522632220254518 -0.6997599647789764
354142868 0.6519501221856168 -0.7007040571631976
355034768 0.6448958470334568 -0.7013679556557021
355926768 0.6365357768987816 -0.705230307927387
356818668 0.6326335911541708 -0.7102523014595844
357710568 0.6271410080029213 -0.712693013328692
358602468 0.6234082892185527 -0.7164419366964577
359494468 0.6184870054521483 -0.716271425965526
360386496 0.6261763086019617 -0.6997890638212358
361278396 0.6121939034355774 -0.7191211246002781
362170296 0.6000808391267968 -0.7228329537669728
