!Created with skrf (http://scikit-rf.org).
# Hz S RI R 50.0 
!freq ReS11 ImS11
700000000.0 0.04261329939394093 0.034449125630150276
701630000.0 0.03916826960429415 0.036474749561994875
703270000.0 0.03498729380872004 0.03808442807308793
704900000.0 0.03140260187582058 0.03990780054534758
706530000.0 0.027624619258440355 0.04136258953663082
708160000.0 0.02330795141380983 0.042910418302191194
709800000.0 0.021453510066754434 0.044383073576471
711430000.0 0.01808564281319426 0.045450280350751826
713060000.0 0.015232441267097933 0.046815012096105786
714690000.0 0.01129064361542021 0.04698962817075655
716329999.9999999 0.008290225300196541 0.04820946451292585
717959999.9999999 0.00394956713794878 0.04966350388430686
719589999.9999999 0.0031353068236193316 0.05076411232331607
721219999.9999999 0.0007422575243532115 0.05451912297261108
722860000.0 -0.004397414721502945 0.055916582231419876
724490000.0 -0.002813856177574803 0.057162100220672335
726120000.0 -0.005784811311434743 0.057170121688143394
727750000.0 -0.0068120743944390175 0.05873231161606282
729390000.0 -0.008629958271260316 0.06078687148919994
731020000.0 -0.011273142540103713 0.06315577313066655
732650000.0 -0.013178084929411003 0.06593580757036611
734290000.0 -0.014206718778431743 0.06956471326475575
735920000.0 -0.01614194207471861 0.07343948118290666
737550000.0 -0.01840282833640667 0.07803493186829741
739180000.0 -0.01940393221184117 0.08381232360532861
740819999.9999999 -0.020298613485499543 0.08684712490865878
742449999.9999999 -0.020970178312896496 0.08999866249129006
744079999.9999999 -0.021265206978863613 0.09366527932410082
745709999.9999999 -0.020866868185742588 0.09782124374400036
747350000.0 -0.02037817238164996 0.1018139460468053
748980000.0 -0.019579841778263638 0.10493469914176329
750610000.0 -0.01868558004734143 0.10985988276195638
752240000.0 -0.01775038073225757 0.11379700310987446
753880000.0 -0.0163098820285432 0.11788747209061597
755510000.0 -0.01526951339524641 0.12145803879912956
757140000.0 -0.013650494206787222 0.1254826336789303
758770000.0 -0.013685891088758565 0.12887190254690695
760410000.0 -0.010637296696250608 0.13262783689975474
762040000.0 -0.008758397261430531 0.13612262642723022
763670000.0 -0.006765478612488239 0.13915067478968512
765310000.0 -0.004611731681739284 0.14248693863357687
766940000.0 -0.0018107191060498726 0.14540400768335587
768569999.9999999 0.0006480520048624157 0.1489516525581048
770199999.9999999 0.003151015858637314 0.1520107948119219
771839999.9999999 0.005622393804826136 0.15441678869564698
773469999.9999999 0.008391055540279885 0.1569612773906655
775099999.9999999 0.01068889180775845 0.15974479426224006
776730000.0 0.014509165771168578 0.16204370814225227
778370000.0 0.01856565896780453 0.1651765352591541
780000000.0 0.02154777917847256 0.16804532804144912
781630000.0 0.0254405895664669 0.17045233662618506
783260000.0 0.029265835057861837 0.17356281878611987
784900000.0 0.03336364545355421 0.17681175412535044
786530000.0 0.038864947649560826 0.1802866622553613
788160000.0 0.04466853257230735 0.18365498201368147
789790000.0 0.05155429439893651 0.18794711131887124
791430000.0 0.05481751871943319 0.19222370108718143
793060000.0 0.0663677788597559 0.19734944237766155
794690000.0 0.07439863943981272 0.2020210280748473
796329999.9999999 0.0832181507072553 0.206388231875486
797959999.9999999 0.09017015108418701 0.21026956068181607
799589999.9999999 0.09903938125807255 0.21414493482051028
801219999.9999999 0.10476362925846462 0.2177786318589437
802860000.0 0.11231021165257668 0.21964126040255824
804490000.0 0.11758837421878596 0.22380190456211946
806120000.0 0.12058272413646173 0.2259892462689756
807750000.0 0.1225084128126981 0.22929717215622908
809390000.0 0.12344342327752218 0.2324657053896221
811020000.0 0.12731390476263338 0.23644688814250633
812650000.0 0.13105322310473277 0.23975884829668406
814280000.0 0.13597862564678287 0.2408872321541327
815920000.0 0.14121139035836328 0.24433195746952538
817550000.0 0.1477111516912904 0.24949558460185078
819180000.0 0.1549779373511685 0.2509142842081939
820810000.0 0.16182416043434258 0.2502400057669866
822449999.9999999 0.16770661112858334 0.24692377323185566
824079999.9999999 0.17641258798262263 0.23594908850120005
825709999.9999999 0.18637860137495976 0.23097831991192336
827349999.9999999 0.1924049191461858 0.22143220787223794
828980000.0 0.1978250536787348 0.20987577751643646
830610000.0 0.2033268849860933 0.19807753612844858
832240000.0 0.20868792062266278 0.18643592350960173
833880000.0 0.2136318832066335 0.17494924002246653
835510000.0 0.21900401935212424 0.1648180507707533
837140000.0 0.22361505260203843 0.1553650877428155
838770000.0 0.2279265804130804 0.14653991733544203
840410000.0 0.23156646036107467 0.13939810110509346
842040000.0 0.234789754541745 0.13244443535427836
843670000.0 0.23740086352995976 0.12685129430681208
845300000.0 0.23991607707658383 0.12167960667438188
846940000.0 0.24252858741148475 0.1178557211842142
848569999.9999999 0.24421994089751553 0.11379473738854043
850199999.9999999 0.24572968442003382 0.10987958553794636
851829999.9999999 0.2473726021762408 0.1060320262963115
853469999.9999999 0.24900328315631384 0.10266362484732297
855099999.9999999 0.24966168561007546 0.09841202996597007
856729999.9999999 0.2505683601968708 0.09420877454259496
858370000.0 0.2509004384492316 0.08961885911561761
860000000.0 0.25111239442804 0.0845125624037643
861630000.0 0.25136362781493105 0.07924686530736563
863260000.0 0.25055570003151867 0.07371319882306657
864900000.0 0.2498947966008792 0.06781214366737892
866530000.0 0.24914956150575007 0.06194185661849016
868160000.0 0.24773030535507504 0.055360172583490526
869790000.0 0.24616488403291248 0.0493983034683371
871430000.0 0.24465236949394573 0.04394798849644629
873060000.0 0.24298110250380967 0.036072849028540604
874690000.0 0.24006376045892225 0.028944898880312965
876319999.9999999 0.23751516351562832 0.02231558204843375
877959999.9999999 0.23431782611301064 0.015676248137254115
879589999.9999999 0.23185919856273968 0.010802052934617827
881219999.9999999 0.2282482253350849 0.006230675304890576
882849999.9999999 0.22566870116550475 0.0026784986590371526
884490000.0 0.2221978441771533 -0.00040209842942508234
886120000.0 0.21877264351477713 -0.003067917425693456
887750000.0 0.21564403266153348 -0.005329813071795496
889390000.0 0.21208402417823974 -0.007452185968015265
891020000.0 0.2086442434655349 -0.009242337689525974
892650000.0 0.20514485470353067 -0.011239018271107973
894280000.0 0.20102528137834313 -0.013136910892354817
895920000.0 0.19631108676377373 -0.014544315499920676
897550000.0 0.1917041026605219 -0.015879975616395578
899180000.0 0.1865669678187225 -0.016970827841559774
900810000.0 0.18096981731283746 -0.01752414465593838
902449999.9999999 0.175808818695195 -0.017499216172906826
904079999.9999999 0.1702264587942748 -0.016706654541422665
905709999.9999999 0.16459879713548778 -0.015539489341600293
907339999.9999999 0.15867084294957487 -0.013764419724045088
908979999.9999999 0.15230088147781756 -0.011419417986355526
910610000.0 0.14670754456517798 -0.007788079329278379
912240000.0 0.14061797191512349 -0.003778733155929581
913870000.0 0.13453783550366738 0.0010118820133689782
915510000.0 0.12753341577091437 0.006868954225921306
917140000.0 0.12055896093070859 0.013706082364577352
918770000.0 0.11373564841380923 0.022287874158368633
920400000.0 0.10674549493689087 0.03256643713904159
922040000.0 0.0985839863620727 0.04485788436321332
923670000.0 0.09072975395275176 0.05449256784155078
925300000.0 0.08278802896888887 0.06484000626504377
926940000.0 0.07472539908020767 0.07598419656897623
928569999.9999999 0.0669046434575105 0.08797496410110049
930199999.9999999 0.059429111870012374 0.10009607406590933
931829999.9999999 0.05344430406639013 0.11262010791773983
933469999.9999999 0.047867748761238116 0.12491792236128674
935099999.9999999 0.04394654275212655 0.137520154821416
936729999.9999999 0.04104608699369054 0.15032366974959285
938360000.0 0.03910871946673282 0.1632028929333084
940000000.0 0.03812385224715538 0.1764401692463098
941630000.0 0.03810857737047341 0.19000376975463967
943260000.0 0.03899063114508193 0.2036714593285796
944890000.0 0.04117387776643523 0.2173681551129209
946530000.0 0.04425954394230597 0.23250052216028066
948160000.0 0.04737424115479817 0.24648173254491387
949790000.0 0.05210110055008493 0.26114200102305957
951420000.0 0.05673849403258202 0.27496529162560485
953060000.0 0.06243773108437359 0.28910601756829507
954690000.0 0.06829792867189001 0.302384709812001
956319999.9999999 0.0751269634576092 0.3146464264544926
957959999.9999999 0.0820040648529241 0.3273104920046725
959589999.9999999 0.09007550196636932 0.3395998804265399
961219999.9999999 0.0994318745649699 0.35085971024491985
962849999.9999999 0.109256560170752 0.36159351161246156
964490000.0 0.11903539199705707 0.37051456274392874
966120000.0 0.13050780892724984 0.37983957990213524
967750000.0 0.14239357308664374 0.3887160903385744
969380000.0 0.1544661488270873 0.39628449756639433
971020000.0 0.16766253312328458 0.4029448306765729
972650000.0 0.18141900818081252 0.40979298196244834
974280000.0 0.19459378435161806 0.4153598713831169
975910000.0 0.20988224977435044 0.4206365240276418
977550000.0 0.2254152060792498 0.4246202116382037
979180000.0 0.24067723627596532 0.4290316130960828
980810000.0 0.2562801054788936 0.43249423401858966
982440000.0 0.2713992756499434 0.43428469912085776
984079999.9999999 0.2874275701595337 0.436217206856626
985709999.9999999 0.3039680202520931 0.4371136337023674
987339999.9999999 0.3200280281661005 0.43708963361326836
988979999.9999999 0.33674345028532 0.4370965512060768
990609999.9999999 0.3525417829185 0.43508017317658265
992240000.0 0.3692193687933264 0.43269034324545846
993870000.0 0.3845160987921143 0.42962139314151476
995510000.0 0.4013286652657114 0.425848902387055
997140000.0 0.4169765814779871 0.4212565627671495
998770000.0 0.4333419771880568 0.41657515374874005
1000400000.0 0.4485428897333614 0.41096569056694016
1002040000.0 0.464032750933609 0.40494536768287076
1003670000.0 0.4799006566200649 0.3976391378205194
1005300000.0 0.4946150588843926 0.39278787568831053
1006930000.0 0.5098106387214738 0.38541474930073993
1008569999.9999999 0.5249499399273932 0.37840800553706033
1010199999.9999999 0.5397898256644638 0.37169557399114933
1011829999.9999999 0.5532485172799475 0.36312221396957933
1013459999.9999999 0.5659914600284214 0.355235283410197
1015099999.9999999 0.5776900198637787 0.34654525621694676
1016729999.9999999 0.5941179246660311 0.3317449384654561
1018359999.9999999 0.610405182334708 0.31636368066302106
1020000000.0 0.6246112377702392 0.30054240499456897
1021630000.0 0.6376774136977598 0.2852895536394139
1023260000.0 0.65160969178697 0.26994746767334293
1024890000.0000001 0.6641146218401482 0.25510922686014553
1026530000.0 0.6741560494266816 0.24027211883405153
1028160000.0000001 0.6850307947235408 0.22675083643457666
1029790000.0 0.6940703001839051 0.21374545089159092
1031420000.0000001 0.7039272392115951 0.20191183221824308
1033060000.0 0.7406181408399907 0.26741848223184944
1034690000.0 0.753440213518902 0.2695888625131565
1036319999.9999999 0.7620149295313039 0.26144319750015665
1037950000.0 0.7682634048299753 0.25421653418477796
1039589999.9999999 0.7735024136992413 0.24895224188899348
1041220000.0 0.7789553329009292 0.2453147347757646
1042849999.9999999 0.7817860713989662 0.2441859159299123
1044490000.0 0.7854071849667827 0.24365448507381712
1046119999.9999999 0.7890947139993079 0.24671127018251546
1047750000.0 0.7912691441272459 0.24383530000777925
1049380000.0000001 0.793895340403466 0.24781419212017697
1051020000.0 0.7968684673698316 0.2506602888962958
1052650000.0000001 0.7989989279307382 0.25038736361033
1054280000.0 0.8020695649357562 0.24865176781835696
1055910000.0000001 0.7984393086807129 0.24360983766998295
1057550000.0 0.8035393603035105 0.23918680001029038
1059180000.0000001 0.8072959199796088 0.23389511883340916
1060810000.0 0.8114686822264859 0.2262312801664854
1062450000.0 0.8155713657675745 0.2171781896853834
1064079999.9999999 0.8215131645459092 0.20792370595870457
1065710000.0 0.8254004417750667 0.1960082923607977
1067339999.9999999 0.8304476850979272 0.18357552457675352
1068980000.0 0.8341513901394625 0.16883502245118046
1070609999.9999999 0.8404050108420673 0.15401331385365316
1072240000.0 0.8446479872004797 0.13789447823292764
1073870000.0 0.8483827039151763 0.12030644829465222
1075510000.0 0.8513835935290497 0.10353096279105944
1077139999.9999998 0.8559738644277448 0.08519327645656852
1078770000.0 0.8596125392762599 0.06617045609447345
1080399999.9999998 0.860535505177076 0.04572008233574969
1082040000.0 0.8637394630768275 0.025696485074182897
1083669999.9999998 0.8652681292994346 0.004366834960066077
1085300000.0 0.8673024423499376 -0.011736846446456544
1086940000.0 0.8689479090395128 -0.022953533483231262
1088570000.0 0.8712968015169373 -0.035238145577491525
1090200000.0 0.8724977155102173 -0.046586317515392904
1091830000.0 0.8726301033993592 -0.058595681999013535
1093470000.0 0.8730682855876717 -0.07082677036635945
1095100000.0 0.8746645860278549 -0.08274598388288515
1096730000.0 0.8745645885035751 -0.09509948696596301
1098360000.0 0.8746889464768798 -0.10792514779938764
