!Created with skrf (http://scikit-rf.org).
# Hz S RI R 50.0 
!freq ReS11 ImS11 ReS21 ImS21 ReS12 ImS12 ReS22 ImS22
700000000.0 -0.0030545930856659517 0.021470175626283797 0.9305627698594396 0.5566203253182679 0.0 0.0 -0.04868123416389484 0.9779755066322665
701630000.0 -0.0031806464459397804 0.021924897907789013 0.9446964347103409 0.5401061816477177 0.0 0.0 -0.020745269469509824 0.9800613962636514
703270000.0 -0.0036046079931450667 0.02196548008372209 0.9567273541545386 0.5223507827792881 0.0 0.0 0.006248390811826301 0.9794788834692476
704900000.0 -0.003720753727313565 0.02233990230587749 0.9688861764386272 0.5045051021653264 0.0 0.0 0.03496097762064251 0.9800554296731965
706530000.0 -0.004078682231123992 0.022480362212683715 0.9813215416166209 0.4869804283801941 0.0 0.0 0.06213276182200934 0.9783340973701101
708160000.0 -0.005149324968899187 0.022842024760411483 0.9923958245400043 0.46965294600168983 0.0 0.0 0.08733936842348167 0.9765108445516332
709800000.0 -0.003968874195457979 0.023345736446544328 1.0053163515908092 0.44987677889645505 0.0 0.0 0.1175918572285092 0.9744980653166344
711430000.0 -0.004359091361641727 0.02353409908575742 1.0161230378067012 0.43085783206724737 0.0 0.0 0.1450403162181369 0.970100645022858
713060000.0 -0.004864530715439237 0.02367296457620414 1.0265088610110618 0.41129418385350547 0.0 0.0 0.1727703866059206 0.9642643560995766
714690000.0 -0.005887480172031693 0.023613556784484173 1.034996804870926 0.39213968953702233 0.0 0.0 0.1981492464390503 0.9573613181081995
716329999.9999999 -0.006536144078260402 0.024166904069653418 1.04590686886379 0.3732894779016525 0.0 0.0 0.22544078719737645 0.9509054843872504
717959999.9999999 -0.008653215587830543 0.024972144462664787 1.053246739028702 0.35581195368660956 0.0 0.0 0.24688048384290764 0.9433270663574124
719589999.9999999 -0.0080110828786443 0.025643518952418117 1.0614090499781987 0.33629195401840556 0.0 0.0 0.2728160521247326 0.9343734573920336
721219999.9999999 -0.009632969197011194 0.02614351070434505 1.0690971562488432 0.3202670252727004 0.0 0.0 0.29523780478935746 0.9250144654423115
722860000.0 -0.012664417171438715 0.026488333948880914 1.075335318318386 0.3071710599477573 0.0 0.0 0.3121448867168208 0.9155752953339316
724490000.0 -0.008809371182202147 0.027459485504667203 1.083660923300464 0.28764682306182426 0.0 0.0 0.3410406011611366 0.9060147521670904
726120000.0 -0.00981548825176299 0.02779410146709234 1.0887923629735854 0.27389040065793246 0.0 0.0 0.36014041102726396 0.8944337893972543
727750000.0 -0.00936060215989664 0.028306381298672596 1.092990558644918 0.2582284126479225 0.0 0.0 0.3815016400990267 0.8820841073082543
729390000.0 -0.009814756294566188 0.02856703969304354 1.0965351868707411 0.2435259804105446 0.0 0.0 0.4015358839061506 0.8695012311130825
731020000.0 -0.011191571254543805 0.028767244138928786 1.1016368021514633 0.2291463746887795 0.0 0.0 0.41970724435532686 0.8582390398060996
732650000.0 -0.011773824645850335 0.028807656168307536 1.1023623192395398 0.21203645427079326 0.0 0.0 0.4389490257761453 0.8439632697284629
734290000.0 -0.011582662503648424 0.029184557868583826 1.1054291377660772 0.1947076865484702 0.0 0.0 0.45909639670639146 0.8302513034856496
735920000.0 -0.012400171176594466 0.029170530880623338 1.1078661440112236 0.17692776512518185 0.0 0.0 0.4777503343739941 0.8169205820256384
737550000.0 -0.013657635838521595 0.029087731250178328 1.109346850328539 0.15914531794915654 0.0 0.0 0.4957537346351523 0.801752951106573
739180000.0 -0.013782814827427048 0.029369233171134154 1.1119174715623927 0.138817289396235 0.0 0.0 0.5171354994712911 0.7875157323345549
740819999.9999999 -0.014510882054780577 0.02910670774476792 1.1116633134942735 0.11916190644608973 0.0 0.0 0.5345046152713653 0.7717773664240705
742449999.9999999 -0.015245265605331654 0.028836019171074756 1.1108445081327385 0.09829680565453472 0.0 0.0 0.5525129875308539 0.7548688531528769
744079999.9999999 -0.016082201265689357 0.028704594132226344 1.111138412469141 0.0771783148584341 0.0 0.0 0.570006606356241 0.7380294540373381
745709999.9999999 -0.01653731121275656 0.028838066249393616 1.1104044508716782 0.05523021617049289 0.0 0.0 0.589146400305595 0.720385825767437
747350000.0 -0.01708096728013752 0.028845649760738345 1.1105413982030163 0.03471235846260213 0.0 0.0 0.6057461393728567 0.7023387355269252
748980000.0 -0.01768630221503423 0.02780687732998241 1.10712377019889 0.014508116080649497 0.0 0.0 0.6216838261028387 0.6816153187242671
750610000.0 -0.018206172895546248 0.028329089978473145 1.1067203358906292 -0.005819878091363114 0.0 0.0 0.6370675683025443 0.6646050074667801
752240000.0 -0.01878295750677339 0.02821833558975307 1.1043329280118175 -0.025346229332523673 0.0 0.0 0.6516290900447088 0.6447117637201177
753880000.0 -0.018868815784655213 0.028301676358475775 1.1003113425233348 -0.04434122290287034 0.0 0.0 0.6647954548593163 0.6247685075195167
755510000.0 -0.01952274276423897 0.02796452604651889 1.0966980763625187 -0.0627968779946745 0.0 0.0 0.676697831828848 0.6040440171307054
757140000.0 -0.01966141358320765 0.027903347380123667 1.0935701777316902 -0.08100237550547693 0.0 0.0 0.6890338473195097 0.5835069201038673
758770000.0 -0.021428288035670567 0.027541353840333686 1.0881162447038744 -0.09758819490936921 0.0 0.0 0.6969677241623007 0.5640856953832338
760410000.0 -0.020266145463182002 0.027306454371047027 1.0839687134154066 -0.11685334664456662 0.0 0.0 0.7100886075065467 0.5432691173376497
762040000.0 -0.020378641478771525 0.027020217277242256 1.080629114827647 -0.13494143702954828 0.0 0.0 0.7207181542464662 0.5237122504709704
763670000.0 -0.02044303310789442 0.0263279350331086 1.0749513194647626 -0.15266335806300305 0.0 0.0 0.7288073161025617 0.5029556173126493
765310000.0 -0.020401345233740403 0.026114258320886763 1.0691710995601245 -0.16951102364478304 0.0 0.0 0.7373472274070629 0.48130633382534027
766940000.0 -0.01983904217079053 0.02540288449599662 1.0623421082619822 -0.1862627973881511 0.0 0.0 0.7444852440055499 0.46025912116649687
768569999.9999999 -0.01962782579745705 0.02534879863210021 1.0575637827932893 -0.2025228048100033 0.0 0.0 0.7524794298895602 0.4406936197894466
770199999.9999999 -0.019521445310786683 0.024729860804336777 1.0513415842945926 -0.21814286456751453 0.0 0.0 0.759623964656718 0.4202999746076435
771839999.9999999 -0.01929890924741603 0.023961701434462038 1.044380713839014 -0.23235943535955433 0.0 0.0 0.7637533437567544 0.4004779586121304
773469999.9999999 -0.018999849714828376 0.023094472219926995 1.039046094650391 -0.2461262121967417 0.0 0.0 0.7697733928452364 0.3804327332590502
775099999.9999999 -0.019295611757041066 0.02240466512834892 1.0326700284108568 -0.26013384334008427 0.0 0.0 0.774657500253787 0.3606410307764427
776730000.0 -0.018103602530954784 0.021486833675466378 1.025112142868472 -0.2742119164046828 0.0 0.0 0.7807997672479216 0.341001907985102
778370000.0 -0.017766036138081403 0.021314620300777073 1.0173885938568235 -0.2906215614068202 0.0 0.0 0.7925445208909273 0.31445823905088505
780000000.0 -0.01721705760731197 0.02045283719341823 1.0107347126118083 -0.30588501501301085 0.0 0.0 0.8024534983290466 0.2957654121188976
781630000.0 -0.016670043284523817 0.01946156856638206 1.0036963019160878 -0.31993663880968304 0.0 0.0 0.8109201418189288 0.27445169841019396
783260000.0 -0.016077998351102803 0.019251598093442405 0.9969838474776131 -0.3356555287120407 0.0 0.0 0.8180044020770434 0.2552980189444731
784900000.0 -0.01565984170614712 0.01935921596205014 0.9892945463512892 -0.35314315861178913 0.0 0.0 0.8280974347650317 0.23287897562516993
786530000.0 -0.014257589383784896 0.019384580299724456 0.97850808136184 -0.3714980353346659 0.0 0.0 0.8369121811641356 0.20803010502646863
788160000.0 -0.012782803368844676 0.020190745263528972 0.9586505694356529 -0.4102325147047824 0.0 0.0 0.8484613617754312 0.16570639758139005
789790000.0 -0.01094366524225861 0.02109184195544143 0.9457151027308062 -0.43437693824432605 0.0 0.0 0.8613193655919603 0.13604108483807376
791430000.0 -0.013036259976241792 0.022132584779472456 0.9331038805092882 -0.45857971907668627 0.0 0.0 0.8690227142979289 0.10690130093201405
793060000.0 -0.007543973936902283 0.024003403205696466 0.9128331555186743 -0.48727680041576676 0.0 0.0 0.8832304887549673 0.07118052914312141
794690000.0 -0.006109906102541513 0.025367034233942654 0.8924572515254682 -0.5144109232710811 0.0 0.0 0.8919520147341067 0.036510759203051496
796329999.9999999 -0.0039035210880733937 0.0269715114104362 0.8704071646360415 -0.5418491551990233 0.0 0.0 0.8973183984537332 0.0002554718056474231
797959999.9999999 -0.0036938031171207812 0.028126763241452222 0.8503508024808231 -0.5687845104227836 0.0 0.0 0.9013049003398012 -0.03404607377981956
799589999.9999999 -0.001484143828020138 0.029246666398254906 0.8272594454204426 -0.5919557307296937 0.0 0.0 0.901899271056128 -0.0655605309419329
801219999.9999999 -0.0009590325762052727 0.030176613788937344 0.8073491597470146 -0.6098952522962728 0.0 0.0 0.8989381714211414 -0.0849223312063147
802860000.0 -0.0011083930594616783 0.03165349231364403 0.7867222752767642 -0.6254339084139092 0.0 0.0 0.891800973567036 -0.1083939055981212
804490000.0 -0.0018749603017439117 0.03338762688373409 0.7680999431185368 -0.6375104019264441 0.0 0.0 0.8871773944069846 -0.12791677296146584
806120000.0 -0.004439188217520682 0.03346849735659177 0.7798867991816828 -0.6186329426833073 0.0 0.0 0.8831072084046184 -0.1138842454697279
807750000.0 -0.008198964854614112 0.034802832465792466 0.767900412838258 -0.6295438272993056 0.0 0.0 0.8807330828964007 -0.12912108263909725
809390000.0 -0.012466096003764415 0.03696794644649873 0.7493410264017334 -0.6421474549960622 0.0 0.0 0.8681797700820596 -0.15087295658792982
811020000.0 -0.015365512593068361 0.03917569647172276 0.7308703609598323 -0.6516481985062442 0.0 0.0 0.8627279914049649 -0.17902109054526263
812650000.0 -0.018480203255571818 0.0414834566754444 0.71491542208717 -0.6594381715634725 0.0 0.0 0.8572422839961886 -0.2080421025885485
814280000.0 -0.0224082325089092 0.042946449182943595 0.6987845670133648 -0.6671216016051758 0.0 0.0 0.8502332129137198 -0.2517465432913171
815920000.0 -0.026488997193864508 0.04665155774545359 0.6835034163977918 -0.6693770824355113 0.0 0.0 0.8417956457282783 -0.29296541980178914
817550000.0 -0.028784490414019096 0.05155507074514389 0.6759045155716286 -0.6679509174764184 0.0 0.0 0.83757901160023 -0.32212763415477563
819180000.0 -0.032180647564660984 0.05373772698872723 0.6701511541198477 -0.638569116335449 0.0 0.0 0.8315059328395674 -0.3451608026791389
820810000.0 -0.035962313575415655 0.0546891037818272 0.6875818011561095 -0.6015186131072554 0.0 0.0 0.8319034608284606 -0.35637501994210186
822449999.9999999 -0.039542502488133006 0.05430972188123495 0.7037357468167872 -0.5676005637415895 0.0 0.0 0.824834198198441 -0.3737935938295772
824079999.9999999 -0.04170080072420681 0.05279494680373826 0.6928651948444612 -0.5527640826124994 0.0 0.0 0.7883342032364156 -0.40944598629766643
825709999.9999999 -0.045039498906450155 0.051279195627465204 0.6467147993746742 -0.5761624057450581 0.0 0.0 0.7355178614064745 -0.4881861839777168
827349999.9999999 -0.047686150257992325 0.05008877429047383 0.6099097208300063 -0.600333304799924 0.0 0.0 0.6887083434421751 -0.5586785448159426
828980000.0 -0.049827018769677815 0.04858288413216126 0.5686652383388306 -0.6155074744706753 0.0 0.0 0.6302116023849577 -0.6108953330084518
830610000.0 -0.05163446662587555 0.04753011538790728 0.5389782474308144 -0.6220680781068135 0.0 0.0 0.5836750622195451 -0.6457566380888075
832240000.0 -0.053179969111112384 0.04690038455815619 0.5093236113637245 -0.6309081885550536 0.0 0.0 0.5361839399050482 -0.6765840418059252
833880000.0 -0.05462087951255039 0.046252397384007944 0.4816308573756487 -0.6399756021380067 0.0 0.0 0.4910604651288965 -0.7037987895812231
835510000.0 -0.05556037052725841 0.046851110054707934 0.45490462186234865 -0.6489868904439119 0.0 0.0 0.4452660883017018 -0.7245568882842857
837140000.0 -0.056697437554644854 0.04739643497777625 0.4294977490747126 -0.6564188991194547 0.0 0.0 0.402472129859008 -0.7412738756147346
838770000.0 -0.05789879558022298 0.04772310852471732 0.4066391368118568 -0.6642094151536333 0.0 0.0 0.3616831417313903 -0.7542621829684101
840410000.0 -0.059261319008940515 0.04893383723103768 0.3846670001270266 -0.673667723275381 0.0 0.0 0.32387236532477215 -0.7660859276475344
842040000.0 -0.06009580925116553 0.04983700745300233 0.36429536485454495 -0.6808861682215863 0.0 0.0 0.28876084373146105 -0.7718230581318309
843670000.0 -0.061436563275781855 0.05087268607440537 0.34577685850777595 -0.6891890769999152 0.0 0.0 0.2562869485999852 -0.7787126571201126
845300000.0 -0.06279841506169356 0.05164908931101946 0.3278816357670001 -0.6961548972504359 0.0 0.0 0.22487939245383584 -0.7851743802177656
846940000.0 -0.06303920488714614 0.053230937905423985 0.31053755665444727 -0.7034667637483367 0.0 0.0 0.19583636392859158 -0.7873518520610947
848569999.9999999 -0.06446988648604599 0.054076323687297055 0.29352778231101506 -0.7104815807345471 0.0 0.0 0.16781151370132985 -0.7913618407047107
850199999.9999999 -0.06582153845351116 0.05478253308025666 0.27822089145691165 -0.7170034215187409 0.0 0.0 0.14051068950215936 -0.7945441336405962
851829999.9999999 -0.06647804610816997 0.05554569412032873 0.26214737485991796 -0.7218534184587985 0.0 0.0 0.11496401988413017 -0.7951943671040179
853469999.9999999 -0.06728745318289084 0.0563895539446805 0.24822880061994265 -0.728075294218884 0.0 0.0 0.08782987687768137 -0.7977238787782939
855099999.9999999 -0.0681490712492918 0.05677444468845151 0.2334385964855596 -0.7343192353182786 0.0 0.0 0.0623845249426272 -0.7988397512160241
856729999.9999999 -0.0693606985867415 0.0571916046382643 0.21858122422623194 -0.738383112875276 0.0 0.0 0.03370551280773631 -0.80047351885881
858370000.0 -0.07040568861276701 0.05743234890338002 0.2031109214057783 -0.7441872879742333 0.0 0.0 0.005318085047741715 -0.8018452506825283
860000000.0 -0.07150251722555417 0.057231678839262654 0.18990487036856338 -0.7493299339616296 0.0 0.0 -0.024534994529874364 -0.8036775388734859
861630000.0 -0.07244411456593387 0.05728719039265696 0.17598516452174634 -0.7552600450538609 0.0 0.0 -0.054230661570102284 -0.8038649613172855
863260000.0 -0.07393541998753986 0.05698796820589284 0.16142064774050094 -0.7612760207206881 0.0 0.0 -0.08660373950229869 -0.8049428881393249
864900000.0 -0.07520735181081825 0.05661276251139037 0.14676092933943471 -0.7654379814767824 0.0 0.0 -0.11948206248773656 -0.8032234169767344
866530000.0 -0.0763378883558607 0.056530552835142155 0.13221234549387842 -0.7712781762894217 0.0 0.0 -0.1536759981889047 -0.8010459120832909
868160000.0 -0.07753085628441395 0.05619122676945126 0.11647250944503089 -0.7773638936231565 0.0 0.0 -0.18938199232361544 -0.7986853614868096
869790000.0 -0.07837624794056526 0.05582920562484818 0.10150082889467828 -0.7819085821852044 0.0 0.0 -0.22432789928949523 -0.7937971524033419
871430000.0 -0.07902027503648827 0.055844511919638753 0.08659702924320514 -0.7860322650237486 0.0 0.0 -0.2580446513896013 -0.7867511620868358
873060000.0 -0.08001655410610287 0.055449984741744195 0.07192592621793917 -0.7918499607947626 0.0 0.0 -0.2932608815900295 -0.7812146139016277
874690000.0 -0.08121686075120728 0.055177815862509014 0.05704689099960299 -0.7964375528880201 0.0 0.0 -0.32811789473579894 -0.7738510485880546
876319999.9999999 -0.08211594387859318 0.05489983079311372 0.04232404199886137 -0.800759760024729 0.0 0.0 -0.36111414257796 -0.7643637735804996
877959999.9999999 -0.08301038070453187 0.05450183519848365 0.028313270490786274 -0.8050504660858506 0.0 0.0 -0.3953631450062612 -0.7532580509902862
879589999.9999999 -0.08333653768435455 0.05504406036129344 0.016309240668179178 -0.8092340503268468 0.0 0.0 -0.4271243322824602 -0.7411787029220851
881219999.9999999 -0.08412542171640734 0.05502136803072544 0.003017305632264411 -0.8128542549112824 0.0 0.0 -0.4587899073531096 -0.7282565272546261
882849999.9999999 -0.08427441428540372 0.05532067256543312 -0.008003017071370773 -0.8179384325747819 0.0 0.0 -0.48894460398929634 -0.7166647770001251
884490000.0 -0.08471379312054168 0.055477781136548186 -0.018085511008411777 -0.8216527303007483 0.0 0.0 -0.5190384496459256 -0.7016958930923918
886120000.0 -0.08502962214696225 0.055562750305158885 -0.027728382227555474 -0.8252868330053824 0.0 0.0 -0.5482808351852807 -0.6874725086844327
887750000.0 -0.08520054123460323 0.05555352425657883 -0.04250747463505054 -0.8296371767030273 0.0 0.0 -0.5784271575634166 -0.6723280640084317
889390000.0 -0.0854996259258201 0.055475199971224694 -0.05821808270915148 -0.8336443401402499 0.0 0.0 -0.6082984172119228 -0.654766345548665
891020000.0 -0.08518064703172985 0.055441698009876667 -0.0731470451198636 -0.8363711814211413 0.0 0.0 -0.6350203823446556 -0.6373116677331189
892650000.0 -0.08586923391828469 0.055244601443909906 -0.08940788566605257 -0.8392347983678176 0.0 0.0 -0.6658926910323896 -0.6182959049390596
894280000.0 -0.08620209636395626 0.05476101853167028 -0.10578514993539886 -0.8419863866519793 0.0 0.0 -0.6946664211295838 -0.5969714302348873
895920000.0 -0.08696714323786607 0.05396849064704273 -0.12232151504729134 -0.8431703691911426 0.0 0.0 -0.7218189766720118 -0.5765331342999622
897550000.0 -0.08770998033279333 0.053204386044531135 -0.13916167568929422 -0.8446436478332332 0.0 0.0 -0.749868524452885 -0.5539058153674012
899180000.0 -0.08855058388140818 0.052383406052307804 -0.15600557843109825 -0.8453214854625448 0.0 0.0 -0.7761675630018688 -0.5291139994834746
900810000.0 -0.08943159979343888 0.05133539484619091 -0.17356798540477145 -0.8439700586291603 0.0 0.0 -0.8004748716073213 -0.5034021437903436
902449999.9999999 -0.08995520762523616 0.05043765371787423 -0.19077794731991363 -0.8432474285159923 0.0 0.0 -0.8241526654713429 -0.47569583230172735
904079999.9999999 -0.09106922788354382 0.0495294165352445 -0.2084412292573154 -0.8420015477182617 0.0 0.0 -0.8479918532287775 -0.4477876314875396
905709999.9999999 -0.09172090224915275 0.04847712721570597 -0.22576299624766188 -0.839798125004531 0.0 0.0 -0.8693878322591544 -0.41944989332912097
907339999.9999999 -0.092498820284326 0.04723956078635364 -0.2430355211197175 -0.8371261861641951 0.0 0.0 -0.8890266304212249 -0.39008378932621945
908979999.9999999 -0.09369050243916405 0.04573538062451807 -0.26070805132326036 -0.8332270636908476 0.0 0.0 -0.9080730477847283 -0.3591312944303188
910610000.0 -0.09378360891561735 0.04448650696416682 -0.27682673531427354 -0.8296942887252247 0.0 0.0 -0.9241901669231247 -0.33009957969053183
912240000.0 -0.09449703848815552 0.042393974573758875 -0.29481490920082865 -0.8256137598008583 0.0 0.0 -0.940255957599889 -0.3004563924989428
913870000.0 -0.0949942947615627 0.040911279518297726 -0.31236652922056934 -0.8207853562890901 0.0 0.0 -0.9542077470095301 -0.26794438844848145
915510000.0 -0.09616530166675596 0.03848242737584236 -0.33000892111047225 -0.8139739104392271 0.0 0.0 -0.9668328055293145 -0.23562473268701523
917140000.0 -0.0972181028920556 0.035574452609116014 -0.3488203252053072 -0.8074359461493524 0.0 0.0 -0.9771407897583471 -0.2028298716745875
918770000.0 -0.0980383862852515 0.03264846996638555 -0.36731557845522095 -0.8002435707350884 0.0 0.0 -0.9882078369671221 -0.17117831497755873
920400000.0 -0.09862101006783099 0.029552401506308987 -0.3867379649652106 -0.7908946637040793 0.0 0.0 -0.9942278460474281 -0.13660922988337526
922040000.0 -0.09939586388228369 0.02636704058123426 -0.4074812907812532 -0.7808639140479496 0.0 0.0 -1.000534940109483 -0.10218070975406579
923670000.0 -0.09979921472812184 0.02336957673489867 -0.42942547418921523 -0.7696467728975458 0.0 0.0 -1.0038863406873024 -0.06586195756753614
925300000.0 -0.10035521111927188 0.020379524451104802 -0.452300702425912 -0.7559572113762062 0.0 0.0 -1.0045360285850584 -0.027645379753935568
