!Created with skrf (http://scikit-rf.org).
# Hz S RI R 50.0 
!freq ReS11 ImS11
250000000.0 0.085125930789078 0.03063043892341402
252150000.0 0.08427787624361383 0.03260465134688661
254290000.0 0.08426861584534827 0.03404673081634875
256440000.0 0.08501410611167336 0.035005574036659416
258579999.99999997 0.0857256942607005 0.03578953507927428
260730000.00000003 0.08594425113301754 0.03692456430967299
262870000.0 0.0860592637560156 0.03828006324644919
265019999.99999997 0.08681761293517372 0.039254393206623515
267160000.00000003 0.08885797398908404 0.039580703280932154
269310000.0 0.09126714354325027 0.03915486388391435
271450000.0 0.09268639818839233 0.03875255413040058
273600000.0 0.09294145492148922 0.038440610032565485
275740000.0 0.09329961597348416 0.03756296316585482
277890000.0 0.09422384635514221 0.035510289148489665
280030000.0 0.09446097577623963 0.03385913087955321
282180000.0 0.09140904224304991 0.034558831815075526
284320000.0 0.08822355547384465 0.03627308900377761
286470000.0 0.08693601994825731 0.037909157875855706
288610000.0 0.08718859375345085 0.03896482404496146
290760000.0 0.08853093372618705 0.03949059228747845
292900000.0 0.09003997665867432 0.03969359099297858
295050000.0 0.09144520727830509 0.03960977846488356
297190000.0 0.09236097053688636 0.03981514365267816
299340000.0 0.09283950120338469 0.04046413571078477
301480000.0 0.09309693299866335 0.04104123210913415
303630000.0 0.09389351158763541 0.04127501932131347
305780000.0 0.0947401992309635 0.04141066821368522
307920000.0 0.09487145950717224 0.04170491930685663
310070000.0 0.09462968417028414 0.04225064493288503
312210000.0 0.0942874281378 0.043009010899713186
314360000.0 0.09451035705932688 0.0436699158315033
316500000.0 0.09509426430297928 0.04383905630949377
318650000.0 0.0958379980830756 0.04395901950958772
320790000.0 0.09638798659430385 0.043926536208947056
322940000.0 0.09675222352357188 0.04401098033414806
325080000.0 0.09685169731695877 0.04438306978508084
327230000.0 0.09685640863846146 0.04495924800606716
329370000.0 0.09702551037584395 0.04547072191285101
331520000.0 0.09728920121925472 0.04607151926809696
333660000.0 0.09795450054285822 0.04670091603606152
335810000.0 0.09882793322256712 0.047202040702173056
337950000.0 0.10009696959325995 0.04748672435355025
340100000.0 0.10143973827115697 0.047647446273939076
342240000.0 0.10275526501040294 0.04758845804606481
344390000.0 0.10422065294901832 0.04754003038568979
346530000.0 0.1058327625506183 0.047518732216505176
348680000.0 0.10757245464013207 0.047579730898929425
350820000.0 0.10922831186619543 0.047879680012395114
352970000.0 0.1110709598462543 0.048502625241016006
355110000.0 0.11329057296707105 0.049048686167579
357260000.0 0.11631584024511438 0.04966090609543602
359410000.0 0.12045702871763332 0.05011675684308359
361550000.0 0.12566868742353166 0.050722425363247
363700000.0 0.13606843640539212 0.05071155798754998
365840000.0 0.14476282156084544 0.0470921648836364
367990000.0 0.15406593111938746 0.04090740671087829
370130000.0 0.17319085403727658 0.032411787348468
372280000.0 0.17871369598519474 0.026836506563727137
374420000.0 0.17906525674619123 -0.028649553469799718
376570000.0 0.17628023249763203 -0.03143203581754534
378710000.0 0.17102634001447178 -0.03700844982110241
380860000.0 0.1611919690568117 -0.041837186307234674
383000000.0 0.14187939714743655 -0.04299808592168062
385150000.0 0.13283060127495164 -0.038138746054336814
387290000.0 0.12052573446731621 -0.034833546701077904
389440000.0 0.11492837224878961 -0.029188088213221323
391580000.0 0.10598441830665946 -0.026071500848105743
393730000.0 0.1020927090686446 -0.02434074465662976
395870000.0 0.09871631286812457 -0.02313552582041905
398020000.0 0.09570275208175674 -0.022394017814495563
400160000.0 0.09312125871897568 -0.01964070221696753
402310000.0 0.08902927641903664 -0.018793870740912058
404450000.0 0.0864260847776527 -0.018622833186421453
406600000.0 0.08404218185561485 -0.018708663286214167
408750000.0 0.08178833064046664 -0.018476800856318105
410890000.0 0.08041959576762021 -0.018020126046851197
413040000.0 0.07946230620153459 -0.017107786917351816
415180000.0 0.07898941445018955 -0.016185465957058158
417330000.0 0.07883590202033058 -0.015053013246277728
419470000.0 0.07879512462449219 -0.014262682120217104
421620000.0 0.07879481728420672 -0.013737726302957212
423760000.0 0.07894484547562751 -0.013409218421701952
425910000.0 0.07895418763695086 -0.01335410125919273
428050000.0 0.07922969480338297 -0.013386476448615712
430200000.0 0.07959070327900901 -0.013476048833436767
432340000.0 0.08034605889924226 -0.013488570101333253
434490000.0 0.08121596301050092 -0.013430652567306509
436630000.0 0.0823234287490346 -0.013156604991052711
438780000.0 0.083089788010348 -0.013249338558464427
440920000.0 0.08360864121112278 -0.01307781392124704
443070000.0 0.08386094091830533 -0.013357296886926438
445210000.0 0.08421022420995757 -0.013654163609570447
447360000.0 0.08439887292246574 -0.014320460216295986
449500000.0 0.0844331632489669 -0.015268003101933979
451650000.0 0.08445670591276895 -0.016738197016800672
453790000.0 0.08407146566023428 -0.018576627109064322
455940000.0 0.08357585121084131 -0.021101385578921848
458080000.0 0.08266594972109163 -0.02442400736318602
460230000.0 0.08141140188577412 -0.028925269697854895
462380000.0 0.0798066130457 -0.033613190974652554
464520000.0 0.07825599850739179 -0.03891473414258408
466670000.0 0.07889745409551459 -0.04276653071312693
468810000.0 0.08088133518766416 -0.04525864374144102
470960000.0 0.08511988588728828 -0.04685310864173537
473100000.0 0.09038016251595281 -0.047229523413650415
475250000.0 0.095184575418759 -0.0467541050820123
477390000.0 0.09904651056431628 -0.04584985087551029
479540000.0 0.10219525614494893 -0.04441455501738581
481680000.0 0.10480683713972051 -0.04253633658818477
483830000.0 0.10737849544900947 -0.04027538996744095
485970000.0 0.1101691237831989 -0.03761194342695633
488120000.0 0.11349799362642317 -0.03433191931826056
490260000.0 0.1172642870107477 -0.03063249529992068
492410000.0 0.12173945180320375 -0.026521236287855354
494550000.0 0.12721082121491803 -0.022133212404366102
496700000.0 0.1336894006931891 -0.018004241955599472
498840000.0 0.14150725369067868 -0.014348830604081332
500990000.0 0.1513798837067495 -0.012312704663545013
503130000.0 0.162418381656792 -0.012896701894051812
505280000.0 0.173900848195675 -0.017541554349028588
507420000.0 0.18513699960277558 -0.026810596429725466
509570000.0 0.1948741716510368 -0.03950593917545863
511710000.0 0.20359186086362419 -0.054895181364101334
513860000.0 0.21066466644956183 -0.0726610656041355
516010000.0 0.21636487630691734 -0.09161868929846188
518150000.0 0.219898319581866 -0.11286687528069844
520299999.99999994 0.2200708361709394 -0.13735535189957215
522440000.00000006 0.21491028687170052 -0.16460869330206648
524590000.00000006 0.20332509508311106 -0.19423379857642278
526730000.0 0.1842880103613583 -0.22443574807387395
528880000.0 0.15924559721299403 -0.2517070538782593
531020000.0 0.11999558401518196 -0.2589816368373236
533169999.99999994 0.08730488467712269 -0.2752198676939544
535309999.99999994 0.0608899690215256 -0.2825822243094609
537460000.0 0.028620459272446653 -0.2682514674045915
539600000.0 0.004117449488870353 -0.24571916805032648
541750000.0 -0.019139349425351674 -0.22279393798142746
543890000.0 -0.029528424559488245 -0.19570963147942647
546040000.0 -0.040807217866128814 -0.1703672235318104
548180000.0 -0.046468456700002644 -0.14551722631609632
550330000.0 -0.04427894674392577 -0.13499273503438697
552470000.0 -0.03441201642678896 -0.11930137323156846
554620000.0 -0.010685095332675948 -0.10428752145897818
556760000.0 0.01553494070576956 -0.08828321946510786
558910000.0 0.03523408945844797 -0.07211276998691606
561050000.0 0.052521190437782236 -0.07276887361357788
563200000.0 0.0699069331345393 -0.08925181958458442
565340000.0 0.07399826711287108 -0.12127621407806147
567490000.0 0.06421841664029386 -0.16914509881192968
569640000.0 0.02837757396725806 -0.20242961730042117
571780000.0 -0.0008464390478084028 -0.23093889470961884
573930000.0 -0.03948449490101152 -0.23773391936058091
576070000.0 -0.06911434822874916 -0.23820347214073526
578220000.0 -0.08426965436678813 -0.21759800237397445
580360000.0 -0.09707287016791577 -0.20779457287531258
582510000.0 -0.10527059481845377 -0.19641113515175904
584650000.0 -0.10820261878141813 -0.1736995964319864
586800000.0 -0.10069329692567221 -0.15612569899867237
588940000.0 -0.1018567968818167 -0.13760132768792438
591090000.0 -0.1002252498070979 -0.1194861472801051
593230000.0 -0.0987562788016587 -0.10509121879722404
595380000.0 -0.10450668951651577 -0.09599788718988793
597520000.0 -0.0966266523045792 -0.08922697830006894
599670000.0 0.0870513832839188 -0.0879370870860331
601810000.0 0.10663180628526914 -0.1271689621005161
603960000.0 0.08851644976610554 -0.12622694239762478
606100000.0 0.07139722422026673 -0.1239632314070898
608250000.0 0.05525641506000586 -0.1205237102577882
610390000.0 0.0400110376507877 -0.11574094012548451
612540000.0 0.02595867799512439 -0.10955667800423627
614680000.0 0.013296248644897013 -0.10181885255632017
616830000.0 0.0028142317501445805 -0.09264024673278044
618970000.0 -0.004898931522554571 -0.08245839806444227
621120000.0 -0.009496569392380258 -0.0716503807370687
623270000.0 -0.011325094054640704 -0.06104527681410953
625410000.0 -0.010845478072180689 -0.0502472323885385
627560000.0 -0.00779741159144352 -0.03606445694779795
629700000.0 -0.005039160296434299 -0.02710965031952684
631850000.0 -0.0030378059118456647 -0.022468097089526327
633990000.0 -0.001598724199820919 -0.02049665082881859
636140000.0 -0.0006880866382072497 -0.019803319726195413
638280000.0 -3.679338848147654e-05 -0.019164575308225556
640430000.0 0.0003277109491244859 -0.018964227922316435
642570000.0 0.0005019610423433423 -0.018916777532513442
644720000.0 9.919656598945366e-05 -0.018944975446970123
646860000.0 -0.00017556656362373635 -0.01972344598126853
649010000.0 -0.0005968161722590003 -0.019874869320945433
651150000.0 -0.001047976196409451 -0.02006357741927806
653300000.0 -0.0014689253740169967 -0.020293889057184173
655440000.0 -0.0019360140959583457 -0.020634637776930757
657590000.0 -0.002394347872986227 -0.020949901329892575
659730000.0 -0.0028224192917722817 -0.02146735501841569
661880000.0 -0.0032437065523463794 -0.022072957499646512
664020000.0 -0.003545010910708444 -0.022820337270307366
666170000.0 -0.00382288334856532 -0.023681754585343107
668310000.0 -0.003976570215838548 -0.024743590041298034
670460000.0 -0.004123276183726515 -0.02591622831078994
672600000.0 -0.004019634010018872 -0.02696037240696428
674750000.0 -0.003802947009614259 -0.02809027796636558
676900000.0 -0.003573776220042527 -0.029022316179342783
679040000.0 -0.00337437203451248 -0.029662510876634265
681190000.0 -0.0033820213596026834 -0.03000954466297516
683330000.0 -0.0035470414044526245 -0.029746382835159096
685480000.0 -0.004055840887267346 -0.029266388965591257
687620000.0 -0.004800076663687706 -0.02877667983324514
689770000.0 -0.005602665631366915 -0.027987754855363794
691910000.0 -0.006483097771705444 -0.02736143401363191
694060000.0 -0.007397850731700661 -0.026894392642171343
696200000.0 -0.008220024513267818 -0.026587459352179467
698350000.0 -0.009134395560091692 -0.026423296961963442
700490000.0 -0.009763531986029542 -0.02619735192240062
702640000.0 -0.010828069945746716 -0.026480515277932302
704780000.0 -0.011441376524941376 -0.02611370175556541
706930000.0 -0.012119972462559189 -0.026170021754088738
709070000.0 -0.012811396478696356 -0.02636060776558543
711220000.0 -0.013449577009227408 -0.026614093937814408
713360000.0 -0.014144978970795816 -0.026839693397446164
715510000.0 -0.01488761178673172 -0.027080465308206996
717650000.0 -0.01560167419373668 -0.027297268306726772
719800000.0 -0.016432436431911213 -0.027445728724010073
721940000.0 -0.01735343925489772 -0.027578138139209105
724090000.0 -0.018389750294318465 -0.027720766008360594
726240000.0 -0.019512266745734752 -0.027845712212751745
728380000.0 -0.020663595450897417 -0.027843854935318574
730530000.0 -0.02172279307240336 -0.028106009957377713
732670000.0 -0.023314148844986168 -0.028708522937094475
734820000.0 -0.024295448451781065 -0.029015841945399263
736960000.0 -0.02579985399305754 -0.029658421628187277
739110000.0 -0.02674928126225208 -0.029980568853499343
741250000.0 -0.027894746816465085 -0.030591508749222167
743400000.0 -0.028678116183270454 -0.03085052889447773
745540000.0 -0.029560318080553063 -0.031368647565176065
747690000.0 -0.03033386322877627 -0.03180919770498493
749830000.0 -0.03091231149238085 -0.03252926756108115
751980000.0 -0.031485955996292496 -0.03284472444382163
754120000.0 -0.03218573193957865 -0.03327114757013417
756270000.0 -0.032756902152792686 -0.03361416106949305
758410000.0 -0.03338162544316896 -0.0339931159892087
760560000.0 -0.03394212526643144 -0.03437135718412758
762700000.0 -0.034399002301954376 -0.03478540494281366
764850000.0 -0.03494178121236694 -0.035125216602778536
766990000.0 -0.035395965456559146 -0.03548255995425994
769140000.0 -0.03566988763784951 -0.03578212428803575
771280000.0 -0.03589894969519216 -0.03621360205706324
773430000.0 -0.03616088342556016 -0.03661817374596594
775570000.0 -0.03602937996896424 -0.03683054901881775
777720000.0 -0.035790789065896084 -0.03706244703221945
779870000.0 -0.035345363289321294 -0.03732444308047802
782010000.0 -0.03479770642911962 -0.03743368779150692
784160000.0 -0.033788758903552304 -0.03725074184769693
786300000.0 -0.032533877023025716 -0.0368375851583078
788450000.0 -0.031185745202388513 -0.036090812223386906
790590000.0 -0.029579775261335862 -0.03491631926964462
792740000.0 -0.0280147509515042 -0.03341035781084205
794880000.0 -0.026557569277485146 -0.031448900052607656
797030000.0 -0.025445866725633124 -0.029251492828082114
799170000.0 -0.02479932287768972 -0.02726365770389676
801320000.0 -0.024610148523581395 -0.025502363681473503
803460000.0 -0.025499887996365284 -0.024436432358586408
805610000.0 -0.027702955523172045 -0.02437192929882863
807750000.0 -0.0317189861431782 -0.02533906686471263
809900000.0 -0.03790336492740811 -0.027497997427634223
812040000.0 -0.04609958397307335 -0.030029015728306244
814190000.0 -0.05077570625240278 -0.03334072045219194
816330000.0 -0.05967817046708638 -0.03420568022004799
818480000.0 -0.06810139879211058 -0.03361345142172145
820620000.0 -0.07666744865123719 -0.032007817103206646
822770000.0 -0.08493987576018372 -0.028965529821413802
824910000.0 -0.09259722308661962 -0.02380938242267735
827060000.0 -0.09865574795094471 -0.018962390593132317
829200000.0 -0.10318667748762704 -0.015550257952805164
831350000.0 -0.10620331181778518 -0.013265970503119888
833500000.0 -0.10795002038288158 -0.013311974180680258
835640000.0 -0.1087076256175647 -0.013328359392107485
837790000.0 -0.10920939721907763 -0.013389880303816527
839930000.0 -0.10930211988982969 -0.013672420862417668
842080000.0 -0.1092586273996485 -0.014015735563806576
844220000.0 -0.10899017411205217 -0.014116667386191297
846370000.0 -0.10887703022842306 -0.014005416536362836
848510000.0 -0.10878321380644336 -0.013742515785538065
850660000.0 -0.10895355273730821 -0.013397117213660978
852800000.0 -0.10937905401981152 -0.013042662549530695
854950000.0 -0.11005562618905688 -0.01273387041392552
857090000.0 -0.11083407783196056 -0.01268673751808393
859240000.0 -0.11165057137523363 -0.012346062428587306
861380000.0 -0.11270094940528937 -0.012302950970501426
863530000.0 -0.11388343699170564 -0.012351589741739302
865670000.0 -0.11518679401708218 -0.01263535102183248
867820000.0 -0.11619353961489555 -0.013279668961242485
869960000.0 -0.11696115772772953 -0.01369838938372188
872110000.0 -0.11812534979749785 -0.014294738010526737
874250000.0 -0.11915687278007868 -0.014926258222368831
876400000.0 -0.12004061132358615 -0.01567577885206455
878540000.0 -0.12091890984863257 -0.016499333869202805
880690000.0 -0.12166842193203478 -0.017250989716820143
882830000.0 -0.12241601060009209 -0.018033162938831445
884980000.0 -0.12289432052921236 -0.018695731519449935
887130000.0 -0.12343853622905154 -0.01893284980922494
889270000.0 -0.12411773077742716 -0.01925880587304412
891420000.0 -0.12487122788023479 -0.019130288028406807
893560000.0 -0.12576689682838804 -0.019065362272672918
895710000.0 -0.12695734644125897 -0.019064524642624404
897850000.0 -0.1281554798983752 -0.0190843693435952
