!Created with skrf (http://scikit-rf.org).
# Hz S RI R 50.0 
!freq ReS11 ImS11 ReS21 ImS21 ReS12 ImS12 ReS22 ImS22
25000000.0 -0.0841492582176014 -0.029149526562557936 0.9922891506621672 -0.2325196714652901 0.0 0.0 0.9040799967836786 -0.4706431067855997
30000000.0 -0.07847207772459311 -0.03125727200162526 1.0205339390505328 -0.21006570735946345 0.0 0.0 0.92945318269195 -0.4927522366705928
35000000.0 -0.08113032796102003 -0.029364565675068545 1.035824470035489 -0.22284986434311166 0.0 0.0 0.9418989263037246 -0.584593619339075
40000000.0 -0.07964217459583768 -0.02975232482034115 1.0251061323347574 -0.24327525977997005 0.0 0.0 0.8325467500342794 -0.621267237195538
45000000.0 -0.07702004061477202 -0.03648758227881435 1.0104660202911886 -0.36005977514031023 0.0 0.0 0.7859474912985346 -0.7267091220463464
50000000.0 -0.08038149486641491 -0.031374377926034716 0.9637715013233855 -0.3904249182042312 0.0 0.0 0.7043734618102185 -0.7362909512081591
55000000.0 -0.08499667357839935 -0.03790690079555663 0.9565836726773781 -0.42717193025267636 0.0 0.0 0.6104129866182253 -0.8241214244690279
60000000.0 -0.08462327042159486 -0.04195657470941623 0.9174570634640372 -0.49427102221510105 0.0 0.0 0.548783287479243 -0.9112848622312552
65000000.0 -0.07962217193828361 -0.04788230644917703 0.8792013109373057 -0.5840326836983816 0.0 0.0 0.58229418047559 -0.9447279721163099
70000000.0 -0.08550759092240919 -0.02549978242571254 0.8775339820749156 -0.5767142000994863 0.0 0.0 0.4456360623449478 -0.9088351353230272
75000000.0 -0.08699303017991512 -0.04021821590076988 0.8306139969954575 -0.5635213169084109 0.0 0.0 0.3145934414934186 -0.9555772462002764
80000000.0 -0.10576077515636001 -0.011392810640817503 0.7657451319456187 -0.7116013837359728 0.0 0.0 0.20133700207392372 -1.048422402915822
85000000.0 -0.09426156458691437 -0.01561857718659413 0.722808982508488 -0.7420267529620619 0.0 0.0 0.18950158308633258 -1.0089020202024077
90000000.0 -0.09425880515445938 -0.013461397438560185 0.657667702064344 -0.7769480318586317 0.0 0.0 0.07155376307583537 -1.0052315707876291
95000000.0 -0.09784105289976765 0.0015766935554146486 0.556288503638648 -0.8121552978746507 0.0 0.0 -0.07333822233682247 -1.0175553212622581
100000000.0 -0.08903989021577034 0.02308973057241975 0.6187460060355108 -0.7468691466195599 0.0 0.0 -0.04143532311325669 -0.9050191514958865
105000000.0 -0.08648685687902702 0.02890520766416072 0.6252963749591658 -0.8107676978818026 0.0 0.0 -0.13934025031214062 -0.9327283198597992
110000000.0 -0.07908695633510902 0.02180554873622283 0.5562764844837818 -0.8699782437331003 0.0 0.0 -0.19733250236746924 -0.9912873344531686
115000000.0 -0.09303596130189917 0.005382936682423867 0.5162948833490687 -0.9292988528108777 0.0 0.0 -0.3116448608104835 -0.9580136677292176
120000000.0 -0.0951468746479174 -0.009635603407900439 0.45351249945276134 -0.9350089627703252 0.0 0.0 -0.40949179421110876 -0.9132958226570218
125000000.0 -0.1030665407631875 -0.027708487076051926 0.45635754892029834 -0.9481620143063848 0.0 0.0 -0.3328213163431184 -0.8757873857983721
130000000.0 -0.09206477868865996 -0.019873918363356887 0.3997057186374196 -0.9701305089358045 0.0 0.0 -0.4883134903983944 -0.7683783851399992
135000000.0 -0.10127089485780745 -0.01901996803655461 0.29210307396848423 -0.9995111690349482 0.0 0.0 -0.6546495619954797 -0.9072669541745294
140000000.0 -0.09332265446666181 -0.014606193176255772 0.2815775142591014 -0.9701449301350958 0.0 0.0 -0.6761597309142019 -0.7915542185599873
145000000.0 -0.09399504611665022 -0.013694635165770606 0.1892327005269739 -0.9721314111078239 0.0 0.0 -0.7279450468602728 -0.7445910300828374
150000000.0 -0.09456614045746965 -0.014532592911326515 0.1564370491353079 -0.9790346968651736 0.0 0.0 -0.7122841976138216 -0.7184881688662642
155000000.0 -0.09392627685680231 -0.01777425541322855 0.16016314988539745 -0.9549121689428168 0.0 0.0 -0.7192577913228648 -0.6466449366683471
160000000.0 -0.09526114793450743 -0.028322646807701947 0.13067865524477276 -0.9489254848983922 0.0 0.0 -0.7794002218322581 -0.6059222185792671
165000000.0 -0.10585895370590474 -0.01132489274184035 0.1683135130093565 -0.9245332392937994 0.0 0.0 -0.7777301099228221 -0.5653869034768149
170000000.0 -0.09769104220182011 0.049491259132950036 0.23063467419225994 -0.8738520622802068 0.0 0.0 -0.7762479519233116 -0.4837709384962653
175000000.0 -0.08861702591546519 0.06355575492277327 0.12549656585301944 -0.9143761371226017 0.0 0.0 -0.8834898116665717 -0.4364793836694623
180000000.0 -0.10801235238810701 0.039923923490956775 0.05771363678987615 -1.0112986147075544 0.0 0.0 -0.9782089578830215 -0.4386969983781168
185000000.0 -0.04893572696109885 0.07396659524308594 0.002837549089524724 -1.0234625529839696 0.0 0.0 -0.9871511545540714 -0.3070416618563866
190000000.0 -0.09782044493540344 0.06694277667138304 -0.034860401396258484 -0.9753013982098507 0.0 0.0 -1.0209897033549489 -0.21082417820076513
195000000.0 -0.11216713141703083 0.017620520100133936 -0.15381331205586846 -1.0046626380248969 0.0 0.0 -1.0254602119949077 -0.10770549529157315
200000000.0 -0.08463757509887472 0.0016892596005457239 -0.19911609949317968 -0.9879400114564287 0.0 0.0 -0.9855460073893897 -0.04826489646485005
205000000.0 -0.09344507924792604 -0.006116223276595672 -0.23134135953863785 -0.9452147443956403 0.0 0.0 -0.9669728999733666 0.002200473612403494
210000000.0 -0.09258220402392513 -0.012146073062332273 -0.26384947416900006 -0.9224927104321275 0.0 0.0 -0.9601628516789956 0.049076854924611946
215000000.0 -0.08638432539216458 -0.015488184434590145 -0.29267899641672135 -0.9288670440275318 0.0 0.0 -0.9593087599809663 0.0971876602152944
220000000.0 -0.07492268797297559 -0.03463232443346462 -0.2383815205910494 -0.9635061047319243 0.0 0.0 -0.9679121317968934 0.059365495708846715
225000000.0 -0.0780224909036301 -0.03266612429018884 -0.36665270212783624 -1.0331891085229448 0.0 0.0 -1.0882360401106832 0.19453592063565422
230000000.0 -0.09028768630461104 -0.03723346302372967 -0.41505373595567446 -0.9167596909320765 0.0 0.0 -1.1144511281906802 0.31113711886240847
235000000.0 -0.08673508974847036 -0.033904737716637406 -0.46037334585283296 -0.8852945829292506 0.0 0.0 -1.0509262851071046 0.37964288471007823
240000000.0 -0.08466504013927229 -0.030905568057201026 -0.4902799080472354 -0.8622900460061946 0.0 0.0 -1.0037088177595102 0.42555941363810884
245000000.0 -0.08370687773671956 -0.027656295835552208 -0.515718855073334 -0.8407211533330305 0.0 0.0 -0.968204634153793 0.45482737400362
250000000.0 -0.08188569554705881 -0.02704936931204635 -0.5353903509431586 -0.8260280080760893 0.0 0.0 -0.9396960780449154 0.48763463078249075
255000000.0 -0.08198813581432533 -0.027462975405223234 -0.5589343466109022 -0.8082745451965512 0.0 0.0 -0.9055831366629686 0.5383769694052492
260000000.0 -0.08229383585817605 -0.029899546680628285 -0.5877345705493571 -0.7909415849621415 0.0 0.0 -0.8779782831613624 0.6112753973364864
265000000.0 -0.0828467292971732 -0.03292031712190311 -0.6366739429620083 -0.7588123809073529 0.0 0.0 -0.8327766409897749 0.6962404831149326
270000000.0 -0.08565496034132657 -0.038134042726645424 -0.6510430748232382 -0.7498188443357904 0.0 0.0 -0.8035727057521793 0.7558057110547152
275000000.0 -0.08746217233126126 -0.0383305000997192 -0.6652517133281449 -0.7320496544966365 0.0 0.0 -0.7025671416422219 0.8281810810329021
280000000.0 -0.08974201016656763 -0.03265470670660995 -0.7196586663941839 -0.6815398448294928 0.0 0.0 -0.6041897992590719 0.9423689203723541
285000000.0 -0.08659290527555251 -0.03049681515366777 -0.7429416330810984 -0.6572789119677058 0.0 0.0 -0.4925792793215051 0.9654593337289019
290000000.0 -0.08762282060941916 -0.03166276140903494 -0.7736745630834216 -0.6240975007800783 0.0 0.0 -0.38594600439716004 0.9732914745895266
295000000.0 -0.08978962288102245 -0.03281781046255959 -0.80297203293519 -0.6015704903809311 0.0 0.0 -0.299481164856167 0.9883232676172781
300000000.0 -0.0894086389001462 -0.03403033327166962 -0.8304930975475407 -0.5735652749664807 0.0 0.0 -0.21082950196860972 0.9906092978015987
305000000.0 -0.08989484769188062 -0.03337787792855457 -0.8834779821645418 -0.4970842732683574 0.0 0.0 -0.12143849234773947 0.9984539987237373
310000000.0 -0.0896373534400291 -0.0338391021086822 -0.9027675277315702 -0.45219916187968534 0.0 0.0 -0.03458782090067312 0.9977554724260961
315000000.0 -0.08969072397786103 -0.03490718646591286 -0.9167729716223498 -0.41691101509376005 0.0 0.0 0.044060279667188576 0.9869778431417972
320000000.0 -0.09064914526341317 -0.03639847050739788 -0.928589814839973 -0.3808834215981933 0.0 0.0 0.12472421278397054 0.967687067006823
325000000.0 -0.0911682957907313 -0.03672653173080656 -0.9380774214741795 -0.3481296380243076 0.0 0.0 0.19790734017729034 0.9453313323661513
330000000.0 -0.09121987943796286 -0.037845352773999606 -0.946736402511876 -0.32003303690527163 0.0 0.0 0.26694304049059114 0.92328149472191
335000000.0 -0.09130652355208406 -0.039912101436198326 -0.9527520095935205 -0.2898681979487679 0.0 0.0 0.33631866623150086 0.897407075736941
340000000.0 -0.09233997855381638 -0.042789114046449125 -0.9532860206925118 -0.27855556794064756 0.0 0.0 0.38756723215305733 0.8705947257982294
345000000.0 -0.09372796218857649 -0.045100373337853834 -0.94050345025881 -0.30808209116005214 0.0 0.0 0.3929176286022757 0.8658646125546099
350000000.0 -0.0956390082490749 -0.04654014836520255 -0.9421208971453331 -0.3015169136455513 0.0 0.0 0.4315046376751511 0.8474612208790012
355000000.0 -0.09814249516925926 -0.05012770447276648 -0.9592096053969565 -0.2628542304402623 0.0 0.0 0.5218065816062836 0.8192145291972559
360000000.0 -0.09587804230421564 -0.06395622840911794 -0.9767419520847437 -0.23231040369834688 0.0 0.0 0.6114778298475755 0.7761363862839378
365000000.0 -0.08838439282355759 -0.09036436752879791 -0.981534380798127 -0.18538013198678696 0.0 0.0 0.6824295907520967 0.7016646539458997
370000000.0 -0.09065613739264158 -0.10265164856372143 -0.9916688762614639 -0.14171432795695402 0.0 0.0 0.7297448868329284 0.635694214026468
375000000.0 -0.09036913441876537 -0.09452152746038187 -0.9889930257897133 -0.08519321297225889 0.0 0.0 0.7950526949502089 0.5655537162640877
380000000.0 -0.07629421103514893 -0.08702261293623573 -0.9829075484920036 -0.05150189283348089 0.0 0.0 0.8577182764603486 0.45858066075495896
385000000.0 -0.06043425373637679 -0.075665567381999 -0.9882288998472176 -0.008866635751847493 0.0 0.0 0.9135931281381667 0.35278874827779994
390000000.0 -0.04860796117493056 -0.06292505404855765 -0.9969047716566407 0.04210288999986555 0.0 0.0 0.9385052362373066 0.26264518021555233
395000000.0 -0.04386964836968751 -0.05823906713727072 -0.999102001748513 0.09984014349835604 0.0 0.0 0.9616840437377006 0.18612834044428206
400000000.0 -0.04099954760635871 -0.05202062121736873 -0.9958250628730639 0.15084891954471452 0.0 0.0 0.971481053802959 0.11429655792503901
405000000.0 -0.03629621612367817 -0.04858437706690436 -0.9902066914522321 0.18164690904633896 0.0 0.0 0.9867472175257542 0.04593688139357152
410000000.0 -0.03122059858408301 -0.0466853476220545 -0.9773280487048797 0.2135700595621672 0.0 0.0 1.0012418010145399 -0.03093216682038809
415000000.0 -0.02849735793768389 -0.04558942638274931 -0.965700476496015 0.24731843317623264 0.0 0.0 1.0024067519157194 -0.11420145200138312
420000000.0 -0.02673344513550599 -0.046222026993698664 -0.9562379004492444 0.2732908776661652 0.0 0.0 0.9917838921135087 -0.19702504621509637
425000000.0 -0.024821432222212902 -0.04704232989313372 -0.9466271094119932 0.29457864872732925 0.0 0.0 0.9741558598855679 -0.2766329163514373
430000000.0 -0.021625761804064662 -0.04806789430578531 -0.9307381191847311 0.3155363862164353 0.0 0.0 0.9485708316404842 -0.35101026856002654
435000000.0 -0.019783612656495347 -0.049199067071135735 -0.9110080709089158 0.3561926097198101 0.0 0.0 0.9103483128756646 -0.4337467602665341
440000000.0 -0.019700064887684256 -0.04935662594906684 -0.8900511168892569 0.40407695392249765 0.0 0.0 0.8563822697210302 -0.5146263569887083
445000000.0 -0.022367843784637315 -0.048567626353227936 -0.8703423525252756 0.4512866405530259 0.0 0.0 0.7925873375264624 -0.5942844888619523
450000000.0 -0.028954113903335583 -0.045406519054153646 -0.8456461012903007 0.5121645498980154 0.0 0.0 0.7109504136094741 -0.6727861055320802
455000000.0 -0.04007448906443666 -0.03752892839277168 -0.812594628275607 0.5776462625082894 0.0 0.0 0.6140593639599538 -0.7379674059341146
460000000.0 -0.04662918511017996 -0.03043240010055789 -0.7849177904141755 0.5946699204285538 0.0 0.0 0.5545446552890752 -0.7638164004829954
465000000.0 -0.0439179244807659 -0.03239162473270383 -0.7797173977107544 0.5606073401552502 0.0 0.0 0.5260145196297331 -0.7783467053064667
470000000.0 -0.0421675594134509 -0.03881258522438263 -0.7456372536196785 0.5675716223033143 0.0 0.0 0.46555000129035345 -0.8216299425717634
475000000.0 -0.04237938106411443 -0.046275560242467956 -0.7082293735199986 0.5910070478602101 0.0 0.0 0.40507463587558934 -0.8700786214499462
480000000.0 -0.04048041592390372 -0.05217056857010279 -0.6799587456352737 0.6065488132975739 0.0 0.0 0.3414615201074137 -0.9092761058125551
485000000.0 -0.03378745004582193 -0.059953495118163586 -0.6577853009036818 0.6153530554136535 0.0 0.0 0.2775262700639867 -0.9356523604787508
490000000.0 -0.02594776273820919 -0.0694294961968766 -0.6380235522667305 0.6167205719225786 0.0 0.0 0.22537633583219238 -0.9466070830985907
495000000.0 -0.021790728228221264 -0.08211548671960452 -0.6184219082587984 0.6170744103945929 0.0 0.0 0.1874708679956733 -0.9577240069869508
500000000.0 -0.030154293581776914 -0.09749553619484495 -0.5878706964951559 0.6318759508435433 0.0 0.0 0.14474987591229657 -0.9804607026063822
505000000.0 -0.0501894557497657 -0.11488814616004124 -0.5190617469390817 0.6963652745227371 0.0 0.0 0.06459317044047785 -1.0112012202669995
510000000.0 -0.0762175273431054 -0.12964071133572358 -0.45791412049703506 0.7620789115593337 0.0 0.0 -0.0345934464590262 -1.0336363087391427
515000000.0 -0.11088004314910509 -0.13747547350634218 -0.4609974477216461 0.7568332788819752 0.0 0.0 -0.10686255495112297 -1.0416573129010387
520000000.0 -0.15338987025900247 -0.12738623633695756 -0.5016932857440648 0.695888857999147 0.0 0.0 -0.13505211706280124 -1.0263285772120405
525000000.0 -0.19976908394717455 -0.0993659864716689 -0.4401574050814458 0.7081172113763231 0.0 0.0 -0.3112965164261353 -0.9880608354144604
530000000.0 -0.21751476641801712 -0.06146047725889815 -0.3765056712174421 0.7549686364900877 0.0 0.0 -0.4355213770607369 -0.9190055705348928
535000000.0 -0.24136247802839014 -0.030736655660571172 -0.26990242333114894 0.8010588695988974 0.0 0.0 -0.581985009072672 -0.8636627934133889
540000000.0 -0.20132408915976563 0.023827506210349566 -0.20508234714355092 0.8523969082511521 0.0 0.0 -0.5954217677096116 -0.7807929645805792
545000000.0 -0.14682422826003122 0.026252376878882835 -0.09522074933979757 0.8786369473598693 0.0 0.0 -0.615616895035769 -0.7684163556356947
550000000.0 -0.11685539162545716 -0.021276676219359043 0.020131638239698307 0.9142721294701255 0.0 0.0 -0.6991955059327118 -0.7754194298086962
555000000.0 -0.04925122375743054 -0.052700977801492216 -0.014198672009167983 0.9636275129267968 0.0 0.0 -0.6788121519886626 -0.7820133585157579
560000000.0 -0.044209919653426945 -0.03048394292173806 -0.100416292681798 0.8622333995652819 0.0 0.0 -0.6546452470548545 -0.6588203707576601
565000000.0 -0.10017627300144996 -0.018288848759237617 -0.07496799108266328 0.8012139453612226 0.0 0.0 -0.7554789971832603 -0.5203525863712397
570000000.0 -0.17646689265124743 0.01721976943430372 -0.04730656233258456 0.7318521578337549 0.0 0.0 -0.7991047102418578 -0.3965362403180284
575000000.0 -0.22200042594806876 0.0592868596027017 -0.04032002270927354 0.7466139770218578 0.0 0.0 -0.8403944568117562 -0.3076881195884507
580000000.0 -0.21191265217957642 0.08834555960183164 0.005495289543677911 0.8146422898225093 0.0 0.0 -0.8724175387136162 -0.26164756027863206
585000000.0 -0.16986603050279311 0.09898604930591606 0.09787046562911655 0.868868398255175 0.0 0.0 -0.8858816581875626 -0.2068899120214486
590000000.0 -0.14623409635254056 0.11206595372367217 0.21080582417108187 0.8681627859219706 0.0 0.0 -0.8963987011487186 -0.12001551937418077
595000000.0 -0.03588275886180505 -0.10076959005236494 0.5487895145198959 0.7461148840611641 0.0 0.0 -1.0141561435300288 -0.12894699861873982
600000000.0 -0.06299049752755859 -0.09145687128033252 0.5983513351536279 0.7507909542990431 0.0 0.0 -1.057260667050847 0.0010599213812316015
605000000.0 -0.08186928503739238 -0.06791898668405491 0.5685898155582998 0.6363724339636341 0.0 0.0 -0.9497130180382797 0.07990799729091567
610000000.0 -0.08224271203235445 -0.032701835363177424 0.6196836084352619 0.6136737082998348 0.0 0.0 -0.9333787542058376 0.15668545136844964
615000000.0 -0.07036642310627288 -0.00634249279913349 0.6752106388583621 0.5822184300564938 0.0 0.0 -0.91444303704505 0.23252602477215067
620000000.0 -0.050877319236456525 0.005818436994029626 0.7342222581698763 0.5466715400050386 0.0 0.0 -0.902355405948136 0.31107118662295097
625000000.0 -0.023711194632050608 0.010825417521043946 0.7874046928815138 0.5125352036381403 0.0 0.0 -0.8824610722117239 0.3968891927654946
630000000.0 -0.0017985797214877084 0.017074137181091426 0.8281892509553612 0.4823124040179864 0.0 0.0 -0.8543444453440678 0.49198423076903824
635000000.0 0.003077437703876263 0.01898288679714648 0.8467152104310995 0.448167177928898 0.0 0.0 -0.815731940415387 0.5715591637036571
640000000.0 0.003990211384571269 0.02031559711425332 0.8572527471789487 0.40556572018574927 0.0 0.0 -0.7634307690466525 0.6322209998551186
645000000.0 0.00401396062341256 0.02137622497059431 0.8797245834647541 0.35148152350683765 0.0 0.0 -0.6964222462287113 0.6992501559490055
650000000.0 0.003907062786303605 0.02197521494457487 0.9050737347712001 0.2860851222524529 0.0 0.0 -0.6218061040005025 0.7638339887021037
655000000.0 0.0029660644810660212 0.021827427997800092 0.9276163453194843 0.2347586803896307 0.0 0.0 -0.5545616618195593 0.8112040751387138
660000000.0 0.0010801539525475867 0.02072510061789345 0.934950260931557 0.24404312608639445 0.0 0.0 -0.5348960409299368 0.8173246295254274
665000000.0 0.0017698600820681932 0.01968135461113577 0.9350208006586632 0.3029066548858223 0.0 0.0 -0.5518760969483298 0.8004421917088074
670000000.0 0.00022931118162566037 0.016865026351909545 0.9552243340184582 0.26993909575244845 0.0 0.0 -0.5033302762618407 0.8254796555854633
675000000.0 -0.0006632929567375984 0.015477220698247205 0.9814434140033451 0.18424655956862301 0.0 0.0 -0.4168093672113666 0.8690032795357981
680000000.0 -0.0020670034540537425 0.01570580301024011 0.9981836326832777 0.0919651214777335 0.0 0.0 -0.3200090745307787 0.90684480889977
685000000.0 -0.0026433844282820734 0.01728848430985014 1.0076066086279274 0.023458749966400773 0.0 0.0 -0.24128594264806616 0.9354084756955171
690000000.0 -0.0018020563066730615 0.01952924921368288 1.0139094462548157 -0.0442101466456503 0.0 0.0 -0.15724766877480623 0.9619504977766656
695000000.0 -0.0018502667062760083 0.021251856730251036 1.0128467283884617 -0.11180458435614087 0.0 0.0 -0.07549995767134424 0.9781502488988731
700000000.0 -0.0027173613186630913 0.02223514637267858 1.003765290537364 -0.17994911350851708 0.0 0.0 0.007836874587228329 0.983883496224603
705000000.0 -0.003333080802362682 0.02306927691487042 0.9893312042403166 -0.24668752219813586 0.0 0.0 0.09220096385725492 0.9799508918792907
710000000.0 -0.0035883738714479973 0.024684996300520737 0.9712753344257287 -0.3134604091169679 0.0 0.0 0.1760034808261334 0.9698294126255765
715000000.0 -0.005667494266818749 0.025312411206311176 0.9455984120456852 -0.3756184270051316 0.0 0.0 0.2570599645902957 0.9485817472039739
720000000.0 -0.007077064287332618 0.026926627259630954 0.9179760401605824 -0.4330369990574937 0.0 0.0 0.33243880615919125 0.9200885890307925
725000000.0 -0.008220524812610297 0.028414379011404523 0.8890492165692407 -0.4841192553080302 0.0 0.0 0.40127664654516443 0.8845531447261404
