!Created with skrf (http://scikit-rf.org).
# Hz S RI R 50.0 
!freq ReS11 ImS11 ReS21 ImS21 ReS12 ImS12 ReS22 ImS22
25000000.0 -0.0012935863283344835 0.0002538409736340581 0.0 0.0 0.0 0.0 0.0 0.0
26000000.0 -0.0012335351750567176 0.00025156344002836976 0.0 0.0 0.0 0.0 0.0 0.0
27000000.0 -0.0011901822262827672 0.00025014926825558216 0.0 0.0 0.0 0.0 0.0 0.0
28000000.0 -0.00101171933701882 0.0002189595586856252 0.0 0.0 0.0 0.0 0.0 0.0
29000000.0 -0.0009988295567400999 0.00022241417363395773 0.0 0.0 0.0 0.0 0.0 0.0
30000000.0 -0.0007566717894518701 0.00017322641000165566 0.0 0.0 0.0 0.0 0.0 0.0
31000000.0 -0.0007732298386568809 0.00018185972916192003 0.0 0.0 0.0 0.0 0.0 0.0
32000000.0 -0.0007123520139123904 0.00017200699010567466 0.0 0.0 0.0 0.0 0.0 0.0
33000000.0 -0.0007278900529374881 0.00018032580521103983 0.0 0.0 0.0 0.0 0.0 0.0
34000000.0 -0.0007787930714405696 0.00019782714907418597 0.0 0.0 0.0 0.0 0.0 0.0
35000000.0 -0.0007599125779520019 0.0001978076735918632 0.0 0.0 0.0 0.0 0.0 0.0
36000000.0 -0.0006840542430481112 0.0001823650903960187 0.0 0.0 0.0 0.0 0.0 0.0
37000000.0 -0.0006751540874226546 0.00018424379936629622 0.0 0.0 0.0 0.0 0.0 0.0
38000000.0 -0.0005479831812959351 0.00015266987242548686 0.0 0.0 0.0 0.0 0.0 0.0
39000000.0 -0.0006735776587695392 0.00018992618822845847 0.0 0.0 0.0 0.0 0.0 0.0
40000000.0 -0.0007464572049546845 0.00021298175331609285 0.0 0.0 0.0 0.0 0.0 0.0
41000000.0 -0.000917527289618617 0.00026486697068721924 0.0 0.0 0.0 0.0 0.0 0.0
42000000.0 -0.0010647065884651441 0.0003109158266979909 0.0 0.0 0.0 0.0 0.0 0.0
43000000.0 -0.0010637456768187018 0.00031418769209169033 0.0 0.0 0.0 0.0 0.0 0.0
44000000.0 -0.001087533464000113 0.00032483921618710034 0.0 0.0 0.0 0.0 0.0 0.0
45000000.0 -0.0011247200688110724 0.00033968961040411653 0.0 0.0 0.0 0.0 0.0 0.0
46000000.0 -0.0012040465917040606 0.00036764792596579316 0.0 0.0 0.0 0.0 0.0 0.0
47000000.0 -0.0012452002886947984 0.0003843434577251614 0.0 0.0 0.0 0.0 0.0 0.0
48000000.0 -0.0013484419134643284 0.00042067412682685805 0.0 0.0 0.0 0.0 0.0 0.0
49000000.0 -0.0013785496823901168 0.00043462271458835313 0.0 0.0 0.0 0.0 0.0 0.0
50000000.0 -0.0014757397957523245 0.000470132932533318 0.0 0.0 0.0 0.0 0.0 0.0
51000000.0 -0.0015593551258758875 0.0005098493849476619 0.0 0.0 0.0 0.0 0.0 0.0
52000000.0 -0.001536675451177254 0.000518552359597914 0.0 0.0 0.0 0.0 0.0 0.0
53000000.0 -0.0015317762303228774 0.0005328504218945654 0.0 0.0 0.0 0.0 0.0 0.0
54000000.0 -0.0016935025563065511 0.0006066182169037271 0.0 0.0 0.0 0.0 0.0 0.0
55000000.0 -0.0016879322598612773 0.0006219495601862599 0.0 0.0 0.0 0.0 0.0 0.0
56000000.0 -0.0018234926939158117 0.0006904841478566101 0.0 0.0 0.0 0.0 0.0 0.0
57000000.0 -0.0018596623207948941 0.0007229991411825592 0.0 0.0 0.0 0.0 0.0 0.0
58000000.0 -0.001874762948338245 0.0007477076070090638 0.0 0.0 0.0 0.0 0.0 0.0
59000000.0 -0.0018468939403436316 0.0007550195220369764 0.0 0.0 0.0 0.0 0.0 0.0
60000000.0 -0.0019949038003592447 0.0008352905124471515 0.0 0.0 0.0 0.0 0.0 0.0
61000000.0 -0.001965112471046859 0.0008421489608643244 0.0 0.0 0.0 0.0 0.0 0.0
62000000.0 -0.002074146028485779 0.0009091381041570731 0.0 0.0 0.0 0.0 0.0 0.0
63000000.0 -0.0020671126603610318 0.0009250184264590554 0.0 0.0 0.0 0.0 0.0 0.0
64000000.0 -0.0022090849127413886 0.001004181458629001 0.0 0.0 0.0 0.0 0.0 0.0
65000000.0 -0.0021779338037239675 0.0010054868074559793 0.0 0.0 0.0 0.0 0.0 0.0
66000000.0 -0.0023273463667347356 0.001091051497099284 0.0 0.0 0.0 0.0 0.0 0.0
67000000.0 -0.0022680964960716354 0.001079496053401539 0.0 0.0 0.0 0.0 0.0 0.0
68000000.0 -0.0023683521331212018 0.001144210593697513 0.0 0.0 0.0 0.0 0.0 0.0
69000000.0 -0.0023889955905900266 0.0011713914426795093 0.0 0.0 0.0 0.0 0.0 0.0
70000000.0 -0.002382148515293764 0.0011852536837846518 0.0 0.0 0.0 0.0 0.0 0.0
71000000.0 -0.002348047195933386 0.0011853202414785315 0.0 0.0 0.0 0.0 0.0 0.0
72000000.0 -0.0025085883631242156 0.0012846270943898813 0.0 0.0 0.0 0.0 0.0 0.0
73000000.0 -0.0025011323402195245 0.0012990840480703418 0.0 0.0 0.0 0.0 0.0 0.0
74000000.0 -0.0025224857603044827 0.0013286725520993171 0.0 0.0 0.0 0.0 0.0 0.0
75000000.0 -0.0025733902775569623 0.0013744245564595605 0.0 0.0 0.0 0.0 0.0 0.0
76000000.0 -0.0026530479819892126 0.0014427213171025318 0.0 0.0 0.0 0.0 0.0 0.0
77000000.0 -0.002671586285352041 0.00148161051828367 0.0 0.0 0.0 0.0 0.0 0.0
78000000.0 -0.0028167819294352544 0.0015928041444308247 0.0 0.0 0.0 0.0 0.0 0.0
79000000.0 -0.002803477164632344 0.0016161068244067269 0.0 0.0 0.0 0.0 0.0 0.0
80000000.0 -0.0028222823763617497 0.0016582868390160744 0.0 0.0 0.0 0.0 0.0 0.0
81000000.0 -0.002808428856601076 0.0016816421765008217 0.0 0.0 0.0 0.0 0.0 0.0
82000000.0 -0.0028925828084345783 0.0017647948638064336 0.0 0.0 0.0 0.0 0.0 0.0
83000000.0 -0.002844903145430039 0.0017682507277368505 0.0 0.0 0.0 0.0 0.0 0.0
84000000.0 -0.002896065575883978 0.00183351567475577 0.0 0.0 0.0 0.0 0.0 0.0
85000000.0 -0.0029478707623829 0.00190072240908868 0.0 0.0 0.0 0.0 0.0 0.0
86000000.0 -0.003035061963511881 0.0019927283465659544 0.0 0.0 0.0 0.0 0.0 0.0
87000000.0 -0.003053414056337327 0.0020411495355505344 0.0 0.0 0.0 0.0 0.0 0.0
88000000.0 -0.003001915508149872 0.002042319922904678 0.0 0.0 0.0 0.0 0.0 0.0
89000000.0 -0.003091185190326039 0.0021377440364404067 0.0 0.0 0.0 0.0 0.0 0.0
90000000.0 -0.0030749293420700074 0.0021610610790776977 0.0 0.0 0.0 0.0 0.0 0.0
91000000.0 -0.0030586473603064915 0.002184044819026772 0.0 0.0 0.0 0.0 0.0 0.0
92000000.0 -0.0031857259584166854 0.002310696065473539 0.0 0.0 0.0 0.0 0.0 0.0
93000000.0 -0.0032799916156643883 0.002416096867997421 0.0 0.0 0.0 0.0 0.0 0.0
94000000.0 -0.0033000683423099176 0.002468194777707241 0.0 0.0 0.0 0.0 0.0 0.0
95000000.0 -0.0033586099732538888 0.0025500064995895096 0.0 0.0 0.0 0.0 0.0 0.0
96000000.0 -0.0033402825121221637 0.002573967140349713 0.0 0.0 0.0 0.0 0.0 0.0
97000000.0 -0.0033604261230579624 0.002627650063758388 0.0 0.0 0.0 0.0 0.0 0.0
98000000.0 -0.003341900835665043 0.0026511709470875533 0.0 0.0 0.0 0.0 0.0 0.0
99000000.0 -0.0034401813644581625 0.0027683204614378067 0.0 0.0 0.0 0.0 0.0 0.0
100000000.0 -0.003421040385094087 0.0027919399494143416 0.0 0.0 0.0 0.0 0.0 0.0
101000000.0 -0.003562315717770848 0.002947800471867981 0.0 0.0 0.0 0.0 0.0 0.0
102000000.0 -0.0035422945587190342 0.002971829428868999 0.0 0.0 0.0 0.0 0.0 0.0
103000000.0 -0.003645936968825973 0.003100938591301967 0.0 0.0 0.0 0.0 0.0 0.0
104000000.0 -0.003542467937962126 0.0030542654023522384 0.0 0.0 0.0 0.0 0.0 0.0
105000000.0 -0.003603919315948462 0.003149673330968041 0.0 0.0 0.0 0.0 0.0 0.0
106000000.0 -0.0035011976207164845 0.0031014885877888934 0.0 0.0 0.0 0.0 0.0 0.0
107000000.0 -0.003561481570226873 0.003197581203443014 0.0 0.0 0.0 0.0 0.0 0.0
108000000.0 -0.0034995916350446647 0.0031843476213517874 0.0 0.0 0.0 0.0 0.0 0.0
109000000.0 -0.0035186552116047948 0.003244648213523951 0.0 0.0 0.0 0.0 0.0 0.0
110000000.0 -0.003537600741728935 0.003305702519180775 0.0 0.0 0.0 0.0 0.0 0.0
111000000.0 -0.003639265726569445 0.0034459554968851226 0.0 0.0 0.0 0.0 0.0 0.0
112000000.0 -0.0034537560301320294 0.0033136453962372605 0.0 0.0 0.0 0.0 0.0 0.0
113000000.0 -0.003472600652054885 0.003373919510680007 0.0 0.0 0.0 0.0 0.0 0.0
114000000.0 -0.003299492674590086 0.0032392852584094355 0.0 0.0 0.0 0.0 0.0 0.0
115000000.0 -0.003171318384388138 0.0031456895674129384 0.0 0.0 0.0 0.0 0.0 0.0
116000000.0 -0.0031552451639087413 0.0031618113646008812 0.0 0.0 0.0 0.0 0.0 0.0
117000000.0 -0.0032872080503626977 0.003327443383909963 0.0 0.0 0.0 0.0 0.0 0.0
118000000.0 -0.0034643544014945115 0.0035419398269445367 0.0 0.0 0.0 0.0 0.0 0.0
119000000.0 -0.00382312669479835 0.003947558673349945 0.0 0.0 0.0 0.0 0.0 0.0
120000000.0 -0.003803789977795619 0.003966194524836338 0.0 0.0 0.0 0.0 0.0 0.0
121000000.0 -0.0038283887657973355 0.00403068155316848 0.0 0.0 0.0 0.0 0.0 0.0
122000000.0 -0.0037223516175911454 0.003956790454608441 0.0 0.0 0.0 0.0 0.0 0.0
123000000.0 -0.0037464574302299007 0.0040203947477200925 0.0 0.0 0.0 0.0 0.0 0.0
124000000.0 -0.003727575401154194 0.004037907729595896 0.0 0.0 0.0 0.0 0.0 0.0
125000000.0 -0.00370880905341379 0.004055151367006667 0.0 0.0 0.0 0.0 0.0 0.0
126000000.0 -0.003821768328462427 0.0042134846073676735 0.0 0.0 0.0 0.0 0.0 0.0
127000000.0 -0.0038938364656072697 0.00432694501848906 0.0 0.0 0.0 0.0 0.0 0.0
128000000.0 -0.003921752988984954 0.004392441068317336 0.0 0.0 0.0 0.0 0.0 0.0
129000000.0 -0.0038598635627282857 0.004357277692670357 0.0 0.0 0.0 0.0 0.0 0.0
130000000.0 -0.003887343086486204 0.004422923102790854 0.0 0.0 0.0 0.0 0.0 0.0
131000000.0 -0.0038701072728163505 0.0044380124765650624 0.0 0.0 0.0 0.0 0.0 0.0
132000000.0 -0.003942596742457765 0.004556724306272171 0.0 0.0 0.0 0.0 0.0 0.0
133000000.0 -0.003970369725977064 0.0046248986095656286 0.0 0.0 0.0 0.0 0.0 0.0
134000000.0 -0.003952471897541966 0.00464020353097343 0.0 0.0 0.0 0.0 0.0 0.0
135000000.0 -0.003934557445590717 0.0046554033785552815 0.0 0.0 0.0 0.0 0.0 0.0
136000000.0 -0.0040542662083581735 0.004834629517048306 0.0 0.0 0.0 0.0 0.0 0.0
137000000.0 -0.004082422187147468 0.004906307865013914 0.0 0.0 0.0 0.0 0.0 0.0
138000000.0 -0.004108722140396102 0.004980496031526621 0.0 0.0 0.0 0.0 0.0 0.0
139000000.0 -0.004080205959731049 0.00500388425857441 0.0 0.0 0.0 0.0 0.0 0.0
140000000.0 -0.004098718235899855 0.0050851215032544925 0.0 0.0 0.0 0.0 0.0 0.0
141000000.0 -0.004117228580053029 0.005167205438494882 0.0 0.0 0.0 0.0 0.0 0.0
142000000.0 -0.004183628342716048 0.0053109389802096655 0.0 0.0 0.0 0.0 0.0 0.0
143000000.0 -0.00420235442454489 0.0053957141713797075 0.0 0.0 0.0 0.0 0.0 0.0
144000000.0 -0.004221083832180356 0.005481373962244266 0.0 0.0 0.0 0.0 0.0 0.0
145000000.0 -0.004239818297591433 0.005567928047330842 0.0 0.0 0.0 0.0 0.0 0.0
146000000.0 -0.004258559537255762 0.005655386284806304 0.0 0.0 0.0 0.0 0.0 0.0
147000000.0 -0.0042773092513703455 0.005743758696818499 0.0 0.0 0.0 0.0 0.0 0.0
148000000.0 -0.004345815259019603 0.0059005990688656 0.0 0.0 0.0 0.0 0.0 0.0
149000000.0 -0.004314840817939948 0.005923286955134331 0.0 0.0 0.0 0.0 0.0 0.0
150000000.0 -0.0043336259829562275 0.006014463668990707 0.0 0.0 0.0 0.0 0.0 0.0
151000000.0 -0.004305418357331279 0.006034688074301547 0.0 0.0 0.0 0.0 0.0 0.0
152000000.0 -0.004428734974150091 0.006266631636237985 0.0 0.0 0.0 0.0 0.0 0.0
153000000.0 -0.004350339485894404 0.00621438171431267 0.0 0.0 0.0 0.0 0.0 0.0
154000000.0 -0.004372659318383357 0.00630588740947015 0.0 0.0 0.0 0.0 0.0 0.0
155000000.0 -0.00434457281947197 0.00632527094691321 0.0 0.0 0.0 0.0 0.0 0.0
156000000.0 -0.004366438770202045 0.006417956923625472 0.0 0.0 0.0 0.0 0.0 0.0
157000000.0 -0.004388200173258385 0.006511773907743059 0.0 0.0 0.0 0.0 0.0 0.0
158000000.0 -0.004409853414863034 0.0066067334823981015 0.0 0.0 0.0 0.0 0.0 0.0
159000000.0 -0.00438066908971747 0.006626120491993276 0.0 0.0 0.0 0.0 0.0 0.0
160000000.0 -0.004452820787357322 0.006800127339722261 0.0 0.0 0.0 0.0 0.0 0.0
161000000.0 -0.004322234821678867 0.006664384487279074 0.0 0.0 0.0 0.0 0.0 0.0
162000000.0 -0.004342699419827129 0.006760649721180558 0.0 0.0 0.0 0.0 0.0 0.0
163000000.0 -0.00431320673443976 0.006779503711146498 0.0 0.0 0.0 0.0 0.0 0.0
164000000.0 -0.0043839866904890725 0.006956217236171745 0.0 0.0 0.0 0.0 0.0 0.0
165000000.0 -0.004304567692734295 0.00689492870009747 0.0 0.0 0.0 0.0 0.0 0.0
166000000.0 -0.0043249521247324205 0.006993074192225528 0.0 0.0 0.0 0.0 0.0 0.0
167000000.0 -0.004295607555893824 0.007011137801023889 0.0 0.0 0.0 0.0 0.0 0.0
168000000.0 -0.004266379680743199 0.00702896165581658 0.0 0.0 0.0 0.0 0.0 0.0
169000000.0 -0.004286334865889761 0.007128143552801909 0.0 0.0 0.0 0.0 0.0 0.0
170000000.0 -0.00420827834836639 0.007063900543033491 0.0 0.0 0.0 0.0 0.0 0.0
171000000.0 -0.004227802182834837 0.007163015132938825 0.0 0.0 0.0 0.0 0.0 0.0
172000000.0 -0.004198718625510781 0.007180101600651797 0.0 0.0 0.0 0.0 0.0 0.0
173000000.0 -0.004169758150041844 0.007196958667524307 0.0 0.0 0.0 0.0 0.0 0.0
174000000.0 -0.004140921615295917 0.007213588931167945 0.0 0.0 0.0 0.0 0.0 0.0
175000000.0 -0.004159826978700685 0.007313714374084324 0.0 0.0 0.0 0.0 0.0 0.0
176000000.0 -0.004117381397789798 0.007337693701943973 0.0 0.0 0.0 0.0 0.0 0.0
177000000.0 -0.00411664181063308 0.007449621212548102 0.0 0.0 0.0 0.0 0.0 0.0
178000000.0 -0.004068488801627089 0.007476028014830738 0.0 0.0 0.0 0.0 0.0 0.0
179000000.0 -0.004067160516715909 0.007588756779694481 0.0 0.0 0.0 0.0 0.0 0.0
180000000.0 -0.003972992188213609 0.007527212570393684 0.0 0.0 0.0 0.0 0.0 0.0
181000000.0 -0.004017097488125436 0.007727915972227872 0.0 0.0 0.0 0.0 0.0 0.0
182000000.0 -0.003968947277773451 0.007752755317251607 0.0 0.0 0.0 0.0 0.0 0.0
183000000.0 -0.004012422037195492 0.007958221715173321 0.0 0.0 0.0 0.0 0.0 0.0
184000000.0 -0.003918376897641742 0.00789119979159675 0.0 0.0 0.0 0.0 0.0 0.0
185000000.0 -0.003915381811496216 0.008006410478025269 0.0 0.0 0.0 0.0 0.0 0.0
186000000.0 -0.0038673218281998923 0.00802973507343529 0.0 0.0 0.0 0.0 0.0 0.0
187000000.0 -0.0038638009845263052 0.008145802205331499 0.0 0.0 0.0 0.0 0.0 0.0
188000000.0 -0.0037658814540546736 0.008077806654435056 0.0 0.0 0.0 0.0 0.0 0.0
189000000.0 -0.0037739594379997844 0.008302626528430593 0.0 0.0 0.0 0.0 0.0 0.0
190000000.0 -0.0036518823707810824 0.008242985306694917 0.0 0.0 0.0 0.0 0.0 0.0
191000000.0 -0.0036142531837178105 0.008373383487829322 0.0 0.0 0.0 0.0 0.0 0.0
192000000.0 -0.0035751597573854352 0.008504824309144152 0.0 0.0 0.0 0.0 0.0 0.0
193000000.0 -0.0034541390088812757 0.008440693147934698 0.0 0.0 0.0 0.0 0.0 0.0
194000000.0 -0.003373987989009644 0.008473050345671607 0.0 0.0 0.0 0.0 0.0 0.0
195000000.0 -0.00329380550297118 0.008504541282095341 0.0 0.0 0.0 0.0 0.0 0.0
196000000.0 -0.0031768287142458973 0.008437464722104188 0.0 0.0 0.0 0.0 0.0 0.0
197000000.0 -0.0030975701424470355 0.008466883182672984 0.0 0.0 0.0 0.0 0.0 0.0
198000000.0 -0.0030183482410413684 0.008495447340323665 0.0 0.0 0.0 0.0 0.0 0.0
199000000.0 -0.00297321920763265 0.00862185273903651 0.0 0.0 0.0 0.0 0.0 0.0
200000000.0 -0.002893220708277594 0.008649026017041503 0.0 0.0 0.0 0.0 0.0 0.0
201000000.0 -0.002869240547106938 0.008657010788551934 0.0 0.0 0.0 0.0 0.0 0.0
202000000.0 -0.0028685662059884432 0.0086572342599775 0.0 0.0 0.0 0.0 0.0 0.0
203000000.0 -0.002901105720497679 0.008757704574757774 0.0 0.0 0.0 0.0 0.0 0.0
204000000.0 -0.0029004339768168895 0.00875792707016699 0.0 0.0 0.0 0.0 0.0 0.0
205000000.0 -0.002933345070419756 0.008859562387243067 0.0 0.0 0.0 0.0 0.0 0.0
206000000.0 -0.002932675835756953 0.008859783938560534 0.0 0.0 0.0 0.0 0.0 0.0
207000000.0 -0.0029659627523247667 0.008962597768794307 0.0 0.0 0.0 0.0 0.0 0.0
208000000.0 -0.0029652959403589 0.008962818407145468 0.0 0.0 0.0 0.0 0.0 0.0
209000000.0 -0.0029306982424383535 0.008860438296572959 0.0 0.0 0.0 0.0 0.0 0.0
210000000.0 -0.002863352838569054 0.008658959962496975 0.0 0.0 0.0 0.0 0.0 0.0
211000000.0 -0.002862722994338496 0.008659168214554602 0.0 0.0 0.0 0.0 0.0 0.0
212000000.0 -0.002862097820683555 0.008659374872073938 0.0 0.0 0.0 0.0 0.0 0.0
213000000.0 -0.0028585015464262092 0.008660562684915227 0.0 0.0 0.0 0.0 0.0 0.0
214000000.0 -0.002909715749668788 0.00886735097149861 0.0 0.0 0.0 0.0 0.0 0.0
215000000.0 -0.0029617974187906375 0.00907903298736358 0.0 0.0 0.0 0.0 0.0 0.0
216000000.0 -0.003049669259603488 0.00940336320167474 0.0 0.0 0.0 0.0 0.0 0.0
217000000.0 -0.002998766797829014 0.009300895456588135 0.0 0.0 0.0 0.0 0.0 0.0
218000000.0 -0.0030173463062309626 0.009413784752364773 0.0 0.0 0.0 0.0 0.0 0.0
219000000.0 -0.0030012355794828945 0.009418933437073812 0.0 0.0 0.0 0.0 0.0 0.0
220000000.0 -0.003019725251578768 0.009533166284345277 0.0 0.0 0.0 0.0 0.0 0.0
221000000.0 -0.003003496576415536 0.00953829168748053 0.0 0.0 0.0 0.0 0.0 0.0
222000000.0 -0.0030568854717006647 0.009765669768018756 0.0 0.0 0.0 0.0 0.0 0.0
223000000.0 -0.003111167974118297 0.009998422548139239 0.0 0.0 0.0 0.0 0.0 0.0
224000000.0 -0.0032030223169733888 0.010355211418938942 0.0 0.0 0.0 0.0 0.0 0.0
225000000.0 -0.0031491157960349615 0.010241993548760485 0.0 0.0 0.0 0.0 0.0 0.0
226000000.0 -0.003116974587707816 0.010381436553461024 0.0 0.0 0.0 0.0 0.0 0.0
227000000.0 -0.0030268498128634795 0.010408070700390218 0.0 0.0 0.0 0.0 0.0 0.0
228000000.0 -0.002970418030706971 0.010554764809534701 0.0 0.0 0.0 0.0 0.0 0.0
229000000.0 -0.00291197743775099 0.010702675575914058 0.0 0.0 0.0 0.0 0.0 0.0
230000000.0 -0.0028845252623771896 0.010977452763734458 0.0 0.0 0.0 0.0 0.0 0.0
231000000.0 -0.0028212785281481302 0.011129513076601828 0.0 0.0 0.0 0.0 0.0 0.0
232000000.0 -0.002787847551873455 0.011413427727365762 0.0 0.0 0.0 0.0 0.0 0.0
233000000.0 -0.0026884750844177784 0.011437243032337523 0.0 0.0 0.0 0.0 0.0 0.0
234000000.0 -0.002588899648349309 0.011460193064301544 0.0 0.0 0.0 0.0 0.0 0.0
235000000.0 -0.0024891438851394393 0.011482272822893616 0.0 0.0 0.0 0.0 0.0 0.0
236000000.0 -0.0024168965342607276 0.011636681898417343 0.0 0.0 0.0 0.0 0.0 0.0
237000000.0 -0.002315689961801644 0.011657243862212306 0.0 0.0 0.0 0.0 0.0 0.0
238000000.0 -0.002258924178073084 0.011808523981950906 0.0 0.0 0.0 0.0 0.0 0.0
239000000.0 -0.002273790898486868 0.01194741452226293 0.0 0.0 0.0 0.0 0.0 0.0
240000000.0 -0.0022626016571863122 0.01194953859183352 0.0 0.0 0.0 0.0 0.0 0.0
241000000.0 -0.002251512239769866 0.011951633003526646 0.0 0.0 0.0 0.0 0.0 0.0
242000000.0 -0.0022927097914812516 0.01223213569673318 0.0 0.0 0.0 0.0 0.0 0.0
243000000.0 -0.002281562394629853 0.012234219833346915 0.0 0.0 0.0 0.0 0.0 0.0
244000000.0 -0.0022968045234820034 0.012377964623758788 0.0 0.0 0.0 0.0 0.0 0.0
245000000.0 -0.0023121929377317354 0.012523369097594963 0.0 0.0 0.0 0.0 0.0 0.0
246000000.0 -0.0023010835506816867 0.012525415131989643 0.0 0.0 0.0 0.0 0.0 0.0
247000000.0 -0.0023434134559923983 0.012819234712745063 0.0 0.0 0.0 0.0 0.0 0.0
248000000.0 -0.002332241921888016 0.012821271889479699 0.0 0.0 0.0 0.0 0.0 0.0
249000000.0 -0.0023211668307053478 0.012823281553105177 0.0 0.0 0.0 0.0 0.0 0.0
250000000.0 -0.002310186963808997 0.012825264185911385 0.0 0.0 0.0 0.0 0.0 0.0
251000000.0 -0.002296682396811369 0.01298096039756359 0.0 0.0 0.0 0.0 0.0 0.0
252000000.0 -0.0022447320197063647 0.012990044689478264 0.0 0.0 0.0 0.0 0.0 0.0
253000000.0 -0.0021932251215427793 0.012998840196000993 0.0 0.0 0.0 0.0 0.0 0.0
254000000.0 -0.0021421584795818065 0.013007353302009337 0.0 0.0 0.0 0.0 0.0 0.0
255000000.0 -0.002091528838403348 0.013015590266794073 0.0 0.0 0.0 0.0 0.0 0.0
256000000.0 -0.0020413329129840264 0.013023557225785342 0.0 0.0 0.0 0.0 0.0 0.0
257000000.0 -0.002014628655167933 0.013182155073646666 0.0 0.0 0.0 0.0 0.0 0.0
258000000.0 -0.0019647188900741184 0.013189686148156757 0.0 0.0 0.0 0.0 0.0 0.0
259000000.0 -0.0019598493613099525 0.013504358709219032 0.0 0.0 0.0 0.0 0.0 0.0
260000000.0 -0.0019096507590676925 0.013511548676768296 0.0 0.0 0.0 0.0 0.0 0.0
261000000.0 -0.0018814201938850872 0.013675025771469904 0.0 0.0 0.0 0.0 0.0 0.0
262000000.0 -0.001852717831401927 0.013840227476924281 0.0 0.0 0.0 0.0 0.0 0.0
263000000.0 -0.0018248195000355914 0.014007007720750987 0.0 0.0 0.0 0.0 0.0 0.0
264000000.0 -0.001801238822196209 0.014174954432814456 0.0 0.0 0.0 0.0 0.0 0.0
265000000.0 -0.0017770301023471518 0.014344747369708402 0.0 0.0 0.0 0.0 0.0 0.0
266000000.0 -0.0017122997244248235 0.014185972794302393 0.0 0.0 0.0 0.0 0.0 0.0
267000000.0 -0.0016680726067204521 0.01419124125105559 0.0 0.0 0.0 0.0 0.0 0.0
268000000.0 -0.0016240076624070715 0.014196351417860721 0.0 0.0 0.0 0.0 0.0 0.0
269000000.0 -0.0015984020335119418 0.014365748293237945 0.0 0.0 0.0 0.0 0.0 0.0
270000000.0 -0.001536365811982842 0.014206103426299672 0.0 0.0 0.0 0.0 0.0 0.0
271000000.0 -0.001510075296777759 0.014375301238007697 0.0 0.0 0.0 0.0 0.0 0.0
272000000.0 -0.0014661599759633911 0.014379846592028967 0.0 0.0 0.0 0.0 0.0 0.0
273000000.0 -0.001438881162422214 0.014550801694430775 0.0 0.0 0.0 0.0 0.0 0.0
274000000.0 -0.0013788269236228719 0.014388483220968664 0.0 0.0 0.0 0.0 0.0 0.0
