!Created with skrf (http://scikit-rf.org).
# Hz S RI R 50.0 
!freq ReS11 ImS11 ReS21 ImS21 ReS12 ImS12 ReS22 ImS22
25000000.0 -0.08333226429591092 -0.029947476537488006 0.006078452103137436 -0.021561123622781606 0.0 0.0 -0.08123378184207737 -0.05429559606128046
30000000.0 -0.07783264138038389 -0.03118131872472302 0.009149072901761021 -0.01980596003392267 0.0 0.0 -0.07288188794951948 -0.05416123621271856
35000000.0 -0.07993198297504155 -0.0322032132703481 0.011329406713468859 -0.02279714399872272 0.0 0.0 -0.07494703812885269 -0.06017175176276876
40000000.0 -0.07899645496975904 -0.030769262915785744 0.011716945797821869 -0.020342501041162316 0.0 0.0 -0.07450238268519752 -0.05553194046418893
45000000.0 -0.07621137297303887 -0.037796670639126895 0.01358629355821654 -0.022470953066265942 0.0 0.0 -0.07131571852257604 -0.06477543040925231
50000000.0 -0.0798657412621234 -0.0323797007151289 0.013109878266315267 -0.017158103285834416 0.0 0.0 -0.07328244764149086 -0.05426470539460878
55000000.0 -0.08401343966042205 -0.04072383813536654 0.020865898186702554 -0.019737051588096126 0.0 0.0 -0.07255937934060408 -0.06957197992741858
60000000.0 -0.0836530919328931 -0.04368230580004057 0.026590270239701636 -0.026270862386923687 0.0 0.0 -0.07150780064501971 -0.08337401755915301
65000000.0 -0.07986316615545551 -0.04791390880082338 0.024049386949517828 -0.029834677215328963 0.0 0.0 -0.07107463934361485 -0.08907847452061708
70000000.0 -0.0853106595266324 -0.025501865668803747 0.016219221862935135 -0.012443580217738899 0.0 0.0 -0.07805451509421314 -0.04564874194344512
75000000.0 -0.08627473249983958 -0.04080443214864741 0.04296174444150094 -0.023050233742083336 0.0 0.0 -0.06453197074458344 -0.08917629992771073
80000000.0 -0.10765767770227622 -0.011573004376421142 0.020720196402536313 -0.01314589020263002 0.0 0.0 -0.09756335109098885 -0.03749547138277045
85000000.0 -0.09400075593785018 -0.015585332128003733 0.028274838200265315 -0.01533077028369628 0.0 0.0 -0.07803358001937823 -0.047606514446307285
90000000.0 -0.09418668618892144 -0.0135901891569249 0.0170873676206327 -0.007747245671312797 0.0 0.0 -0.08534577235371793 -0.030935285716218723
95000000.0 -0.09783260607187994 0.0008609613561929651 0.01702218730242244 -0.008790325718874455 0.0 0.0 -0.09027673573625405 -0.017631725718642664
100000000.0 -0.0899262581597611 0.01944802517457944 0.02628126981015858 -0.007128348249065943 0.0 0.0 -0.07581603556100291 -0.004881024243594728
105000000.0 -0.0803982160187281 0.04377625011677778 0.05098682405510936 -0.020673899904768596 0.0 0.0 -0.06109191297707331 -0.0104972229245785
110000000.0 -0.07868290211543474 0.021113983307209358 0.043018754428676115 -0.02251164089257668 0.0 0.0 -0.06677061880065178 -0.0283055967501494
115000000.0 -0.09531588695614117 0.005567692509941803 0.07805483888212263 -0.0440933488419383 0.0 0.0 -0.08104944237136906 -0.08490978708957445
120000000.0 -0.09530993800741183 -0.009321058657612194 0.04772546864414328 -0.012385545018822462 0.0 0.0 -0.07699847856632006 -0.055256568629725424
125000000.0 -0.10328322810726258 -0.027572061892739422 0.03772953772055158 0.007824656260157369 0.0 0.0 -0.07283773818401044 -0.05153230745405837
130000000.0 -0.09120860181530034 -0.020260551375583382 0.03781902672367409 -0.0001974257431171525 0.0 0.0 -0.07197001391176625 -0.049691602308355974
135000000.0 -0.1015859461293431 -0.019050281383419014 0.028406297523078827 -0.002115368169648582 0.0 0.0 -0.08768856146135512 -0.04771132016467347
140000000.0 -0.09280475815562053 -0.01451651063777329 0.01993029261898047 -0.000249056264299106 0.0 0.0 -0.08348729992210456 -0.033480692306483005
145000000.0 -0.0938836872570327 -0.013508187601838943 0.01813143100057113 0.0005361574090130261 0.0 0.0 -0.08436610570187819 -0.030640558421033418
150000000.0 -0.09447495675028504 -0.014322202591107835 0.01771234494035651 0.0021939166157195224 0.0 0.0 -0.0835217244396458 -0.030096176242494808
155000000.0 -0.09395670698531852 -0.017434359828020007 0.01748517413280692 0.0050780036819501545 0.0 0.0 -0.08130006857227935 -0.03209625581371512
160000000.0 -0.09528590405211523 -0.02810764575430649 0.016868559946284077 0.009591719835218851 0.0 0.0 -0.07897521742543873 -0.041921035930212194
165000000.0 -0.10565546978823219 -0.012316544716968959 0.020343846339526225 0.016564712064392584 0.0 0.0 -0.08137668398092864 -0.02964722111420218
170000000.0 -0.09837658282466402 0.04796402323433016 0.042255084623205555 0.03244506659375196 0.0 0.0 -0.05478850635042558 0.005823236699568669
175000000.0 -0.09524300680312614 0.0503402547175742 0.07930381807379366 0.0286170249693388 0.0 0.0 -0.04766321483780892 -0.032160609338421
180000000.0 -0.09503921018280273 0.06170031039734944 0.0963799233650557 0.040115656516203725 0.0 0.0 -0.04178641321272281 -0.03587774604758699
185000000.0 -0.045209729765403515 0.0703917607961052 0.05865911559639427 0.020534056330656723 0.0 0.0 -0.016691711631779665 0.012333643183461529
190000000.0 -0.11482811555953602 0.0762805882381351 0.13080678693390718 0.007084678628636208 0.0 0.0 -0.08816982238164552 -0.05867470705649916
195000000.0 -0.11152293740023964 0.015831720354529816 0.11945369802993877 0.008323149978888155 0.0 0.0 -0.08968987365200082 -0.09775048836191141
200000000.0 -0.08476007692209654 0.0016863744063099033 0.07826117062599192 0.019825494551711894 0.0 0.0 -0.060153075163882255 -0.07302223376983709
205000000.0 -0.0940863707025189 -0.005941581341008124 0.044509314562555254 0.024777878112491162 0.0 0.0 -0.0684281817905705 -0.04948031759270825
210000000.0 -0.09318161592953537 -0.011920311217503666 0.017930928582501008 0.010661789276205919 0.0 0.0 -0.08260138076617453 -0.03008377187070838
215000000.0 -0.08690579967097353 -0.015303384795154787 0.015699505344702 0.010855585287143275 0.0 0.0 -0.07674227071108033 -0.03171871557621778
220000000.0 -0.0752951123942474 -0.034738662712455515 0.010841440281826 0.015198728510818542 0.0 0.0 -0.06169128745897257 -0.04808192226322116
225000000.0 -0.07834864545068924 -0.03261945797036275 0.010247389517198766 0.016650215921184146 0.0 0.0 -0.06343671065486814 -0.04663986110390573
230000000.0 -0.09084569027345447 -0.03703081184112743 0.00890799377567487 0.01509963728992845 0.0 0.0 -0.0762377818307706 -0.0509052901689693
235000000.0 -0.08695107746867593 -0.03376270432007054 0.0086723486052628 0.015230000271271641 0.0 0.0 -0.07286638388667883 -0.047156902924039866
240000000.0 -0.08479604814222995 -0.030753488148015956 0.008297748801015114 0.015436789047683348 0.0 0.0 -0.07097150964255713 -0.043757521592126696
245000000.0 -0.08398980045125863 -0.027422016742076342 0.007900613984999501 0.015822598588358175 0.0 0.0 -0.07005641102427544 -0.04011075372328994
250000000.0 -0.08222656546152077 -0.026790203084778717 0.007719937991949993 0.015907716669378125 0.0 0.0 -0.06859628862963293 -0.03959048255711255
255000000.0 -0.08226752319809347 -0.0270503833036341 0.007863193066503472 0.015712575538041857 0.0 0.0 -0.0693386036517212 -0.04045225578700567
260000000.0 -0.0826766436930667 -0.029704627458002165 0.007570545965328153 0.015775411894447332 0.0 0.0 -0.06995931607496174 -0.043560717421392135
265000000.0 -0.08312506935899862 -0.03269607393573285 0.006715479467942599 0.016835758323156372 0.0 0.0 -0.06940832366687136 -0.04680702396200969
270000000.0 -0.08617529198100657 -0.03806840338981262 0.005759662666387685 0.019497079190450337 0.0 0.0 -0.07011761346401224 -0.05353605783183329
275000000.0 -0.08762882666460543 -0.03859630955165588 0.0036067361187110663 0.0201542653729056 0.0 0.0 -0.0709688934844025 -0.0537067521686624
280000000.0 -0.09032912605349531 -0.032786921727478546 0.0020974264978287 0.02106578600633094 0.0 0.0 -0.0717457516186941 -0.04744126301551872
285000000.0 -0.08697639471842131 -0.030178420595796566 -0.0015688764559816048 0.022427790878427577 0.0 0.0 -0.066288432827439 -0.043074369455547115
290000000.0 -0.08798154151598021 -0.031223307673017495 -0.008016113520765422 0.022786258530008947 0.0 0.0 -0.06372208672187232 -0.039900338209815644
295000000.0 -0.08999769762024278 -0.032442239186131656 -0.0138346928385856 0.02102584963740243 0.0 0.0 -0.06379029808974025 -0.03634218414340676
300000000.0 -0.08981053449626197 -0.03378382264194354 -0.0169423938388562 0.017506223635294547 0.0 0.0 -0.06450194944899237 -0.034028984903534336
305000000.0 -0.09026859453134085 -0.03329036060107273 -0.018352291598709016 0.014812119360304903 0.0 0.0 -0.06592501458318109 -0.03154997172057786
310000000.0 -0.09013780805137611 -0.033799858344161514 -0.019193062053201343 0.012938909527340744 0.0 0.0 -0.06635226646452334 -0.0311039823012425
315000000.0 -0.09015648679388838 -0.0346645278084482 -0.020218126646410647 0.0112403458053269 0.0 0.0 -0.066542810063564 -0.030934101142927713
320000000.0 -0.09107194370469436 -0.03638498114242544 -0.021458996459630585 0.009463807772796609 0.0 0.0 -0.06734876129789796 -0.031174463874090674
325000000.0 -0.09160400204607837 -0.03660099279492714 -0.02290088155233044 0.007611145925313285 0.0 0.0 -0.06757912445416718 -0.02975552714018158
330000000.0 -0.09172270661556134 -0.03771381644956047 -0.024630578414352514 0.005725448506371371 0.0 0.0 -0.06707224941004401 -0.029070375403958022
335000000.0 -0.09193130784523729 -0.03987633637453996 -0.02725059920492803 0.0035560853798675394 0.0 0.0 -0.06587903531779395 -0.02886292074973508
340000000.0 -0.09279658479196069 -0.04277565987567016 -0.031079001914959967 0.0002545248044768704 0.0 0.0 -0.06447192894598568 -0.028103131740717
345000000.0 -0.09409435062928115 -0.04506669089665328 -0.03635377961989772 -0.004639052957521005 0.0 0.0 -0.06244874150628138 -0.024940980157530625
350000000.0 -0.09615719631741648 -0.04652410054878286 -0.04364623421801175 -0.01112882108080156 0.0 0.0 -0.059288748420478495 -0.01911730656873039
355000000.0 -0.09863443524682819 -0.049881951283168066 -0.05230717188026761 -0.018837938591041332 0.0 0.0 -0.05501237519013798 -0.0139884499827541
360000000.0 -0.09635918909094851 -0.06383238047278941 -0.05817875228526342 -0.027865688694859163 0.0 0.0 -0.048386578675166915 -0.01970899828649627
365000000.0 -0.09025718648672897 -0.08939153221407153 -0.0673881174480196 -0.04402686909923606 0.0 0.0 -0.0365493077848406 -0.02834685134962665
370000000.0 -0.09231143912317212 -0.10186256122133258 -0.0878404887191904 -0.05458394038718617 0.0 0.0 -0.020698453986184046 -0.026497644438536465
375000000.0 -0.09496859291862514 -0.09979508570680108 -0.10770922146662892 -0.046934987421323654 0.0 0.0 -0.0013733039314129786 -0.029357377789986813
380000000.0 -0.08100288192677539 -0.0928964323967875 -0.11415456455861861 -0.0161713139857879 0.0 0.0 0.02658874664316828 -0.05432738381887361
385000000.0 -0.060185460374889393 -0.07603827604221132 -0.09845927154290617 0.00011628653551958784 0.0 0.0 0.037066382851463256 -0.06010552943752402
390000000.0 -0.04819754213552388 -0.06303564101845016 -0.08247761140678622 0.008088534830352948 0.0 0.0 0.034942208417514026 -0.06074490678552495
395000000.0 -0.04339503704780517 -0.05829724214634939 -0.06916342311750476 0.008736703601156227 0.0 0.0 0.02670132231969506 -0.06091963984751915
400000000.0 -0.040451094581875575 -0.05218579854903541 -0.06314442840350039 0.006281646346268265 0.0 0.0 0.023297401444217505 -0.05495364928412147
405000000.0 -0.03787895081973022 -0.04740733850844412 -0.05637026132306818 0.001546609340448979 0.0 0.0 0.018364713300309095 -0.047902792945308977
410000000.0 -0.030996188360332178 -0.04642313016023661 -0.05324840370974336 -0.0029266510049719813 0.0 0.0 0.022205929538968574 -0.04478550308438291
415000000.0 -0.027955155930083287 -0.04559810878283082 -0.04899124687371655 -0.006949674588360372 0.0 0.0 0.02171710343157574 -0.04186318754010488
420000000.0 -0.0265832637504005 -0.04606429724105805 -0.043851485017014975 -0.010951301735714248 0.0 0.0 0.018673174628659684 -0.03984256153638089
425000000.0 -0.02486300425298758 -0.04692621947365952 -0.03964279585971015 -0.01561008673273645 0.0 0.0 0.01723678818946461 -0.03736656815245577
430000000.0 -0.021815741511410712 -0.04787867509242174 -0.03601903642466514 -0.02069747142155305 0.0 0.0 0.01833997909660529 -0.034390098108887546
435000000.0 -0.019533796736999468 -0.04910281914959225 -0.034658259016343465 -0.0251470757595236 0.0 0.0 0.021125405062276354 -0.032566285876050725
440000000.0 -0.01938927027647792 -0.049474501054291964 -0.03555784375663341 -0.030128156450774882 0.0 0.0 0.02436742068581607 -0.029964834344727142
445000000.0 -0.021924574528750025 -0.04883658316360588 -0.03617758076166504 -0.03474857779985921 0.0 0.0 0.02489151429018386 -0.026760153151374984
450000000.0 -0.029166285079685095 -0.045433960682638504 -0.036101181939897184 -0.038027250906692726 0.0 0.0 0.019734753978124228 -0.02193589394217034
455000000.0 -0.03990379055541094 -0.03772621099742977 -0.03722178541251531 -0.04068398495960007 0.0 0.0 0.011935950027725132 -0.013246982488364744
460000000.0 -0.047174263201020285 -0.02969341516317433 -0.0381138846228494 -0.04389994498261759 0.0 0.0 0.007143407015728934 -0.0029149193015559505
465000000.0 -0.044923358208748265 -0.03141959292037588 -0.03450280444078333 -0.0492633151442971 0.0 0.0 0.008920705886048132 0.0012862581589296294
470000000.0 -0.04352849396630803 -0.03761435793821947 -0.027309240357199234 -0.053811241517682774 0.0 0.0 0.006659002702171536 0.0009870068217112497
475000000.0 -0.043395689894636776 -0.04531881768055076 -0.019456190150544596 -0.05926280680769612 0.0 0.0 0.004666996814047466 0.00018368734514949607
480000000.0 -0.04123293759298659 -0.052119380423551166 -0.011368664835163375 -0.06670097300820717 0.0 0.0 0.00624885553115602 0.0017261434955466919
485000000.0 -0.03480052866041798 -0.05902866126034553 -0.003870937745044467 -0.07535724467319486 0.0 0.0 0.014181172176065815 0.0035608673351576587
490000000.0 -0.02649641113333012 -0.06863010201336534 0.0036804494692359063 -0.08557817298217646 0.0 0.0 0.026103178326319348 0.004616313859941607
495000000.0 -0.021330434172861703 -0.08036017197177507 0.013052686838563901 -0.09674857198982091 0.0 0.0 0.03535992998128139 0.0052785525282100015
500000000.0 -0.02844668973639756 -0.09566446449269878 0.02596709309867171 -0.10827236054396946 0.0 0.0 0.03298516703004157 0.0057503759195279055
505000000.0 -0.04831743579222816 -0.11385805915375108 0.038381444377245076 -0.12289438423792116 0.0 0.0 0.023623417333518134 0.004454167293681647
510000000.0 -0.07426364760397261 -0.12833913185110923 0.048065144784467946 -0.14328501240414934 0.0 0.0 0.017419170602503108 0.005728465869428821
515000000.0 -0.1092123892857149 -0.13603090914511018 0.054212278210211316 -0.16694683476501188 0.0 0.0 0.009799572612874261 0.009413604289671416
520000000.0 -0.15183810819506674 -0.12525946877946606 0.060304916662433275 -0.19265052768543223 0.0 0.0 0.0017407026886791846 0.023125662847892046
525000000.0 -0.19695907883781366 -0.09673392789372051 0.04713985472117338 -0.22791401956757495 0.0 0.0 0.002693211194840681 0.046428947245426365
530000000.0 -0.2136437945716661 -0.059178253062820256 -0.005032274310114851 -0.27026614208977745 0.0 0.0 0.039827896956735005 0.06262130585881202
535000000.0 -0.23376736921325925 -0.03335530018499346 -0.06725620243646999 -0.27853783783894026 0.0 0.0 0.048089194746174124 0.0389074370197279
540000000.0 -0.19143463959006354 0.010452998188134163 -0.12426018020285694 -0.24834675047256535 0.0 0.0 0.08656719886900933 0.020009847626936163
545000000.0 -0.11983108217187254 -0.008286454262859216 -0.134060525341058 -0.20069541335442864 0.0 0.0 0.11795341253270458 -0.02895494591122047
550000000.0 -0.05935389437561319 -0.06002763885583748 -0.08396520139376958 -0.180175798969962 0.0 0.0 0.13671677218837097 -0.04889075186495099
555000000.0 -0.031693820778850315 -0.045607817789828926 0.032071876711918176 -0.14370481442558136 0.0 0.0 0.09009509020414527 0.04763795561228456
560000000.0 -0.06823267785866569 -0.03196892565744031 0.06912397511684219 -0.1283936411926762 0.0 0.0 0.04117309912908593 0.08554182441022448
565000000.0 -0.15027886764418905 -0.015162907121346863 0.033459487603912326 -0.21751923105493423 0.0 0.0 0.07795642959064572 0.09332451293912541
570000000.0 -0.2080163161944813 0.03606145867133971 -0.05264211321702277 -0.30548305579640445 0.0 0.0 0.13227287329228746 0.05948253777303616
575000000.0 -0.2289802256998471 0.06931139676878247 -0.11001270800064941 -0.3287535935420828 0.0 0.0 0.13345034067280812 0.03535786059898638
580000000.0 -0.21670581386630197 0.08746383232502511 -0.13857368145879861 -0.30717442475681445 0.0 0.0 0.12189793931258887 0.02190573018451236
585000000.0 -0.16571100402809338 0.10089947985339755 -0.1232824295281057 -0.2694204947899891 0.0 0.0 0.12267167641430687 0.03250907544663587
590000000.0 -0.13319709258497944 0.11070422162317566 -0.12707854838689842 -0.2224836825610717 0.0 0.0 0.11022859014098482 0.026615823498830137
595000000.0 -0.03280422834505907 -0.09437556625754569 0.1769967740364157 -0.12614450824817203 0.0 0.0 0.05638843809227071 0.10069560149400186
600000000.0 -0.06489295611763703 -0.09445314422335725 0.1333550418216798 -0.1320337035578073 0.0 0.0 0.04752770874802345 0.06865569825726796
605000000.0 -0.08237514715033459 -0.06773553648891213 0.08632853415978109 -0.1202830775234148 0.0 0.0 0.03539875048182634 0.04740100584137684
610000000.0 -0.08302820646448575 -0.03182490235558988 0.054997027686232575 -0.11940355375469776 0.0 0.0 0.04126648437326379 0.0438969210599165
615000000.0 -0.07113711571293165 -0.004910989843817322 0.026874011558002016 -0.11240612578822916 0.0 0.0 0.04908763264223702 0.03424893732739192
620000000.0 -0.05122844113989785 0.006383979873345146 0.010671660537494932 -0.09717031155186125 0.0 0.0 0.05319584919493371 0.022947410160865305
625000000.0 -0.022851478793679252 0.010235956730443594 0.011336370276180412 -0.07439968541436802 0.0 0.0 0.05667321297273735 0.023763498408409977
630000000.0 -0.0009418044564094135 0.016783135974965578 0.020628275695416226 -0.04880275643418113 0.0 0.0 0.051560845748112545 0.03814124777520618
635000000.0 0.0034461559553699973 0.019004917819975018 0.021137131441739156 -0.02559532688703248 0.0 0.0 0.03194427274422585 0.040195569965163255
640000000.0 0.004169769615268884 0.02034352476358667 0.021951710351272444 -0.018458609607426277 0.0 0.0 0.026044345184911555 0.04198496207334278
645000000.0 0.004400168580503409 0.021434169209570687 0.023322211917744307 -0.01637846173085152 0.0 0.0 0.02510667335014113 0.04404757270677048
650000000.0 0.0037764199099124735 0.021833549015250128 0.024348703571910546 -0.015497074637841368 0.0 0.0 0.024537949535586665 0.04486567305139038
655000000.0 0.0032173718644431 0.021854915006832756 0.024836287436625564 -0.015068075012593083 0.0 0.0 0.024487247378198213 0.0446915185330064
660000000.0 0.0021396210204981335 0.0212172066953054 0.025248211683266186 -0.0150069367420884 0.0 0.0 0.02432616805797139 0.04369526061407125
665000000.0 0.0019944048686750876 0.01994015575712343 0.025719657607347967 -0.015137626191553842 0.0 0.0 0.025287844470122455 0.04194922146035329
670000000.0 0.0007432055852033536 0.01718793760005347 0.026773736725989542 -0.014806453378742366 0.0 0.0 0.024904101809615765 0.03944987224377233
675000000.0 -0.0006230429456026066 0.015361202049225866 0.028818694363428852 -0.012769617924181407 0.0 0.0 0.023049583697041787 0.039485522727657874
680000000.0 -0.0021906699738295596 0.015259428640740232 0.030723891761611086 -0.008570204753608084 0.0 0.0 0.018849046721180197 0.04202060054132298
685000000.0 -0.0026585658084550892 0.01679194064059013 0.029678546669847265 -0.003753342728450241 0.0 0.0 0.014103805155229146 0.04375454220811226
690000000.0 -0.0021668500205255193 0.018903464086136516 0.026109558307847353 -0.0002995446847741661 0.0 0.0 0.010478721318705708 0.043374954553723345
695000000.0 -0.002448102062185776 0.020581412413412433 0.023126779230312908 0.00149431861874092 0.0 0.0 0.007825631368357677 0.04266108008634722
700000000.0 -0.003054593085665951 0.0214701756262838 0.021598018849879868 0.002553042383766115 0.0 0.0 0.006156224652365691 0.04227987305267273
