!Created with skrf (http://scikit-rf.org).
# Hz S RI R 50.0 
!freq ReS11 ImS11
25000000.0 -0.04827436448790269 -0.012202081738503096
30000000.0 -0.058143459170789114 -0.00426371316706213
35000000.0 -0.06400687419601118 -0.017109883664795197
40000000.0 -0.07734701985208647 -0.012947816920088513
45000000.0 -0.07640989141158036 0.008042340609425554
50000000.0 -0.06914873598821197 0.024029587896842713
55000000.0 -0.07605627836188347 0.031249288880858088
60000000.0 -0.09065263562038278 0.041070489171774624
65000000.0 -0.08846771148731357 0.036567517877280395
70000000.0 -0.06764084887411824 0.042772333837057704
75000000.0 -0.10533558743129381 0.04708862710497394
80000000.0 -0.06752363513184578 0.030001056172913487
85000000.0 -0.08736458110558136 0.032381452894626954
90000000.0 -0.06080430183800155 0.025642300728095584
95000000.0 -0.058215324145981004 0.036091872398653045
100000000.0 -0.06754374953658167 0.04469166830930626
105000000.0 -0.08858894543766513 0.11376086280211856
110000000.0 -0.06836794900836654 0.10092113956601291
115000000.0 -0.12010051303961017 0.14348486778228392
120000000.0 -0.07669033568410848 0.09065448558742036
125000000.0 -0.06804202176542079 0.11502769924510192
130000000.0 -0.05375365083352837 0.1114423199118161
135000000.0 -0.037939041288244386 0.11614507261783208
140000000.0 -0.01603096431194729 0.10714485172556601
145000000.0 -0.0025431752219127225 0.10748768842862941
150000000.0 0.013805431767534505 0.10757329656562248
155000000.0 0.03474399231853576 0.10287980110676455
160000000.0 0.05680916595930947 0.10167499665406743
165000000.0 0.09491417126685295 0.09379783840611797
170000000.0 0.13890216095785543 0.09198497193564702
175000000.0 0.20623805542813667 0.02981159467018765
180000000.0 0.23728944894474877 -0.008752879414339335
185000000.0 0.1915018715192954 0.004743157609707713
190000000.0 0.2367066790313015 -0.11813522545908772
195000000.0 0.20516093217332076 -0.12516488257218905
200000000.0 0.15097650393747108 -0.1324107734352591
205000000.0 0.12493801553124659 -0.14119224218066143
210000000.0 0.12312999028054471 -0.1418086013972389
215000000.0 0.1155441566643227 -0.1567625668689387
220000000.0 0.07479715379643365 -0.1883190786508016
225000000.0 0.07933628917146422 -0.21296911662740522
230000000.0 0.060244344109568304 -0.20112320000489714
235000000.0 0.051241120821047204 -0.1937832439622139
240000000.0 0.041941716695647877 -0.18977445698720485
245000000.0 0.031066835461318207 -0.18923732933130843
250000000.0 0.013219347562479306 -0.19050246858338948
255000000.0 -0.0027462784338677937 -0.18590778729868135
260000000.0 -0.013598553723906628 -0.17374082943342722
265000000.0 -0.012813315859907082 -0.15572652827562097
270000000.0 -0.013945180354563574 -0.14443317135566192
275000000.0 -0.014478894528504954 -0.13040690005135913
280000000.0 -0.01153107703376978 -0.12669904073037366
285000000.0 -0.012866334819685868 -0.11626121544319831
290000000.0 -0.010425005559224099 -0.10076705366364846
295000000.0 -0.006474520598873573 -0.08607879975850724
300000000.0 -0.0026413408050192794 -0.07113202217879941
305000000.0 -0.004598627947858244 -0.061138412375783935
310000000.0 -0.0029995925538631937 -0.04997302464921577
315000000.0 0.0003014363601727271 -0.03686814548779088
320000000.0 0.011059180006257448 -0.02098995460035659
325000000.0 0.02195289086318588 -0.005370627273679138
330000000.0 0.03135523087845203 0.005062352762979033
335000000.0 0.03506599785207138 0.010040800742849701
340000000.0 0.03583039753718353 0.013038784877965226
345000000.0 0.03370834508707637 0.019146506656088788
350000000.0 0.03158865206335832 0.02870046994571588
355000000.0 0.028921369265790843 0.04408847106365422
360000000.0 0.03839533375717568 0.05090872849170056
365000000.0 0.05193306967831294 0.05093842382095847
370000000.0 0.054565471784945974 0.03579971428589348
375000000.0 0.055678837585519905 0.03474517297928709
380000000.0 0.055755477381359254 0.03895552849733933
385000000.0 0.046788500755006956 0.030749122144450178
390000000.0 0.05678941198263912 0.017610607526252695
395000000.0 0.06808085672563927 0.010864743512687208
400000000.0 0.07214404567123908 0.012557269191501186
405000000.0 0.08354230161405546 0.039375127247550726
410000000.0 0.09548055477605276 0.04800227007215184
415000000.0 0.11397616535694816 0.060203103681610734
420000000.0 0.13594086167155073 0.06313809794155584
425000000.0 0.1610207144864641 0.05883452688279073
430000000.0 0.18859441309025915 0.04941140642896956
435000000.0 0.21690445558683202 0.03438650519164633
440000000.0 0.2390207773566281 0.02089643524673534
445000000.0 0.26032991494988245 0.010440999814687307
450000000.0 0.28176171328513344 0.003667270488352019
455000000.0 0.30573015968466377 0.0006275636634267591
460000000.0 0.33053873922919935 -0.015732141004272584
465000000.0 0.34554036297672863 -0.05833099481482664
470000000.0 0.36001955920566886 -0.07604784287984845
475000000.0 0.3784763664487816 -0.07825553390810033
480000000.0 0.38261995860129283 -0.08011117602480221
485000000.0 0.3910139483638908 -0.09192065490550796
490000000.0 0.39983965420699497 -0.10614062857091246
495000000.0 0.3852464707561496 -0.1127799287714902
500000000.0 0.34677703738806204 -0.09196139829496015
505000000.0 0.2843449489631323 0.0030284759852551163
510000000.0 0.265978115705904 0.10272033716363806
515000000.0 0.33037653584852944 -0.028320341766572273
520000000.0 0.283981212123354 -0.3325047849482664
525000000.0 0.19967241572515607 -0.5794053370167519
530000000.0 -0.040433815492356584 -0.7033427296965573
535000000.0 -0.26086213381471 -0.693189083503959
540000000.0 -0.44134003829321006 -0.5339813986147142
545000000.0 -0.5186757269138524 -0.21394810531527056
550000000.0 -0.49252622108879063 0.03197509130018639
555000000.0 -0.41054107082599905 0.15166975481732287
560000000.0 -0.36319110317160563 0.18719719883759486
565000000.0 -0.3284645168730137 0.12260099949952784
570000000.0 -0.26254189568353287 0.12012049074829495
575000000.0 -0.284716069668581 0.026543315686919283
580000000.0 -0.2734135260633991 -0.20668870352965638
585000000.0 -0.15209163129785058 -0.20867971313810432
590000000.0 -0.20476424362292486 -0.24106143244978182
595000000.0 -0.2925590564668453 -0.04329970524019747
600000000.0 -0.6726246045106425 0.051879992684647366
605000000.0 -0.6824364308328168 0.33283972293200387
610000000.0 -0.5287521195308177 0.5834137763138831
615000000.0 -0.2469014177250789 0.7251098157786368
620000000.0 0.0684234856315082 0.7366463256885218
625000000.0 0.35783007335474365 0.6585794734427972
630000000.0 0.6249247711034351 0.44919315020303097
635000000.0 0.7336711706475265 0.29961859151198983
640000000.0 0.7268315177955007 0.4182353284485005
645000000.0 0.7004277635983998 0.5549687181094755
650000000.0 0.7191902634593927 0.6500402713775073
655000000.0 0.7171125882201398 0.760707579125443
660000000.0 0.6085988506201382 0.887777590768408
665000000.0 0.5659163963367555 0.9768486601636972
670000000.0 0.5704256805260901 1.1081477453805608
675000000.0 0.5029010052847868 1.2703078339992924
680000000.0 0.4514660190013786 1.3338833877704435
685000000.0 0.42435003831110907 1.3525200733417724
690000000.0 0.3962380719547577 1.3627242356011287
695000000.0 0.3637173757274595 1.3679342480428953
700000000.0 0.3346420757794284 1.3580935945796626
705000000.0 0.30898446193523277 1.337355083463628
710000000.0 0.24185923709946833 1.3084096645302796
715000000.0 0.1919202623591069 1.2625496065214816
720000000.0 0.3524261656425211 1.1754596345452708
725000000.0 0.6593202256840835 0.9530115528553769
730000000.0 0.8575886893452409 0.6162873351831073
735000000.0 0.9051867032935952 0.340316446600198
740000000.0 0.8983311161766249 0.12038486997966033
745000000.0 0.8681725964915394 -0.06190459962357624
750000000.0 0.8289370044520528 -0.22549397504767582
755000000.0 0.7803377009161652 -0.39084182462892597
760000000.0 0.7072561956283576 -0.577758294457307
765000000.0 0.5810504555878275 -0.8000215651166759
770000000.0 0.3385085158217778 -1.0447351921821002
775000000.0 -0.10312479579317989 -1.2134118237506453
780000000.0 -0.700240189383982 -1.0661604803720723
785000000.0 -1.0595697502853396 -0.5389328748736695
790000000.0 -1.0266384340910237 -0.07052507223545489
795000000.0 -0.8947200940971011 0.16363316540196238
800000000.0 -0.8300292773822906 0.26534805456393123
805000000.0 -0.8158769421825544 0.2883784043573923
810000000.0 -0.821020697614568 0.30235504731031526
815000000.0 -0.8001191824128697 0.3193552129075094
820000000.0 -0.8264864810058021 0.3022779407476861
825000000.0 -0.8490895958926282 0.28381017128858305
830000000.0 -0.8719638755927848 0.24511823198326113
835000000.0 -0.8888189912360318 0.19259754472867685
840000000.0 -0.9004507800614152 0.1419594897357474
845000000.0 -0.9052748568592075 0.10080379091051812
850000000.0 -0.9065670738652181 0.06820257462746251
855000000.0 -0.9069285843345114 0.04053242895565727
860000000.0 -0.9073214104698555 0.015810731631186563
865000000.0 -0.9079975259022686 -0.009117336422151923
870000000.0 -0.9042714187517995 -0.03413599072353095
875000000.0 -0.8970979633316172 -0.059375463917251015
880000000.0 -0.885459606596413 -0.08395486397266122
885000000.0 -0.8714247086238098 -0.10475949808141745
890000000.0 -0.8529471416080237 -0.12296320778333594
895000000.0 -0.8309666652500952 -0.14609106684998316
900000000.0 -0.7988616941792304 -0.18484948824238304
905000000.0 -0.7664230335730111 -0.20740427006284354
910000000.0 -0.7666838188781104 -0.14142341932197228
915000000.0 -0.7874415266971204 0.022408639078991766
920000000.0 -0.7797830352039241 0.27166060796580294
925000000.0 -0.7299820988819639 0.527150528172441
930000000.0 -0.5870573284386744 0.7848057584081187
935000000.0 -0.36801754376605844 0.9787552098881735
940000000.0 -0.11822778645478303 1.1379929827101303
945000000.0 0.20908094535867078 1.2697154028637154
950000000.0 0.7093037574781302 1.1686369690384364
955000000.0 1.0588825434036993 0.7534921246988542
960000000.0 1.1216358232467376 0.3002645527534121
965000000.0 1.0188442688631698 -0.03327500102515235
970000000.0 0.8645777007353456 -0.24434229570543514
975000000.0 0.7123550457372625 -0.3744375917106812
980000000.0 0.5761793598208204 -0.4578673455889936
985000000.0 0.45404583464222215 -0.5192279632422745
990000000.0 0.3307528794235274 -0.5717338319785278
995000000.0 0.1938586943725971 -0.6204626872869404
1000000000.0 0.09592394721834413 -0.6657305419609375
1005000000.0 0.05992984332249024 -0.7216250844064866
1010000000.0 0.08940995660169573 -0.783665612195747
1015000000.0 0.16262902306315707 -0.8454941511336707
1020000000.0 0.192949971285433 -0.9049738648980575
1025000000.0 0.21343168247370037 -0.9703661442249893
1030000000.0 0.22429969091490645 -1.034160144933921
1035000000.0 0.22486869249552524 -1.1001819115034985
1040000000.0 0.21844313991339862 -1.1708000703118782
1045000000.0 0.19858726724949943 -1.237348741653928
1050000000.0 0.16316788832753748 -1.303307428613842
1055000000.0 0.08248383903936714 -1.4088035473806408
1060000000.0 0.0007708376275989415 -1.4746908257068008
1065000000.0 -0.054025660199902376 -1.4790965060659609
1070000000.0 -0.09248944075361926 -1.4214551630148895
1075000000.0 -0.11602151257191237 -1.4136384017028027
1080000000.0 -0.0778400602092119 -1.4826150548798123
1085000000.0 -0.06511597230464813 -1.53369821709719
1090000000.0 -0.14074044303037825 -1.5057259816148603
1095000000.0 -0.2584376489727259 -1.4318106372233614
1100000000.0 -0.30604753350117764 -1.362170533705611
1105000000.0 -0.3241320920413281 -1.2879914672293695
1110000000.0 -0.3074476644145327 -1.2198051261571168
1115000000.0 -0.2534501790731459 -1.1646577769472184
1120000000.0 -0.2781430802120294 -1.0855677237434815
1125000000.0 -0.3830922265879917 -0.9751913206840672
1130000000.0 -0.3678462115438434 -0.9207591249919458
1135000000.0 -0.2871273060872729 -0.9042462357267708
1140000000.0 -0.23258140688118567 -0.8797085511027901
1145000000.0 -0.18563272209430473 -0.8558342902504941
1150000000.0 -0.14478475005428282 -0.8353252595060786
1155000000.0 -0.10536005027979908 -0.8125657977599494
1160000000.0 -0.06939525909943206 -0.7918967269366428
1165000000.0 -0.036431127669959235 -0.7704633894068699
1170000000.0 -0.010266637036987214 -0.7497584264861639
1175000000.0 0.014392165856020656 -0.7253151285905004
1180000000.0 0.04007693495011605 -0.6981156796018175
1185000000.0 0.06652716466978814 -0.6743850299393918
1190000000.0 0.07795725878177151 -0.6388226598406653
1195000000.0 0.09838477638163326 -0.6095574848193843
1200000000.0 0.14910069057290531 -0.6051899091776466
1205000000.0 0.23216796180746563 -0.6006679070656831
1210000000.0 0.31253998593814974 -0.5859357320072944
1215000000.0 0.3937103417380675 -0.5500007752664521
1220000000.0 0.4154854642248708 -0.5342455211507646
1225000000.0 0.3944294305370426 -0.5377149186659657
1230000000.0 0.3817285755694547 -0.5391279638547992
1235000000.0 0.3972516138306298 -0.5362258803360698
1240000000.0 0.4632388446368438 -0.5383602203412052
