# Hz S RI R 50
50000 0.003798101 -0.000776205
3029600 0.005381898 0.001694745
6009200 0.007122238 0.002962007
8988800 0.008269422 0.004247494
11968500 0.00992924 0.005027892
14948100 0.011387715 0.005485249
17927700 0.012910111 0.005901438
20907400 0.014436167 0.005921435
23887000 0.015777377 0.005760766
26866600 0.01717698 0.005545593
29846300 0.018602954 0.005186903
32825900 0.019826484 0.004605496
35805500 0.020939029 0.003876643
38785200 0.022143896 0.003133381
41764800 0.023149585 0.002224559
44744400 0.023989226 0.001228288
47724000 0.024896765 -8.577e-06
50703700 0.02551034 -0.001117425
53683300 0.026106433 -0.00246091
56662900 0.026494948 -0.003790867
59642600 0.026898646 -0.005129708
62622200 0.027143398 -0.006658528
65601800 0.02716333 -0.008233965
68581500 0.02703415 -0.009732215
71561100 0.026809887 -0.011267282
74540700 0.026563398 -0.012869913
77520400 0.026096073 -0.01437577
80500000 0.025432236 -0.015859473
83479600 0.024699095 -0.017358841
86459200 0.023753412 -0.018893804
89438900 0.022701688 -0.020217303
92418500 0.021501535 -0.021675664
95398100 0.020101619 -0.022967664
98377800 0.018569519 -0.024008337
101357400 0.017180558 -0.025064421
104337000 0.01543647 -0.025901123
107316700 0.013729751 -0.026871073
110296300 0.011788272 -0.027527747
113275900 0.009769618 -0.028099697
116255600 0.007578974 -0.028535541
119235200 0.005557622 -0.028782363
122214800 0.003251003 -0.028899049
125194500 0.000992468 -0.028660066
128174100 -0.001473439 -0.02835921
131153700 -0.003677803 -0.027982838
134133300 -0.006077735 -0.027298863
137113000 -0.008324685 -0.026248661
140092600 -0.0105107 -0.025036355
143072200 -0.012658257 -0.023624306
146051900 -0.014688652 -0.021907184
149031500 -0.01661117 -0.020004376
152011100 -0.018422318 -0.017941564
154990800 -0.020013945 -0.015736788
157970400 -0.021265631 -0.013255811
160950000 -0.02247058 -0.01060571
163929700 -0.023390982 -0.008092965
166909300 -0.024133797 -0.005403846
169888900 -0.02443991 -0.002642183
172868500 -0.02458143 0.000186172
175848200 -0.024220809 0.00318454
178827800 -0.023703569 0.006184363
181807400 -0.022995198 0.008982954
184787100 -0.021911801 0.011624085
187766700 -0.020734451 0.01417315
190746300 -0.019196268 0.016508927
193726000 -0.017460782 0.018706675
196705600 -0.015495087 0.020600704
199685200 -0.013329887 0.022272568
202664900 -0.010825781 0.023898508
205644500 -0.008443021 0.025106696
208624100 -0.005944026 0.026025207
211603800 -0.003423599 0.026721067
214583400 -0.00081882 0.027235481
217563000 0.001788498 0.027195384
220542600 0.004244031 0.02728131
223522300 0.006575534 0.026768328
226501900 0.008914133 0.026181779
229481500 0.011330186 0.025213843
232461200 0.013361644 0.024069426
235440800 0.015302987 0.022999545
238420400 0.016820922 0.021487638
241400100 0.018321646 0.019785683
244379700 0.019702985 0.018136158
247359300 0.020583132 0.016433613
250339000 0.021792585 0.014527712
253318600 0.022375568 0.012610953
256298200 0.022968985 0.010677956
259277800 0.023369755 0.00874944
262257500 0.023274833 0.006713249
265237100 0.023183166 0.005015689
268216700 0.022853843 0.002930644
271196400 0.022214118 0.00114557
274176000 0.021282155 -0.000819309
277155600 0.019959606 -0.002549257
280135300 0.018779315 -0.003975601
283114900 0.017378428 -0.005478767
286094500 0.015747522 -0.006535
289074200 0.014073409 -0.0077525
292053800 0.012294896 -0.008347125
295033400 0.010251375 -0.008670579
298013100 0.008892619 -0.008229706
300993344 0.016712462 -0.011935156
303973444 0.011221723 -0.003757908
306953544 0.006769225 -0.002188278
309933644 0.001595016 -0.003940101
312913844 -0.002921044 -0.006546195
315893944 -0.006210982 -0.006701823
318874044 -0.008219554 -0.003430184
321854244 -0.00897307 -0.000400715
324834344 -0.010145908 0.003792587
327814444 -0.009880988 0.0067316
330794644 -0.010077592 0.010170649
333774744 -0.009366323 0.012785742
336754844 -0.008534908 0.01604495
339735044 -0.007302877 0.018936423
342715144 -0.005599029 0.021421682
345695244 -0.002524703 0.02411683
348675344 -0.000375299 0.026431633
351655544 0.003009853 0.027892656
354635644 0.006344206 0.028639724
357615744 0.009635766 0.029111951
360595944 0.013285334 0.029126891
363576044 0.017368447 0.028893625
366556144 0.021398302 0.028762144
369536344 0.024969253 0.026831779
372516444 0.028012111 0.024546967
375496544 0.031087519 0.020807696
378476744 0.033944416 0.018671737
381456844 0.035815473 0.014963014
384436944 0.03819555 0.011072983
387417044 0.0390633 0.006412413
390397244 0.040263511 0.001431896
393377344 0.041019547 -0.004140336
396357444 0.040339205 -0.009532075
399337644 0.039817817 -0.015233433
402317744 0.037819113 -0.020861906
405297844 0.034614544 -0.026582648
408278044 0.032543908 -0.031763207
411258144 0.028781097 -0.036991171
414238244 0.024170776 -0.042138841
417218444 0.018660493 -0.046966567
420198544 0.012409763 -0.051707904
423178644 0.004897878 -0.055175729
426158844 -0.002900359 -0.059825547
429138944 -0.011768856 -0.062414854
432119044 -0.021429419 -0.064447239
435099144 -0.031088534 -0.063656881
438079344 -0.040244136 -0.063677623
441059444 -0.051211141 -0.062664672
444039544 -0.062352664 -0.059210401
447019744 -0.073411792 -0.054334469
449999844 -0.08386489 -0.049365036
452979944 -0.094185635 -0.042141094
455960144 -0.104825638 -0.032980646
458940244 -0.113126993 -0.022514507
461920344 -0.121387086 -0.0115794
464900544 -0.129331901 0.000146184
467880644 -0.13301061 0.012700736
470860744 -0.13729465 0.02698685
473840844 -0.13814865 0.041717186
476821044 -0.139092177 0.056369438
479801144 -0.137114852 0.070135079
482781244 -0.133829057 0.083609871
485761444 -0.129597365 0.096444144
488741544 -0.122908562 0.108605667
491721644 -0.114952914 0.118825167
494701844 -0.107461221 0.1287705
497681944 -0.098259352 0.137065052
500662044 -0.09097772 0.143793836
503642244 -0.080380573 0.149664044
506622344 -0.073081389 0.153816401
509602444 -0.064406372 0.156533941
512582644 -0.057266332 0.15926066
515562744 -0.050937473 0.159542605
518542844 -0.043967273 0.159750565
521522944 -0.039689719 0.160577923
524503144 -0.035695914 0.161976531
527483244 -0.032021794 0.162243276
530463344 -0.030151486 0.16381067
533443544 -0.028949724 0.165346994
536423644 -0.026906438 0.168991595
539403744 -0.027744954 0.172901093
542383944 -0.026799084 0.177999034
545364044 -0.026354523 0.185468077
548344144 -0.024635152 0.193031206
551324344 -0.020947473 0.203400552
554304444 -0.016770549 0.212785676
557284544 -0.010559248 0.222682788
560264644 -0.002464301 0.233583122
563244844 0.009098568 0.243836998
566224944 0.020352853 0.252796709
569205044 0.03362045 0.261509269
572185244 0.048128072 0.268174856
575165344 0.06457486 0.272599041
578145444 0.080263055 0.277122944
581125644 0.097589239 0.277225553
584105744 0.113428793 0.276401668
587085844 0.130243092 0.274866402
590066044 0.145348101 0.270161896
593046144 0.159383982 0.266812354
596026244 0.17398855 0.260537415
599006444 0.187126636 0.253444075
601986688 0.200529724 0.247002422
604966788 0.212026298 0.238435357
607946888 0.222944572 0.230594545
610926988 0.232664525 0.22236976
613907188 0.243207544 0.212916627
616887288 0.251375168 0.204441964
619867388 0.25834605 0.194867193
622847588 0.265526652 0.18350546
625827688 0.271833807 0.173801109
628807788 0.277044475 0.163302004
631787988 0.281026005 0.153297856
634768088 0.286006927 0.143450632
637748188 0.28927958 0.13563697
640728388 0.290791302 0.126469805
643708488 0.294535368 0.117225587
646688588 0.296825081 0.107945561
649668688 0.297848492 0.099093444
652648888 0.300188302 0.091960564
655628988 0.301146745 0.083548896
658609088 0.30388996 0.076823577
661589288 0.304921329 0.068413183
664569388 0.306348413 0.061120569
667549488 0.307044535 0.053675215
670529688 0.306694358 0.046495057
673509788 0.309067696 0.04081713
676489888 0.309469789 0.034937333
679470088 0.310364246 0.028295796
682450188 0.31031835 0.021048586
685430288 0.310275733 0.014499633
688410388 0.312075436 0.008896111
691390588 0.311234712 0.002724043
694370688 0.310072332 -0.004176377
697350788 0.310989022 -0.010367983
700330988 0.309393972 -0.016346625
703311088 0.310353189 -0.022700266
706291188 0.309406638 -0.028492003
709271388 0.307248234 -0.034807235
712251488 0.307009905 -0.040671873
715231588 0.305693954 -0.046441696
718211788 0.306393057 -0.051410105
721191888 0.305599421 -0.056133035
724171988 0.304491937 -0.061979494
727152188 0.303231179 -0.067938424
730132288 0.301053643 -0.072802729
733112388 0.30026111 -0.079072467
736092488 0.298623025 -0.083340145
739072688 0.298909753 -0.088557228
742052788 0.29639402 -0.092836484
745032888 0.298790156 -0.097131721
748013088 0.297107964 -0.102847546
750993188 0.296168535 -0.107726357
753973288 0.293115019 -0.112185053
756953488 0.292630612 -0.118178933
759933588 0.289286643 -0.121955312
762913688 0.289157599 -0.12650372
765893888 0.288451164 -0.132582962
768873988 0.286129772 -0.138110145
771854088 0.286554425 -0.142305999
774834188 0.283932894 -0.148008257
777814388 0.284154295 -0.15272057
780794488 0.28268516 -0.156641602
783774588 0.280732959 -0.160956218
786754788 0.278247445 -0.167036086
789734888 0.275446921 -0.170816898
792714988 0.272930562 -0.176066368
795695188 0.271010726 -0.180500596
798675288 0.269720613 -0.185415387
801655388 0.269462794 -0.189642995
804635588 0.266304194 -0.193687662
807615688 0.26580131 -0.198432251
810595788 0.262930542 -0.202381998
813575988 0.262762337 -0.205612644
816556088 0.259906977 -0.210405752
819536188 0.257081419 -0.215313091
822516288 0.255619108 -0.218966484
825496488 0.252718329 -0.222015097
828476588 0.251247286 -0.227282136
831456688 0.247229769 -0.230954661
834436888 0.244829803 -0.234967529
837416988 0.244130432 -0.242116436
840397088 0.24267888 -0.245355144
843377288 0.238249227 -0.250815451
846357388 0.235897868 -0.253775507
849337488 0.234116226 -0.25772503
852317688 0.231594517 -0.259310901
855297788 0.229360222 -0.262926518
858277888 0.225805401 -0.266966074
861257988 0.222481623 -0.27007693
864238188 0.222745761 -0.273735105
867218288 0.219334647 -0.281678646
870198388 0.215308189 -0.284191995
873178588 0.212053954 -0.289955884
876158688 0.210597261 -0.295172244
879138788 0.208248615 -0.297879129
882118988 0.206067398 -0.305934101
885099088 0.199350118 -0.30563426
888079188 0.19337742 -0.30707404
891059388 0.189911901 -0.308379739
894039488 0.184277847 -0.314272493
897019588 0.184438735 -0.319623321
899999788 0.180810615 -0.324084013
