!Created with skrf (http://scikit-rf.org).
# Hz S RI R 50.0 
!freq ReS11 ImS11
25000000.0 -0.007837559722030138 -0.0015365103528007084
30000000.0 -0.008529817826766359 -0.00653695351269065
35000000.0 -0.012543114033507316 -0.006024061775379914
40000000.0 -0.018033700737784972 -0.0334919487197847
45000000.0 -0.020352249953363766 -0.03636061637335927
50000000.0 -0.023638267530020844 -0.030143598562288293
55000000.0 -0.02768212122551285 -0.03522594097354594
60000000.0 -0.03210172229156658 -0.04412784169059003
65000000.0 -0.022376348811307886 -0.054045518358998616
70000000.0 -0.03966061279569694 -0.04431396066052665
75000000.0 -0.02542428927216263 -0.03848285177993551
80000000.0 -0.04959104218203104 -0.02229135756171243
85000000.0 -0.03894111479311899 -0.007179414164108863
90000000.0 -0.04300825246366544 -0.0062195035087008925
95000000.0 -0.04512513691879656 0.00015076688354423787
100000000.0 -0.04342528965676845 0.00627180661013086
105000000.0 -0.04133211863863532 0.0015865870051822023
110000000.0 -0.05069660818571075 -0.022028889924294498
115000000.0 -0.027548987309769943 -0.037818090884265035
120000000.0 -0.03820834863036363 -0.02932279151176307
125000000.0 -0.04492029092663924 -0.030823407189331988
130000000.0 -0.043463081485194024 -0.023753764041928447
135000000.0 -0.049518565420019665 -0.017835090652149166
140000000.0 -0.041545242130086736 -0.01292611875221957
145000000.0 -0.037320470850998405 -0.011682565036085087
150000000.0 -0.03430311124708819 -0.011766078680142586
155000000.0 -0.03189097274648346 -0.012020342145663051
160000000.0 -0.03220099437609085 -0.018680525296877484
165000000.0 -0.035052195699768154 -0.0026838569487982362
170000000.0 -0.023650449198315472 0.02911563385491773
175000000.0 -0.02647430178459189 -0.0042156550001384435
180000000.0 -0.030559724109848543 -0.014679331943026702
185000000.0 0.007678906420584424 0.0100058090405922
190000000.0 -0.042289005753165486 -0.0012418066540286626
195000000.0 -0.037213321045429085 -0.02792151965814922
200000000.0 -0.009633298501901935 -0.008473813425018899
205000000.0 -0.005923071000836833 -0.0046275785543124955
210000000.0 -0.009769914007734665 -0.007750359038946712
215000000.0 -0.009777930449746786 -0.00960614342639125
220000000.0 -0.005227923309995483 -0.0031120699407439258
225000000.0 0.004096598014771774 0.0015290213141284266
230000000.0 -0.011893427316443606 -0.0009698735648744471
235000000.0 -0.010101981495527351 0.0007669327912323155
240000000.0 -0.009766156506953061 0.0021508771965448297
245000000.0 -0.01033611970883945 0.00503766090613556
250000000.0 -0.010111708528454944 0.00588719126021451
255000000.0 -0.009852260957462416 0.008065637292795533
260000000.0 -0.010852253493614614 0.007611774881245833
265000000.0 -0.011984931828720319 0.006948230066714368
270000000.0 -0.014585604624470255 0.0063437216498985136
275000000.0 -0.016971708228456783 0.006374867814686191
280000000.0 -0.018990455406498657 0.009209828014139661
285000000.0 -0.018373218627679128 0.006134277823736903
290000000.0 -0.017513796180783955 0.00573693817204109
295000000.0 -0.01857274917029471 0.006794486530756727
300000000.0 -0.019398221366256213 0.0066821936138740665
305000000.0 -0.02015333355702288 0.007691859955205406
310000000.0 -0.02068462925106089 0.006968543288750396
315000000.0 -0.02098526290638042 0.006229782960531931
320000000.0 -0.021773397064327335 0.0054443771010288895
325000000.0 -0.021933883597867423 0.004822833714929211
330000000.0 -0.021491645076285287 0.0034161735513182157
335000000.0 -0.02063076491342744 0.0016401664437362736
340000000.0 -0.019608077274779978 -0.0007232146526914424
345000000.0 -0.018138805775805553 -0.002535219245708679
350000000.0 -0.015436653476531267 -0.0033248802628758362
355000000.0 -0.011936763777233808 -0.003953540677106999
360000000.0 -0.007104583385026786 -0.007835207954167195
365000000.0 -0.003698370543479615 -0.002678876324855934
370000000.0 -0.004539285638741064 0.02251953986661208
375000000.0 -0.018210232335734253 0.03886899460245825
380000000.0 -0.01586633496468809 0.034945254387460184
385000000.0 -0.010550463617843162 0.030571175260601633
390000000.0 -0.001677542633238993 0.03235296715280725
395000000.0 0.006121957457174948 0.031854587704608694
400000000.0 0.01165146593688722 0.03672674758663323
405000000.0 0.018932037793296948 0.03917991066628297
410000000.0 0.025735242222319474 0.042322764692774906
415000000.0 0.0339867099074706 0.04605605668703091
420000000.0 0.043257979454083356 0.04841489961479106
425000000.0 0.05392062293615522 0.04774427312392297
430000000.0 0.06568551378981002 0.04410970863772343
435000000.0 0.07783036746023897 0.03757046106009468
440000000.0 0.09073848276481973 0.030463655819008072
445000000.0 0.10395687481806531 0.02397677809234333
450000000.0 0.11866749997369345 0.019919524863732413
455000000.0 0.13477013603532056 0.020335694654568016
460000000.0 0.1533725541096283 0.025044278024484883
465000000.0 0.16986172990769563 0.025100008540316396
470000000.0 0.18020191190214013 0.010026945751016734
475000000.0 0.19013150612678215 -0.010523960661286701
480000000.0 0.19852102607341715 -0.03434783071353836
485000000.0 0.2054062474061979 -0.0646071166849295
490000000.0 0.2109908251170937 -0.10029786294070787
495000000.0 0.21675586458193896 -0.13784865720266448
500000000.0 0.2147528086293741 -0.17101693570422058
505000000.0 0.20321750573636477 -0.20330650052653296
510000000.0 0.18776120771576 -0.22947989833834792
515000000.0 0.1721427247235197 -0.24713851155777572
520000000.0 0.15010976915407911 -0.2614710324670403
525000000.0 0.12218352985516812 -0.26096754196562744
530000000.0 0.0956449202648873 -0.2914803547436296
535000000.0 0.039419852606226546 -0.3010231690906906
540000000.0 0.055746454705987436 -0.33756575861091015
545000000.0 0.038884663957269125 -0.3993058734285444
550000000.0 -0.05200660144377024 -0.46785429254707533
555000000.0 -0.02573496124675862 -0.5297738416273011
560000000.0 0.04203992663692283 -0.48259147203614744
565000000.0 0.015473463857895497 -0.4302071485579613
570000000.0 -0.04624326020073072 -0.4271151705560683
575000000.0 -0.12290116653875095 -0.4380340515655037
580000000.0 -0.18835342398197014 -0.4482076386511574
585000000.0 -0.22770192461945332 -0.47263897224399765
590000000.0 -0.26465009916643656 -0.4983421417869144
595000000.0 -0.340966185500947 -0.7424265738363061
600000000.0 -0.23759956284359846 -0.6312229483872979
605000000.0 -0.07699255495539015 -0.6060397561986696
610000000.0 0.04730790650667601 -0.6053497781268894
615000000.0 0.15284361898419518 -0.6035908733641304
620000000.0 0.21958025766557093 -0.6278454819435698
625000000.0 0.25818561083235214 -0.6702301835310748
630000000.0 0.2948166864705137 -0.6978222830246574
635000000.0 0.3405168838322966 -0.7056064508799136
640000000.0 0.39033495072388946 -0.6958440290450317
645000000.0 0.43370462450125236 -0.6745444796131133
650000000.0 0.48010559276890646 -0.651212121332807
655000000.0 0.5314123218886667 -0.6210903625883597
660000000.0 0.5906717124258356 -0.5798672430700293
665000000.0 0.6532822141275153 -0.522840012412683
670000000.0 0.7173193781380844 -0.45678808230911055
675000000.0 0.7714727313980836 -0.38952181921294116
680000000.0 0.8105573424912611 -0.3312779996477928
685000000.0 0.8471050113124935 -0.2835935366767557
690000000.0 0.8768669309085966 -0.23571751232373808
695000000.0 0.9056947142892411 -0.1891765118973655
700000000.0 0.9272178142202775 -0.14456304494408412
705000000.0 0.9447160950990817 -0.10329588586828636
710000000.0 0.9603470090613158 -0.06569443865231653
715000000.0 0.9720428494452804 -0.033938061686348706
720000000.0 0.9857269507661965 -0.006529785774586919
725000000.0 0.998868453120558 0.02646205828920757
730000000.0 1.0039947930489677 0.07438237887851377
735000000.0 1.001897141363292 0.13205365106589811
740000000.0 0.9978258184674533 0.19045919477521323
745000000.0 0.9868798504061235 0.24185884290579418
750000000.0 0.9759250402116081 0.28512116067855015
755000000.0 0.9626543318963796 0.3271757924872281
760000000.0 0.9444069415117249 0.36804455574122796
765000000.0 0.9237342737501458 0.40869582982632774
770000000.0 0.8976841732899942 0.45001716998352953
775000000.0 0.8611119238779407 0.4920108685211867
780000000.0 0.817222663602655 0.534942607757988
785000000.0 0.7696440824976851 0.5779372995990154
790000000.0 0.7300110716296377 0.6012645809325807
795000000.0 0.7305977630710205 0.6141290684587282
800000000.0 0.7489387224280234 0.6056336569385251
805000000.0 0.7611009487124243 0.582698034875576
810000000.0 0.7502687579403056 0.570879961734545
815000000.0 0.6777333102311871 0.6345200300034691
820000000.0 0.5604509200931669 0.7349825162512367
825000000.0 0.38638942031086376 0.8701734444181068
830000000.0 0.14876430039628363 0.9777701551663682
835000000.0 -0.06570086050406768 1.0056600088681045
840000000.0 -0.1577362645022674 1.004322100820961
845000000.0 -0.17671301128832442 1.0094662277783257
850000000.0 -0.17306717752903908 1.0174266848582685
