# Hz S RI R 50
50000 0.006771179280552531 -0.0007613906618720671
3029600 0.009318565558501468 0.00278961327725028
6009200 0.010734113262185324 0.0040707892439448565
8988800 0.011726539046332331 0.0052602654081922605
11968500 0.012410706764877943 0.0061460866025604835
14948100 0.013363257178395437 0.006939014991353064
17927700 0.014246238967473464 0.007794233306651277
20907400 0.015249966129079333 0.008345134417068792
23887000 0.01632517721377513 0.008895218734696165
26866600 0.016916718541010806 0.009202182050674228
29846300 0.017799792573821416 0.009589392118760911
32825900 0.018688027905868158 0.00990378700992417
35805500 0.01960974634073293 0.010204088039285296
38785200 0.02014827969890463 0.010220432697036706
41764800 0.021077996540757895 0.010314652599362222
44744400 0.022022979039206185 0.010610983892144913
47724000 0.022751751360067737 0.010504403959201339
50703700 0.02333639036696272 0.010526238815906561
53683300 0.024031925890227252 0.010389809791954965
56662900 0.024647707157149167 0.010260000149478466
59642600 0.025532105383020587 0.010175364241107938
62622200 0.026025714472871157 0.00985416931802
65601800 0.026659740292800462 0.009608362071685366
68581500 0.02727425568175799 0.009372367031114074
71561100 0.027485473357078745 0.00899136592177775
74540700 0.028254623194490798 0.008453580859689377
77520400 0.028676074755142954 0.008512459938503874
80500000 0.029006224822868746 0.007966890497462442
83479600 0.02967608273870131 0.0076082136972281875
86459200 0.029900423684624238 0.007183656238492817
89438900 0.030300426719930378 0.006599715105851435
92418500 0.030502922441002753 0.006077551801407453
95398100 0.030753825026789753 0.005780034793492869
98377800 0.03112166847470282 0.005119161174803444
101357400 0.03148914612057867 0.004796299505966416
104337000 0.031434914863983046 0.004173789401355745
107316700 0.03160936035809367 0.0038658852084549203
110296300 0.03149759001865836 0.003072239776465958
113275900 0.03144016102938828 0.0027274262267220147
116255600 0.03160849908072599 0.002316344585060386
119235200 0.03158898651284739 0.0016172968984464607
122214800 0.03144515142435097 0.0009376346351505932
125194500 0.03130393252846232 0.0005141092555464385
128174100 0.03102061458376418 -4.058806571557024e-05
131153700 0.030994393546365177 -0.0005211723633603708
134133300 0.03097870452306683 -0.0007937916890202667
137113000 0.03051845997565843 -0.0012533468521329309
140092600 0.02987856665329562 -0.0019270025394684698
143072200 0.030039916406112258 -0.0024389457228109527
146051900 0.029313054990479665 -0.002543975627772806
149031500 0.029254554689819808 -0.00309178061915193
152011100 0.028621151784126365 -0.003630408250441385
154990800 0.02810193034018864 -0.0036258482434632883
157970400 0.027689626856073818 -0.004186156210764617
160950000 0.02740678196090356 -0.00443342853165088
163929700 0.02672117510371372 -0.004778625945525296
166909300 0.026070413836113783 -0.004949732697839163
169888900 0.025893141979714613 -0.005266793976908764
172868500 0.025029306740031995 -0.005515872666667914
175848200 0.024528472027160547 -0.005650707504621733
178827800 0.02409558698041706 -0.005646238492288376
181807400 0.0235354942905914 -0.005550366533516517
184787100 0.02239425596993014 -0.005578804656664354
187766700 0.021674701664545902 -0.005470353041844319
190746300 0.021391933206697324 -0.00550446506385613
193726000 0.020749792972016637 -0.005470349349162766
196705600 0.020047229780760904 -0.0056074691688459055
199685200 0.019500248082616613 -0.005049599469492534
202664900 0.018720469930336995 -0.004900694656303446
205644500 0.018607089142565997 -0.004527532452318024
208624100 0.01783247353291818 -0.004550050933545388
211603800 0.01721092095166371 -0.0035941457144690876
214583400 0.01604210908581244 -0.003749484507982068
217563000 0.01580327936961724 -0.0030727429572981546
220542600 0.015218312683965243 -0.0028093897702035882
223522300 0.0147723505753616 -0.002148923180176371
226501900 0.014509536729927617 -0.0017886435407734821
229481500 0.014102314891753988 -0.0015248656245599914
232461200 0.013998210377772716 -0.0006949849768409356
235440800 0.013489152770683552 -0.000906058602967026
238420400 0.013014742342347186 -5.4082476752912114e-05
241400100 0.011709134497376244 0.0012121971816384193
244379700 0.012464253314818846 0.0013664548027734302
247359300 0.01142715670027319 0.0023265017326524868
250339000 0.011063277942659218 0.0020004850012784524
253318600 0.010795772240256025 0.003126286903683759
256298200 0.011024091713375525 0.0032051154505174802
259277800 0.011155651777562215 0.004724108241873213
262257500 0.0110249842934863 0.005692904714079063
265237100 0.010737715315119068 0.005654040643770868
268216700 0.010596367011802884 0.006002273725164768
271196400 0.0106639616789322 0.006440900891763495
274176000 0.00980037665277407 0.007831557404872765
277155600 0.010463016529670998 0.008250855836303242
280135300 0.011168600340245683 0.008923373558782855
283114900 0.01058987385636126 0.009704063051187478
286094500 0.010169058749386643 0.010299791765606782
289074200 0.011966563616588611 0.010546990647299997
292053800 0.01159125756895423 0.010313750240589347
295033400 0.012337620797613368 0.01183041939302448
298013100 0.06163939833430468 0.016066478941837
300993344 0.06163939833430468 0.016066478941837
303973444 0.010065431101327786 0.014336142768380022
306953544 0.013016652268051704 0.01375726571756725
309933644 0.015647528583322988 0.012589916505871613
312913844 0.014505984102397253 0.014569504653630841
315893944 0.014300335180936704 0.014289458584725105
318874044 0.01422098661012231 0.015894037699742306
321854244 0.016090558752052692 0.01401423861053454
324834344 0.01754248236012744 0.014546813515868132
327814444 0.01611089424836918 0.014374094150119593
330794644 0.017218812321672303 0.011428542044194476
333774744 0.0177604279522749 0.01224950382439798
336754844 0.01746223352280842 0.012247380123019656
339735044 0.02094668158481053 0.009802929962999658
342715144 0.01998074170283915 0.010714661798752464
345695244 0.02025425016889972 0.010624084755122361
348675344 0.02042059207132393 0.008331934504780808
351655544 0.02074126127178216 0.006752393934435254
354635644 0.022173167421735522 0.007135378587541504
357615744 0.019974545313950882 0.0056131198787718285
360595944 0.01973748955385306 0.0037830124521020083
363576044 0.0189969495253908 0.002212848531076878
366556144 0.019015552539626904 0.0011750607809211592
369536344 0.018788984316383456 -0.00037293935567642514
372516444 0.01613037846785931 -0.0010051760227609266
375496544 0.017203421653276242 -0.004805998227250942
378476744 0.014269595521922529 -0.00437081576490179
381456844 0.013801667830708124 -0.0073644389019991135
384436944 0.013212618025205413 -0.008520117108883792
387417044 0.0077113711530976976 -0.009914948700723784
390397244 0.006140307754475377 -0.013495318155977718
393377344 0.0038030302665593833 -0.01606909992775099
396357444 0.00295970360395572 -0.015010875477674124
399337644 -0.0009210565482885929 -0.01663488490102203
402317744 -0.0030608243531079432 -0.016648258863020952
405297844 -0.005809960245528404 -0.021447196295527698
408278044 -0.009498872678849515 -0.021467254527102648
411258144 -0.015540465770223728 -0.021010824570975396
414238244 -0.01962699614986756 -0.022387955636346213
417218444 -0.02375228129817414 -0.023373600757083047
420198544 -0.02783576122543574 -0.022954539889830167
423178644 -0.031151796736861425 -0.023118129387866625
426158844 -0.037835438512791406 -0.025750883071162557
429138944 -0.04542818168146256 -0.023719866369217316
432119044 -0.049740227489617365 -0.024431480416824736
435099144 -0.05567698474595422 -0.022864555949367427
438079344 -0.06174565060901301 -0.023547736136428157
441059444 -0.06972887055652068 -0.021286195766912767
444039544 -0.0750691973167404 -0.01642604951649309
447019744 -0.08095099297565538 -0.01266189878884895
449999844 -0.08905508218593672 -0.012375123550783332
452979944 -0.09637109917115652 -0.010747965548585321
455960144 -0.10505005834575093 -0.00508580975934696
458940244 -0.1111259507545706 -0.002218820947505481
461920344 -0.12115855732667254 0.0058773801020898025
464900544 -0.12643509375219014 0.010095710700195765
467880644 -0.13356532680962252 0.017140360194544242
470860744 -0.14257544836237643 0.024533798921612143
473840844 -0.14986841751189997 0.03161719466387806
476821044 -0.15613025522637822 0.03980496927819948
479801144 -0.1648140356312882 0.05139616193471785
482781244 -0.1711023904476414 0.06164893548993437
485761444 -0.17613173980516342 0.06903903687456656
488741544 -0.18197459525008416 0.08291769341638403
491721644 -0.18808402030748816 0.0953761037134604
494701844 -0.19356913178890076 0.10776281208984874
497681944 -0.19896163441312267 0.12110389499248349
500662044 -0.20173363862471283 0.1352104551073347
503642244 -0.20384480667539184 0.15099017759544217
506622344 -0.20904013459538526 0.16586712398714984
509602444 -0.20600262829382357 0.1802391982755087
512582644 -0.20884294797433453 0.19739836978524164
515562744 -0.206713674795088 0.2114283741005301
518542844 -0.20604588879202282 0.23162856184249084
521522944 -0.20146567377869923 0.24411788783114163
524503144 -0.1982643644493638 0.2621324799063943
527483244 -0.1962009618467472 0.2816038949874532
530463344 -0.18913397506702148 0.29741668360025564
533443544 -0.1837561752020082 0.3137469698636352
536423644 -0.17561505823279325 0.32899116406661505
539403744 -0.1690943091165522 0.3453320124042935
542383944 -0.16066789970403367 0.36318643130727496
545364044 -0.15361006951708844 0.3776580093265664
548344144 -0.14522940208924892 0.3936492276957324
551324344 -0.13343114020129276 0.40953238612619625
554304444 -0.1226243384774617 0.42146081008170005
557284544 -0.1106655697686941 0.44222408318308304
560264644 -0.10002292735993684 0.4527647263398334
563244844 -0.08814928502306284 0.4683396969709228
566224944 -0.07683953152059271 0.48588783348834264
569205044 -0.06713454136777781 0.4992009412320457
572185244 -0.05379040636216331 0.522397955091832
575165344 -0.04052300331028437 0.5407674852744848
578145444 -0.021440321715940798 0.5603192878290459
581125644 0.0002688495094084661 0.5803580835596847
584105744 0.021196417057841678 0.6000807771621316
587085844 0.044051342516910695 0.6234293650081622
590066044 0.07712523062006371 0.6427143595918154
593046144 0.1074307043399829 0.6609214399531165
596026244 0.14079534073608097 0.6724412005598932
599006444 0.17964980319746973 0.6897768519870311
601986688 0.2134786006096636 0.6945381018734084
604966788 0.2534475225503619 0.7037027759338136
607946888 0.29504443144090303 0.7003903416551794
610926988 0.3357216349877872 0.7034019630759526
613907188 0.3817306359734631 0.6965196222622727
616887288 0.4179283750363155 0.6919625638423026
619867388 0.4485283497288922 0.6750685924464807
622847588 0.4834445855192265 0.6587364842007704
625827688 0.5240760073681027 0.6410017224560631
628807788 0.5527214959805798 0.6252610831157506
631787988 0.5819512144897941 0.6054208112828925
634768088 0.6091503471385218 0.5831113476716108
637748188 0.6407991930816211 0.5642675987407736
640728388 0.664159387297791 0.536827912540413
643708488 0.6835686174059267 0.5209781309462
646688588 0.706691454122748 0.4914837132403065
649668688 0.7315375966413444 0.4606606063769423
652648888 0.7450020053155505 0.43869436453716
655628988 0.767015913757019 0.41356882832638925
658609088 0.7838119055645403 0.38935762926434586
661589288 0.793851313035841 0.35887445062971396
664569388 0.8071327462583707 0.33889724146838907
667549488 0.8154249369698756 0.3114796649373659
670529688 0.8311503414537997 0.2894363985668311
673509788 0.8454066350554037 0.2571203597183211
676489888 0.850132842712361 0.23765577460426002
679470088 0.8592530399418825 0.20933481873766216
682450188 0.8659182483453388 0.18400104998411618
685430288 0.8743193745788935 0.15351318796329275
688410388 0.8782183996498478 0.1355569221105003
691390588 0.8780188738332196 0.10427527876283446
694370688 0.8831723504204263 0.08199551367237622
697350788 0.8855707044751937 0.054539927736992684
700330988 0.8876970082426555 0.030105643088558575
703311088 0.8912512704804711 0.008594806803194346
706291188 0.896833932354972 -0.012277905804886028
709271388 0.8898113546770992 -0.041192474962260014
712251488 0.8929429247265346 -0.06474962733037487
715231588 0.8914808976576823 -0.10096356968020911
718211788 0.8851335101768107 -0.10821934131693309
721191888 0.8811684050467645 -0.13589729949705762
724171988 0.8716039506323092 -0.15818316810711966
727152188 0.8742105899003931 -0.17969230187819082
730132288 0.8658790209637417 -0.19931288716334747
733112388 0.8583441178634758 -0.2221069304202481
736092488 0.8586409786933736 -0.24390732363051587
739072688 0.851415044068334 -0.2635984298214337
742052788 0.8455939354817115 -0.28731446765904867
745032888 0.8387853600300256 -0.30477658424886966
748013088 0.8294722749537049 -0.32780856862012236
750993188 0.8200730020932118 -0.34374897338792837
753973288 0.8099126116814548 -0.3653610084675676
756953488 0.7998433062841657 -0.3731616445747549
759933588 0.7942104802906399 -0.3932592725413016
762913688 0.7890404776881623 -0.4145727892383879
765893888 0.7772005200120852 -0.430998519006613
768873988 0.760281756867375 -0.4387970943568921
771854088 0.7587360319673181 -0.46176573789180797
774834188 0.7475164517672181 -0.4756869594243025
777814388 0.7439371808071814 -0.5049136553796199
780794488 0.7268656427748641 -0.5153690653559845
783774588 0.7222070590183626 -0.5317332346189948
786754788 0.7159838306419992 -0.5411553197241619
789734888 0.6857573545156409 -0.5616520291511339
792714988 0.6811471775417692 -0.5703896376448223
795695188 0.6737377953179539 -0.5810526196159604
798675288 0.655141064266763 -0.6031217294213198
801655388 0.6543937282373978 -0.6161709575127431
804635588 0.6355736372702969 -0.6354137655703721
807615688 0.6209567793345492 -0.6433727902568263
810595788 0.6026102537862368 -0.6493713458333663
813575988 0.5929393350120916 -0.6787454112993182
816556088 0.5860824997462594 -0.6744934911068685
819536188 0.5678435065547334 -0.6849224636767466
822516288 0.5527018555086256 -0.7003957970739807
825496488 0.5585382397535125 -0.713490223256246
828476588 0.5362057875175027 -0.7230817753494203
831456688 0.5144208074102687 -0.7231517789494292
834436888 0.5028837309820454 -0.7334864225554076
837416988 0.4828487549080902 -0.7498147186514753
840397088 0.48075533381622193 -0.7566467579674984
843377288 0.46365294612283 -0.7631994364077457
846357388 0.45034736149238064 -0.7791213799255313
849337488 0.43596025865663524 -0.790332694095051
852317688 0.41129511613718456 -0.7915266843296914
855297788 0.41257421498691016 -0.7959971921218683
858277888 0.38092660743629975 -0.8104367454793713
861257988 0.3729426293509216 -0.8030391857205805
864238188 0.36753048909032543 -0.8147863347622541
867218288 0.3506563291389055 -0.8212949454317476
870198388 0.3297221929223783 -0.8212625232950433
873178588 0.3215823737499944 -0.8142936683011722
876158688 0.2961984143037584 -0.8307218154780572
879138788 0.2829233715689432 -0.8235124916234708
882118988 0.2770818925202617 -0.8246398261229674
885099088 0.26721506091957825 -0.8357354330795805
888079188 0.256744038418848 -0.8508445036141397
891059388 0.23987333319641463 -0.8481520545494783
894039488 0.2098575129568174 -0.85809039909337
897019588 0.20106577283627028 -0.8594822084110763
899999788 0.18797664815698037 -0.8469263036460082
