# Hz S RI R 50
50000 0.0012615674970831434 0.0002112853953102627
3029900 0.0018950282008393302 -0.0012585540515519956
6009900 0.0017518743064522352 -0.0021469357732136637
8989800 0.002325454640312196 -0.0029653468986312837
11969800 0.002693000039418256 -0.003734368806606534
14949800 0.003221613587386692 -0.0047470401204677114
17929700 0.0038933515844598084 -0.0054648973824449765
20909700 0.004738864147705062 -0.005908156448970622
23889700 0.006175784502002429 -0.007668500897855855
26869600 0.006878875069084804 -0.008772392761311422
29849600 0.008016755937228979 -0.009833985386242122
32829600 0.009002818988893917 -0.010864756812584198
35809500 0.010569281648836667 -0.011987804414156604
38789500 0.011880376104219246 -0.012681772091525035
41769500 0.013378533241241955 -0.013907199647918532
44749400 0.014741298781961436 -0.014539532291476356
47729400 0.01648320066597576 -0.01553788608916839
50709400 0.01815126763604966 -0.016413248976098204
53689300 0.019719422919585082 -0.017328761835661347
56669300 0.02146180420256357 -0.018003532618619516
59649300 0.023557577049812803 -0.018731832743367784
62629200 0.02518735427123113 -0.019620279365956558
65609200 0.027193950271093562 -0.019976894640799048
68589100 0.028885680588605675 -0.020943195812551805
71569100 0.030725206534222897 -0.021080644791500916
74549100 0.03260569329634316 -0.02149570058648679
77529000 0.03487870167827026 -0.021649712126884473
80509000 0.03650137762475971 -0.022249883871605265
83489000 0.03826495593914778 -0.022779530636317675
86468900 0.0401268487987771 -0.022691188775841784
89448900 0.041652113766151994 -0.022833593648258124
92428900 0.04346138918311664 -0.022951603404680422
95408800 0.04494700816901508 -0.023143074721305893
98388800 0.046675974676126185 -0.0232593864504256
101368800 0.04823814149377333 -0.02295144504142908
104348700 0.0497943206208895 -0.023201977689710596
107328700 0.050810018173061494 -0.023200231239189392
110308700 0.05204306270352898 -0.02266440825530988
113288600 0.05334858584465958 -0.02253835185409038
116268600 0.05430490693431104 -0.022145371461994925
119248600 0.05526026615992966 -0.022264998022364757
122228500 0.056251575787392295 -0.021890228407995857
125208500 0.057176723686612856 -0.021400526210129382
128188400 0.05814578212632703 -0.02080126836759495
131168400 0.058029652061971 -0.020579049383661036
134148400 0.05841217050358732 -0.020006760324517786
137128300 0.05888412392324554 -0.01945045302115772
140108300 0.058728387004063014 -0.019014220516300105
143088300 0.05907604120573621 -0.018607026924974197
146068200 0.05899537119666418 -0.01782588289686955
149048200 0.059054694500508535 -0.017210162554597393
152028200 0.058696872209749805 -0.01674091290020356
155008100 0.05790373502877374 -0.01651111109253229
157988100 0.057324446144788016 -0.016066957128300533
160968100 0.0564740052605741 -0.015132083566483935
163948000 0.05602335457531686 -0.014645693838178873
166928000 0.0547662441070599 -0.01411936999886141
169908000 0.053989308515155675 -0.013346722981341876
172887900 0.05319387455770212 -0.012728603504565505
175867900 0.05155692868696046 -0.012387495635213389
178847900 0.050217386373691615 -0.011568173929537249
181827800 0.04887339828114766 -0.011303654606596016
184807800 0.04696565163608614 -0.010680918307822106
187787700 0.04549531111915934 -0.01005880830542282
190767700 0.04375820174383104 -0.01005610866582823
193747700 0.04196737029253096 -0.009689617844313107
196727600 0.040024271910022266 -0.00915970540126
199707600 0.03800525008018706 -0.008945522078182847
202687600 0.03612971781793883 -0.008828045689733442
205667500 0.03457529596154525 -0.007847030841703158
208647500 0.03197031393850271 -0.008108581969544799
211627500 0.03011675667647434 -0.008016342107645335
214607400 0.02751821669591413 -0.00808355617825749
217587400 0.025225702611030815 -0.008217055823894402
220567400 0.02253803974264817 -0.008682413889510287
223547300 0.020360655514562283 -0.008965152048845779
226527300 0.0182964384715877 -0.008173423697781792
229507300 0.015828356033852315 -0.00887748769333728
232487200 0.013645965255848084 -0.00904867377835371
235467200 0.011291795195589784 -0.009011989019867777
238447200 0.008945522929399721 -0.01001107665482208
241427100 0.006551346547303425 -0.009857798158365247
244407100 0.004283221522288669 -0.010347815337404847
247387000 0.002278729773949269 -0.01123101004798918
250367000 -0.00015857031201625896 -0.011355451203473152
253347000 -0.0023434626872491995 -0.01135128503994037
256326900 -0.005138609639260532 -0.012173721490718053
259306900 -0.007476320823327626 -0.01293402226023296
262286900 -0.009124662400725911 -0.01356424550069891
265266800 -0.011169686160259585 -0.013898612942004548
268246800 -0.013344890835064429 -0.014580519673651282
271226800 -0.015049809517835692 -0.014712145538693574
274206700 -0.017453257205458792 -0.015405378838118848
277186700 -0.018935592088827804 -0.015948715900826468
280166700 -0.020852984312497273 -0.016242563711333015
283146600 -0.022082165729921173 -0.016820402980201966
286126600 -0.023718845148531956 -0.017603790055518084
289106600 -0.02418142398076734 -0.017430185395901188
292086500 -0.02545007670744716 -0.01791141239241694
295066500 -0.027155268324154953 -0.018151049194195922
298046500 -0.02688209811206694 -0.01904089128881751
301026560 -0.022565723827831296 -0.020942823879615477
304006460 -0.02123238363704845 -0.021799029672617962
306986460 -0.018791387852315954 -0.021494280565435057
309966360 -0.02243269501292226 -0.020444491990976872
312946360 -0.025201839421573724 -0.01846760549686521
315926360 -0.02757496383421483 -0.017458559427722186
318906260 -0.027756625739895836 -0.018418952593707662
321886260 -0.028654526135221084 -0.019162756096473152
324866260 -0.02896677117125683 -0.01893598938767008
327846160 -0.028463136475501676 -0.0190031258594437
330826160 -0.02479914821349022 -0.017723997030392877
333806160 -0.024003030695548527 -0.017363728894590664
336786060 -0.023241470745695835 -0.01570146921447069
339766060 -0.02132713700248415 -0.015860534960645656
342746060 -0.02064039017707939 -0.01654840080631061
345725960 -0.019157720865911016 -0.01515158255050501
348705960 -0.018277848778856336 -0.016086663512681038
351685960 -0.016328836858761697 -0.016098485245527
354665860 -0.011849411189613924 -0.015400935389372376
357645860 -0.012222309027842682 -0.01533020578685659
360625860 -0.008597681205905953 -0.0133194445963157
363605760 -0.007416506405141223 -0.014030377291038676
366585760 -0.006154181472577113 -0.014332443381366794
369565760 -0.0032890806215719057 -0.013335831556221273
372545660 -0.002011119041282001 -0.01544268298358431
375525660 -0.00010914697907233845 -0.013363906004518911
378505660 0.002232962745657246 -0.012138380389250154
381485560 0.0037801156318433495 -0.012665284381655708
384465560 0.005431434354612605 -0.011610143366892721
387445560 0.008004918761641082 -0.012760526644219956
390425460 0.008365169364378772 -0.01189751213104042
393405460 0.012236090525393284 -0.011967715942879419
396385460 0.012887123722031409 -0.012588444426529486
399365360 0.013881233387344361 -0.0107604026097755
402345360 0.014026158578211729 -0.011127684780975743
405325360 0.016720107634674464 -0.012021825917215722
408305260 0.015348429365899792 -0.010633820696632231
411285260 0.01678141949021376 -0.009919739114337781
414265260 0.0173169100596073 -0.010940310971845479
417245160 0.018123529466360862 -0.011170029891597648
420225160 0.017526186849301156 -0.009045719971598311
423205160 0.018217827060037172 -0.00926595069277422
426185060 0.01805789818565542 -0.007721894597235234
429165060 0.01838770633638158 -0.007703159970558786
432145060 0.01790445902920956 -0.007190379767173711
435124960 0.015002001324776623 -0.005117125589560075
438104960 0.016201065510541637 -0.0050155231287911705
441084960 0.014417901462644787 -0.004181120106646756
444064860 0.01065720337414475 -0.003387139470692331
447044860 0.00923939133706131 -0.0031362093377415414
450024860 0.007341741381116736 -0.0016262809032470398
453004760 0.0033954626939380846 0.0003393889227900214
455984760 0.0008286631691989855 0.0033449028075572874
458964660 -0.003553093491615675 0.004185259791055146
461944660 -0.005710474264817526 0.00608940869804201
464924660 -0.007901541446136173 0.009579207059525092
467904560 -0.011451623048626531 0.011488596245377436
470884560 -0.016714447729904314 0.014948376102672089
473864560 -0.020381614822628232 0.016049912961357795
476844460 -0.024913347269310247 0.020862538542464552
479824460 -0.028994169493286093 0.022761196202064345
482804460 -0.03357589980188576 0.026574377097454856
485784360 -0.036246841305957934 0.03437107506470699
488764360 -0.041532064487975126 0.036141479488268846
491744360 -0.0494210256963455 0.04255903690510641
494724260 -0.05341206094169271 0.04733006007820715
497704260 -0.0580934880321255 0.052457798771917544
500684260 -0.06387514382060348 0.059300659748580634
503664160 -0.06982976567665268 0.0668643932429538
506644160 -0.07351132515981375 0.07290899711583704
509624160 -0.07831193638726416 0.08517797240213772
512604060 -0.07909855058010572 0.09476003328941751
515584060 -0.08410191021342026 0.10615497342233664
518564060 -0.08446084047607248 0.11722792163619111
521543960 -0.08361810571406865 0.12929083563788613
524523960 -0.08182450097222815 0.14025816327269852
527503960 -0.07851355125240088 0.15548829884035167
530483860 -0.06860560601211495 0.16704698120635145
533463860 -0.06023923557345149 0.18017614434661708
536443860 -0.04653717451410338 0.19001116441787314
539423760 -0.027259180484331156 0.20067514940882888
542403760 -0.012160850562866832 0.2026055723234368
545383760 0.008802693481680973 0.20209148811291672
548363660 0.03113611757113137 0.19879894653972502
551343660 0.05103180010368094 0.1904069441820134
554323660 0.07134608585753147 0.1787927222946217
557303560 0.08452410024520723 0.15863408692805972
560283560 0.09845384391847826 0.13955547265395457
563263560 0.11014929150380531 0.11821125010623065
566243460 0.1162118231564767 0.08976395425478816
569223460 0.11794580202960253 0.06473651489993305
572203460 0.11786381398113961 0.03960115953572181
575183360 0.11412768801263536 0.01081495683726743
578163360 0.10640314787991348 -0.018044035633711777
581143360 0.09402661484087439 -0.04597790248668623
584123260 0.07549892052199382 -0.07209589493043575
587103260 0.054688144130223555 -0.09783242671639625
590083260 0.027310022452924094 -0.1269709137683542
593063160 -0.009727814367414067 -0.1489594799148969
596043160 -0.050879371247664104 -0.17143296682024764
599023160 -0.10447141429532603 -0.1873102529342194
602003136 -0.17388099344460206 -0.1907851580001045
604983036 -0.23398518583185152 -0.1766661443460048
607963036 -0.30391779706237565 -0.13465476422184544
610942936 -0.3533215322766271 -0.07922006665636899
613922936 -0.38728373181494924 -0.0043463095713596545
616902936 -0.3953323379810056 0.07347822048576493
619882836 -0.38450774387945685 0.14594846414300555
622862836 -0.3543876524566594 0.20789633548400827
625842836 -0.31218217009693955 0.2520662092479214
628822736 -0.2688861355462614 0.2875735035385398
631802736 -0.23093290039549705 0.3055979441431533
634782736 -0.19416309644777566 0.3140124181840768
637762636 -0.1601534182519494 0.31600034701259017
640742636 -0.13095439281576335 0.3189117919542864
643722636 -0.10401857874058466 0.3170266670442048
646702536 -0.082124478117597 0.31835051336648135
649682536 -0.06488536322091383 0.3114490454107515
652662536 -0.04803892681956152 0.3094648278929605
655642436 -0.034960113376820895 0.30591155963616157
658622436 -0.02208063730704367 0.30237274879604786
661602436 -0.010430220089142673 0.29930477626104135
664582336 0.0015511834406151642 0.3001074672775821
667562336 0.010084683294873028 0.29985035449203695
670542336 0.0209826293705989 0.29945886712350184
673522236 0.029357762876622416 0.29957113864601204
676502236 0.03536560203673224 0.29592540747070933
679482236 0.04455596427703006 0.2958551159847062
682462136 0.05153360565221247 0.29742909005211515
685442136 0.05477920171240045 0.3000989562402918
688422136 0.06369035889082518 0.3007820746235062
691402036 0.06878776497828105 0.3028486924829803
694382036 0.08225746820225086 0.3101729411742606
697362036 0.08470826990923921 0.3136857696208474
700341936 0.09108490730103458 0.3168096431828128
703321936 0.10095177313579808 0.3257930456194794
706301936 0.10566321926461995 0.3364241427042704
709281836 0.1168018762029103 0.3422804209214653
712261836 0.1249355142887313 0.35121958107452056
715241836 0.13499927063249428 0.3607371085031401
718221736 0.1484354237304843 0.3730643368314125
721201736 0.1596537120008616 0.3847681971585224
724181736 0.17230250585410062 0.3989154134374293
727161636 0.18995464921544197 0.413737992079734
730141636 0.20543733459000238 0.41954373680661045
733121636 0.21705406946314038 0.44533245496274654
736101536 0.24016892947484417 0.45160171235214014
739081536 0.2704849198284909 0.4628521282011899
742061536 0.30233773042643197 0.47972804080242853
745041436 0.33423649162032854 0.4859409306281303
748021436 0.37228322325724267 0.47716895513345886
751001436 0.41416528454164625 0.4888557330408691
753981336 0.45799332853957314 0.4798672156545191
756961336 0.5026140635920813 0.47536558765150555
759941236 0.5469183403072079 0.453204092712902
762921236 0.5828672543866223 0.41297668720953545
765901236 0.6274255762713703 0.38104944463866003
768881136 0.6509491293094183 0.3343245294769769
771861136 0.6681982452698277 0.28181410878185376
774841136 0.6799234307555473 0.22398806063738183
777821036 0.6793166234328227 0.1834184911766142
780801036 0.6618312263463553 0.13253220103920352
783781036 0.6414234874837299 0.08917249652739141
786760936 0.629129017551221 0.050936490096341824
789740936 0.594734808934303 0.021983930523626415
792720936 0.5643427179757778 -0.0028816765718888814
795700836 0.5460043217391521 -0.02087080829398215
798680836 0.518020849830647 -0.04092885676075297
801660836 0.49566215727483387 -0.04884628241388547
804640736 0.4691281349372704 -0.056908841205254294
807620736 0.44394034251364345 -0.07169081881984098
810600736 0.4294071238615929 -0.07412890267549915
813580636 0.4061564106941366 -0.08186848188269301
816560636 0.3889016314711656 -0.08030569321286428
819540636 0.3742181078990567 -0.08062516993081206
822520536 0.36315107110446376 -0.08434132423253868
825500536 0.3521402317311061 -0.08291719049185259
828480536 0.33669757686247 -0.09327742711450718
831460436 0.3279822349954927 -0.09251649707873691
834440436 0.3158709688059613 -0.08975492583143248
837420436 0.3107114815616644 -0.08931038270725326
840400336 0.29995668392676694 -0.09346679858719904
843380336 0.29287553111067627 -0.09571705546909823
846360336 0.2855001766093397 -0.09663090177557966
849340236 0.2836868871890301 -0.1011992604915678
852320236 0.2762708264504007 -0.09750783025223292
855300236 0.2671699806283628 -0.10130325809248165
858280136 0.2684750092995266 -0.1049872316493854
861260136 0.26030013498731175 -0.10419761151085
864240136 0.2591562802838965 -0.11089823445278263
867220036 0.25732043343837335 -0.1129483022199913
870200036 0.2581695270415251 -0.11196665933045034
873180036 0.25528078961146367 -0.11454513710138683
876159936 0.2525741090734498 -0.1202396964713473
879139936 0.2540485788052061 -0.12975245808054378
882119936 0.25954753519077245 -0.134446405092836
885099836 0.2598908225088404 -0.13918581878204545
888079836 0.25613116255237556 -0.13741746151531145
891059836 0.26123806243324493 -0.1499080330426997
894039736 0.264005649291216 -0.15767407161701374
897019736 0.2678199149492389 -0.15276911231380594
899999736 0.2656462761828852 -0.16244774067058773
