!Created with skrf (http://scikit-rf.org).
# Hz S RI R 50.0 
!freq ReS11 ImS11 ReS21 ImS21 ReS12 ImS12 ReS22 ImS22
25000000.0 -0.0898679272654514 -0.011882605943515734 0.9972274560317883 -0.2438619889612451 0.0 0.0 0.8259977706313181 -0.628471616315724
30000000.0 -0.08518569841969768 -0.010709512357058618 1.0256166068854422 -0.2289174474017256 0.0 0.0 0.8217800954600053 -0.686876611574615
35000000.0 -0.08435942785744065 -0.02114362700416913 1.0289384577318272 -0.24383419716580698 0.0 0.0 0.7185509148661493 -0.7191873788789476
40000000.0 -0.08411658232200737 -0.016761253292459994 1.0046434832500675 -0.2744246822700737 0.0 0.0 0.5998857550107396 -0.7433342861092138
45000000.0 -0.08286659984211725 -0.02065669794123474 0.986230022094389 -0.4011243383319091 0.0 0.0 0.4289797117454909 -0.8216303417852809
50000000.0 -0.0860674777620358 -0.014790990702328494 0.9343444777279286 -0.4202246568051254 0.0 0.0 0.38121512225620763 -0.7985514221920919
55000000.0 -0.09161947125360646 -0.021473082346701103 0.917584245571728 -0.4629939376452891 0.0 0.0 0.30603959080527826 -0.8559059444846125
60000000.0 -0.09343028339917929 -0.022111688662481997 0.8653510202578345 -0.5321265957005402 0.0 0.0 0.19388530544201757 -0.876217678390316
65000000.0 -0.08523384830941308 -0.04162012967781164 0.8416662373620931 -0.6021202411057135 0.0 0.0 0.44386694961300877 -0.9959199800712109
70000000.0 -0.08979795653258696 -0.014030822526935305 0.8322854529632091 -0.5832262048870223 0.0 0.0 0.30134584056012215 -0.9361146501340393
75000000.0 -0.09723183964876256 -0.030957997384935456 0.793608695408652 -0.5695435280045861 0.0 0.0 0.17103891982790567 -0.9869899699685606
80000000.0 -0.11126723593702638 -0.002941938975147681 0.7256565103250323 -0.7115368915324263 0.0 0.0 0.05327152416926991 -1.0543495689203584
85000000.0 -0.09590226366447184 -0.00553302287608921 0.6883676370078622 -0.7447534348951638 0.0 0.0 0.04362764548298927 -1.007303258372496
90000000.0 -0.09486730642202872 -0.0032822306372138075 0.6247005461645133 -0.7694297489199821 0.0 0.0 -0.07746901997518787 -0.9865705323323788
95000000.0 -0.0956711301492595 0.015782862437685903 0.5330722912168421 -0.7928303925525848 0.0 0.0 -0.22357800893310048 -0.9557826682864411
100000000.0 -0.08535202494295117 0.031815888416560446 0.5755715510369672 -0.7551194571268071 0.0 0.0 -0.2077373495160974 -0.9084113878549002
105000000.0 -0.07938290435785579 0.05058849337758322 0.565688562273394 -0.7851121566798145 0.0 0.0 -0.3004892772769568 -0.8942778139173158
110000000.0 -0.07473914467909969 0.03459992956572302 0.49234435004930704 -0.8309346088778492 0.0 0.0 -0.3595480652101564 -0.8967469754387394
115000000.0 -0.09350352092417695 0.01960531409638999 0.4516278758744995 -0.8830234615264314 0.0 0.0 -0.45806067298472825 -0.8274029702477862
120000000.0 -0.09452273301869192 0.004933511930242189 0.40376079043007673 -0.8704090710244556 0.0 0.0 -0.5805086388443679 -0.782236415888953
125000000.0 -0.10957706679773016 -0.009279713873091006 0.42740024690059675 -0.8639306871149256 0.0 0.0 -0.4513608447677412 -0.7886327324694948
130000000.0 -0.09783415687238829 -0.001523054791034779 0.35723240800871336 -0.9005320495953663 0.0 0.0 -0.6094633473095984 -0.6382840424128696
135000000.0 -0.1039752718732831 0.00014650054606504115 0.2560181788143794 -0.946929442193957 0.0 0.0 -0.8040818642034183 -0.6906676039897499
140000000.0 -0.09513822014111492 0.0020348130780121414 0.23044103322373796 -0.9402111298094334 0.0 0.0 -0.8314116639024876 -0.6223287222630889
145000000.0 -0.09501711475944483 0.0025076475018825303 0.14125179933702564 -0.9355905396263987 0.0 0.0 -0.8853360171030841 -0.5608276862669759
150000000.0 -0.09415502119064924 0.0021561160626740686 0.10615379205863239 -0.9366246314528921 0.0 0.0 -0.8652369523395637 -0.5423635655433479
155000000.0 -0.09334933612636968 -5.1828440539816045e-05 0.10732498469033867 -0.9261265453350928 0.0 0.0 -0.8516338814665164 -0.4778924955803313
160000000.0 -0.09591482058852495 -0.007320374543775482 0.0737900531383733 -0.916003565476689 0.0 0.0 -0.9047547876879083 -0.4039357240035942
165000000.0 -0.10174903824691388 0.013119391884749058 0.09644587633426725 -0.9039586525384616 0.0 0.0 -0.935406191001393 -0.3509072339032666
170000000.0 -0.08401659906718893 0.06788229650585008 0.18788398156862499 -0.8680711230636903 0.0 0.0 -0.9419606662519706 -0.2952036202985516
175000000.0 -0.0772264909509805 0.07491850988248087 0.03667917651728423 -0.9051845209904394 0.0 0.0 -1.0303961308333764 -0.1710564584330866
180000000.0 -0.08612797677556655 0.07532024966782053 0.01834366921058214 -0.9580367334329565 0.0 0.0 -1.0818933170025395 -0.1014744038710585
185000000.0 -0.028262507476735678 0.0799002680558976 -0.09179061005411289 -0.9852052930872705 0.0 0.0 -1.0611627885822916 0.03669528128187333
190000000.0 -0.0679225046198887 0.11202789918497184 -0.10080354370362586 -0.9925331413994235 0.0 0.0 -1.0457842959276582 0.09221140028160839
195000000.0 -0.10677669671893301 0.05517272264400491 -0.20240717027194982 -0.9745560973458456 0.0 0.0 -0.9945694753091697 0.18218176123774574
200000000.0 -0.07993785530920591 0.02379005216590599 -0.2667783321071851 -0.9430267734070258 0.0 0.0 -0.9591748798343936 0.258674971482801
205000000.0 -0.08274051852692077 0.018558758926724192 -0.2932086225730377 -0.9037930797718993 0.0 0.0 -0.9355817859569359 0.3221789882799405
210000000.0 -0.08565504424022204 0.012949574999534294 -0.3262629917302661 -0.877070371245766 0.0 0.0 -0.9173300272940682 0.3872198276731975
215000000.0 -0.08095604279625308 0.007676036215330434 -0.363820608301271 -0.863728059411957 0.0 0.0 -0.8845459521294192 0.4468401148732862
220000000.0 -0.0748165977285672 -0.012255296098795788 -0.382595069978938 -0.8717965912345769 0.0 0.0 -0.9044285841475839 0.45984174067171324
225000000.0 -0.07773320846364515 -0.00998448111605384 -0.517102014807764 -0.9266130004404448 0.0 0.0 -0.9789737246759026 0.6695132849442106
230000000.0 -0.09098752082864675 -0.010749835426547576 -0.5002455999898762 -0.7887125455691386 0.0 0.0 -0.9007182927158036 0.7590360104743271
235000000.0 -0.08602547081273637 -0.008061245184515124 -0.5387847495527129 -0.7635027795197095 0.0 0.0 -0.8036951059522434 0.8037683661353975
240000000.0 -0.08301209490775993 -0.005111245247407216 -0.5672289852552169 -0.7434940866227966 0.0 0.0 -0.7329979300780045 0.8355835877667906
245000000.0 -0.0810797132466483 -0.0007058629137631754 -0.5976555249919511 -0.7242650758329633 0.0 0.0 -0.6772662689049526 0.8656756067019846
250000000.0 -0.07915916384096572 0.0013727367481912185 -0.6245559300174192 -0.7069686237294334 0.0 0.0 -0.6303472721760253 0.901726675294421
255000000.0 -0.07833470735394486 0.00236293194593326 -0.6551155015545573 -0.6840079868320821 0.0 0.0 -0.5594851411243036 0.9488505821347178
260000000.0 -0.07902171262614159 0.002120386711778851 -0.6898171082762717 -0.661225185767967 0.0 0.0 -0.484603133257979 1.0181184574044118
265000000.0 -0.0797818908585387 0.0003399072834150133 -0.7389796368152488 -0.6166591874989348 0.0 0.0 -0.37493817906095434 1.0841382411524443
270000000.0 -0.08398975124810584 -0.0020310560076744455 -0.7534250260399854 -0.5891409498916608 0.0 0.0 -0.29576922773585157 1.1419389167967449
275000000.0 -0.08632333610785285 -0.001912368081585682 -0.7608165142817066 -0.5614167856618757 0.0 0.0 -0.1277824322914986 1.1629278322470102
280000000.0 -0.08766406105996805 0.006008469554543027 -0.7962536168709996 -0.49899113262967143 0.0 0.0 0.06857801426225021 1.2010353009154107
285000000.0 -0.08442347313310548 0.007580408804521518 -0.812151769042307 -0.47138973190444255 0.0 0.0 0.20933252454375453 1.1337733551585516
290000000.0 -0.08549024260324546 0.006762161392465027 -0.8399302108977175 -0.43804385279864355 0.0 0.0 0.3124452068622175 1.065543876522542
295000000.0 -0.08851099887392129 0.006659934156452521 -0.866202408014814 -0.41032283402951447 0.0 0.0 0.4032672285374268 1.0066935570140165
300000000.0 -0.08943922204682914 0.006128943264649422 -0.8915502438348364 -0.37542331979242594 0.0 0.0 0.48374238784601603 0.9403631612703154
305000000.0 -0.08960724273301557 0.007120313041102452 -0.9273585804122794 -0.2829497646901396 0.0 0.0 0.5595972301007258 0.8674830984939583
310000000.0 -0.08907228926258239 0.0076799805420149 -0.9420440087904537 -0.23370256940179351 0.0 0.0 0.634320351067624 0.7877209776395914
315000000.0 -0.08891142679374023 0.008022176451676952 -0.9525380513783019 -0.18979534424294991 0.0 0.0 0.7022862901913002 0.7104604889349356
320000000.0 -0.09003661007744412 0.008247015008664474 -0.9621718434787832 -0.14528209354607624 0.0 0.0 0.7660220136452539 0.6275445392066
325000000.0 -0.09063234568646891 0.009485091333926086 -0.9667675391388908 -0.11535271791892497 0.0 0.0 0.8079509829461751 0.5534839506615101
330000000.0 -0.0911373858503473 0.009943243774262719 -0.9618392810118188 -0.1446683851435849 0.0 0.0 0.8075476788763268 0.5367994193696697
335000000.0 -0.09238942638050805 0.009589276993255303 -0.9592505984095642 -0.14137006465221708 0.0 0.0 0.8270206378198371 0.48508016832754197
340000000.0 -0.09422272708199285 0.008717773618799093 -0.9630632670293624 -0.09703027733968034 0.0 0.0 0.8663682560102824 0.38279139634050646
345000000.0 -0.09661178577554952 0.008559486420994921 -0.9664637797937704 -0.03994536389007423 0.0 0.0 0.901501217182709 0.26632639217812004
350000000.0 -0.09910916971209278 0.009249711221190605 -0.9691059007807453 0.024544307245340926 0.0 0.0 0.9218555130459583 0.13623760878571473
355000000.0 -0.10306798625924025 0.008414865879358364 -0.9739072071796372 0.09413124481592597 0.0 0.0 0.9291913316966035 -0.001189288616964113
360000000.0 -0.10856532332370612 -0.0016184886050367247 -0.9848044503638871 0.13577722301018028 0.0 0.0 0.9235382305698379 -0.13197667865635504
365000000.0 -0.11874693579529204 -0.017574132568460406 -1.00630684320987 0.15926797552389463 0.0 0.0 0.9203565943279103 -0.2363251926325203
370000000.0 -0.13016638265507294 -0.0220701058285969 -1.0352587528558257 0.21362608076768985 0.0 0.0 0.9188360447848609 -0.31454574912584893
375000000.0 -0.13605938189652433 -0.011651993592913227 -1.0472562545837611 0.29256761442252743 0.0 0.0 0.8571809497157672 -0.4029733811712631
380000000.0 -0.12480725565268623 -0.009925284752448952 -1.0383875101634126 0.39179854523023755 0.0 0.0 0.7880289332273872 -0.5001613589525588
385000000.0 -0.0989986861628992 -0.011094493260970856 -1.0066452240531023 0.4780037998126977 0.0 0.0 0.7490751506370008 -0.5859619119615171
390000000.0 -0.07915765359564421 -0.008362901219953976 -0.9306489404010055 0.5645823771489601 0.0 0.0 0.686334938287092 -0.6478487136074641
395000000.0 -0.06773163748876228 -0.006733558010383365 -0.8588572695940263 0.6143933710627528 0.0 0.0 0.6235618825646513 -0.6994986508674395
400000000.0 -0.06321561762259129 -0.0028790881043182807 -0.8024785053220835 0.6571578503026255 0.0 0.0 0.5514062231117061 -0.749546079509214
405000000.0 -0.05710228170095992 -0.00043364126121365625 -0.7595842037183945 0.6942981870442027 0.0 0.0 0.4708155550751508 -0.8011833834467725
410000000.0 -0.05242839984745657 -0.0007393422325037288 -0.7090569076540013 0.7222030417830474 0.0 0.0 0.3812995173727833 -0.836096586741802
415000000.0 -0.048808449490690554 -0.0007629409275350892 -0.65907678327329 0.7599143967816107 0.0 0.0 0.28686246435100776 -0.8640060389628432
420000000.0 -0.04728922294820412 -0.0003079031410427643 -0.6071721103014263 0.7958041793478078 0.0 0.0 0.18808784199140016 -0.8753841743803032
425000000.0 -0.04641238720862548 5.472285279995377e-05 -0.5624007001413306 0.8224405473789487 0.0 0.0 0.09075065728704555 -0.8727363560557101
430000000.0 -0.04537801517524611 -1.193304942186571e-05 -0.5259678924004926 0.8407997500972346 0.0 0.0 0.002405790172333283 -0.8643449477717011
435000000.0 -0.04481583080519144 -0.00024439808657511063 -0.4738477822320106 0.8651792660026454 0.0 0.0 -0.08462356156019861 -0.8551665576400682
440000000.0 -0.044938025173071335 0.0010778172576968183 -0.40879850252272154 0.8899823743820757 0.0 0.0 -0.1677261088669075 -0.8300501575703372
445000000.0 -0.04608119973712542 0.004291972743172858 -0.3400959328359442 0.9110770679751631 0.0 0.0 -0.24828597427317278 -0.7921605949101026
450000000.0 -0.04806341232842985 0.01042496336944083 -0.2613047164079241 0.9282727496758828 0.0 0.0 -0.32458806284094727 -0.7447742135500415
455000000.0 -0.050215805476033444 0.02025447801665327 -0.16681508249266866 0.9382049929931925 0.0 0.0 -0.38824647401209633 -0.6911024862600331
460000000.0 -0.051322781601517334 0.027603019071975952 -0.09101907567581798 0.9355490078837388 0.0 0.0 -0.4190620205506782 -0.6421894247377752
465000000.0 -0.05295745385751923 0.024512166968102014 -0.05927230915799451 0.9140290015510981 0.0 0.0 -0.4342065507005027 -0.5908355479487583
470000000.0 -0.05604851903436519 0.018444476602728778 0.005935015099929929 0.8884678709920029 0.0 0.0 -0.4967093946616675 -0.5282095373368775
475000000.0 -0.060879170982493486 0.012465834820047948 0.07117762548142448 0.8647400659604615 0.0 0.0 -0.5605504261635804 -0.4872947434500886
480000000.0 -0.06359604482318426 0.006167755627173142 0.06417448045248857 0.8483889532046623 0.0 0.0 -0.5883015481145643 -0.4646594415114202
485000000.0 -0.06462808274031971 -0.0018313498049471908 0.1499373107788773 0.8230497994751272 0.0 0.0 -0.6569939462677565 -0.3778840220659829
490000000.0 -0.0635113884388214 -0.013137728421458885 0.24757592595842645 0.7842603657677344 0.0 0.0 -0.7107958982915121 -0.2641014591997888
495000000.0 -0.065586901224437 -0.0241642346679214 0.31234450599317354 0.7494933933093126 0.0 0.0 -0.7495873128663147 -0.16693885891965785
500000000.0 -0.07839097197899238 -0.028044532936903416 0.36420143250761305 0.6989125947293301 0.0 0.0 -0.7836072011722056 -0.0531902640018868
505000000.0 -0.10445410902692942 -0.02718869799295476 0.40114378670732603 0.6258380330543463 0.0 0.0 -0.8060818161888911 0.08224651582202243
510000000.0 -0.1341679476098102 -0.02048144563375568 0.42959151525188655 0.5415986888094768 0.0 0.0 -0.7915259417413297 0.22416926815194405
515000000.0 -0.16399041410290877 -0.0030684203337940923 0.4804896126911327 0.46630213817471533 0.0 0.0 -0.7402059995949675 0.35884264094173146
520000000.0 -0.1880466172475922 0.03305934174317122 0.5352935841772223 0.4139690148329805 0.0 0.0 -0.6721531946564435 0.4861724608470101
525000000.0 -0.20232601261528296 0.08189935616101589 0.6019298817495214 0.35016960039605155 0.0 0.0 -0.5969731564229765 0.6104565012278903
530000000.0 -0.19251863236797628 0.1261961190938413 0.6715531287333164 0.25984092058469993 0.0 0.0 -0.49078277973425327 0.7231038419823885
535000000.0 -0.18266964767329175 0.17857599312308284 0.7366607534571301 0.1696560512835932 0.0 0.0 -0.3955763526870985 0.8170943429402119
540000000.0 -0.10893166435575916 0.1904225970361051 0.7708284391850824 -0.015938258656671686 0.0 0.0 -0.17721691561904093 0.8760534437944466
545000000.0 -0.06763202649981055 0.15100903924114542 0.7411646051471785 -0.13300416147853883 0.0 0.0 0.024938766882187678 0.8080818062183303
550000000.0 -0.10677920486347946 0.08901930987328925 0.653055346416712 -0.2433357883204635 0.0 0.0 0.1134085693493207 0.6902935144285477
555000000.0 -0.08107783426735851 0.01885886088295169 0.6446107744144424 -0.26754472003247276 0.0 0.0 0.2224800303275276 0.6183450780612684
560000000.0 -0.060134933923422396 0.04262860160731245 0.6618063391528531 -0.2532453747686366 0.0 0.0 0.34822013654824974 0.640905036437642
565000000.0 -0.09548814203234915 0.10440172625350327 0.5076409416863974 -0.4992958108497427 0.0 0.0 0.5339322058759042 0.5249593427134873
570000000.0 -0.11754191247291605 0.18877444262888035 0.33426135234053783 -0.6629739647239469 0.0 0.0 0.6312294947597977 0.3579317695485519
575000000.0 -0.10529970701702948 0.24486157512058426 0.19356624260290586 -0.7418499735948019 0.0 0.0 0.615717804963167 0.24716429696849765
580000000.0 -0.0634773297769335 0.24578860013873569 0.046076700289219404 -0.7153030841206816 0.0 0.0 0.5627018114495814 0.11339654947470812
585000000.0 -0.012503683644764585 0.22715654729719703 -0.05385891821527543 -0.665485535785158 0.0 0.0 0.5367451823821506 0.0217968085811897
590000000.0 0.013917731919549531 0.19452874652412513 -0.14623724591916182 -0.5899949233146344 0.0 0.0 0.482156619161726 -0.0721621050616862
595000000.0 -0.11428385367876623 -0.011225370441302788 -0.02540701375447696 -0.5578532094885035 0.0 0.0 0.37932060414080543 -0.11605381369407554
600000000.0 -0.12707113929325506 0.027466101457035888 -0.11358066986409851 -0.4693138544726833 0.0 0.0 0.32729103868589465 -0.17828144429091014
605000000.0 -0.09264020843982208 0.06729856990057087 -0.1398200619418537 -0.3356489641064788 0.0 0.0 0.23632872253359816 -0.16970811641279346
610000000.0 -0.05583064658051454 0.09171586594251085 -0.16529057984030968 -0.2716706534147981 0.0 0.0 0.1820107976978343 -0.15850613784160933
615000000.0 -0.014622205557509874 0.10327180456818216 -0.1746952015447921 -0.21038182447904274 0.0 0.0 0.14594631257705226 -0.13780884714958558
620000000.0 0.007501572466969788 0.09340092576039825 -0.16520628973609872 -0.1569880225769063 0.0 0.0 0.10956323279107172 -0.12142983871578229
625000000.0 0.010934389822155388 0.07137410088728548 -0.14181423361446657 -0.11804258021967708 0.0 0.0 0.07554424543230435 -0.1091588316406574
630000000.0 0.011055798294541652 0.059089685057497246 -0.11083134551219159 -0.08931132120843006 0.0 0.0 0.052945578473806806 -0.08358784506098947
635000000.0 0.011373775648193531 0.0551272282872663 -0.08368094723284851 -0.0698991776694637 0.0 0.0 0.040328981121614864 -0.05577450674168493
640000000.0 0.011572523772578431 0.05533186311992968 -0.05971838563754447 -0.05836126395854219 0.0 0.0 0.03577353577318133 -0.029350316245254138
645000000.0 0.011403810754714479 0.057002160096379755 -0.036173890411239785 -0.0519823509972184 0.0 0.0 0.038749592679128406 -0.004099254754970712
650000000.0 0.010964850048469239 0.060140722535226815 -0.014282973942585321 -0.042487722804157586 0.0 0.0 0.04006832792849371 0.02277464163417461
655000000.0 0.008700098111494152 0.06481722222610105 -0.0016457149761815685 -0.033598845731067195 0.0 0.0 0.03642061423969965 0.042573558193085746
660000000.0 0.004882791848689188 0.07030994592089465 0.004940061248415597 -0.02997126810129125 0.0 0.0 0.03301075728882005 0.0547222470148287
665000000.0 -0.0010510716799060195 0.07615264055029963 0.00946890587261011 -0.02886342235504531 0.0 0.0 0.02862117637801137 0.06383984095708328
670000000.0 -0.007815263732345108 0.07812981044437343 0.013765789275915194 -0.02823392943264701 0.0 0.0 0.023930903205068133 0.06849814776113937
675000000.0 -0.01395173385128391 0.07881801167701667 0.0180163306052513 -0.0269963252151302 0.0 0.0 0.019628405312222662 0.07223696196645348
680000000.0 -0.019188408530227265 0.0791708308336579 0.02111031658212572 -0.024419046854322658 0.0 0.0 0.01450553966673116 0.0757510523339683
685000000.0 -0.022748869636339382 0.07944628675202035 0.02153695981256958 -0.020313446338547078 0.0 0.0 0.008266238123020015 0.078413606220546
690000000.0 -0.02437509829153251 0.08016758069354535 0.020417927216820668 -0.016176301643977202 0.0 0.0 0.002922048205798131 0.0806238661662576
695000000.0 -0.02527344911652907 0.08113477899041156 0.01945679123610449 -0.013088649033864665 0.0 0.0 -0.0006748520602318799 0.08254868583963904
700000000.0 -0.026022593555292958 0.08205702921094457 0.01905875398608991 -0.010950761375890707 0.0 0.0 -0.0029714953466422195 0.08414472449629305
705000000.0 -0.0260771602478991 0.08310270817686125 0.019026916328507344 -0.009419314963928303 0.0 0.0 -0.0038434787492070757 0.0856666422695186
710000000.0 -0.02518980105039416 0.0852787880421722 0.019133001653362264 -0.008121949755400374 0.0 0.0 -0.003422417574489423 0.08824646085926018
715000000.0 -0.025214820790435043 0.08604741134885611 0.019424269681456656 -0.007167293530734617 0.0 0.0 -0.0035228583668582454 0.08921786164117267
720000000.0 -0.023211858140848245 0.08814028272046821 0.019985275935301073 -0.0062725546798957765 0.0 0.0 -0.0012443461302202121 0.09156743305003573
