# Hz S RI R 50
50000 0.003798101 -0.000776205 0.986292362 -0.001424839 0 0 0 0
3029600 0.005381898 0.001694745 0.980518877 -0.038108821 0 0 0 0
6009200 0.007122238 0.002962007 0.975831985 -0.064826309 0 0 0 0
8988800 0.008269422 0.004247494 0.975970864 -0.086729258 0 0 0 0
11968500 0.00992924 0.005027892 0.969113111 -0.112953215 0 0 0 0
14948100 0.011387715 0.005485249 0.963165402 -0.138282254 0 0 0 0
17927700 0.012910111 0.005901438 0.957898974 -0.163407102 0 0 0 0
20907400 0.014436167 0.005921435 0.949373424 -0.187242597 0 0 0 0
23887000 0.015777377 0.005760766 0.941708564 -0.210754275 0 0 0 0
26866600 0.01717698 0.005545593 0.934635221 -0.234198927 0 0 0 0
29846300 0.018602954 0.005186903 0.924487948 -0.256314545 0 0 0 0
32825900 0.019826484 0.004605496 0.915547609 -0.278288275 0 0 0 0
35805500 0.020939029 0.003876643 0.907087326 -0.300097405 0 0 0 0
38785200 0.022143896 0.003133381 0.895819485 -0.32087621 0 0 0 0
41764800 0.023149585 0.002224559 0.885672807 -0.341029167 0 0 0 0
44744400 0.023989226 0.001228288 0.8765859 -0.361549615 0 0 0 0
47724000 0.024896765 -8.577e-06 0.864807724 -0.380316615 0 0 0 0
50703700 0.02551034 -0.001117425 0.853655278 -0.39955464 0 0 0 0
53683300 0.026106433 -0.00246091 0.843695402 -0.418594866 0 0 0 0
56662900 0.026494948 -0.003790867 0.831448554 -0.436564952 0 0 0 0
59642600 0.026898646 -0.005129708 0.819536149 -0.454577028 0 0 0 0
62622200 0.027143398 -0.006658528 0.809018194 -0.472671985 0 0 0 0
65601800 0.02716333 -0.008233965 0.796405076 -0.489482164 0 0 0 0
68581500 0.02703415 -0.009732215 0.784437358 -0.506616234 0 0 0 0
71561100 0.026809887 -0.011267282 0.773324072 -0.524102807 0 0 0 0
74540700 0.026563398 -0.012869913 0.760022103 -0.54023385 0 0 0 0
77520400 0.026096073 -0.01437577 0.747634649 -0.556973934 0 0 0 0
80500000 0.025432236 -0.015859473 0.736229896 -0.574544191 0 0 0 0
83479600 0.024699095 -0.017358841 0.723266601 -0.590166687 0 0 0 0
86459200 0.023753412 -0.018893804 0.710399806 -0.605834364 0 0 0 0
89438900 0.022701688 -0.020217303 0.698324322 -0.622626721 0 0 0 0
92418500 0.021501535 -0.021675664 0.684301733 -0.637774348 0 0 0 0
95398100 0.020101619 -0.022967664 0.670977473 -0.653639256 0 0 0 0
98377800 0.018569519 -0.024008337 0.657838582 -0.67055875 0 0 0 0
101357400 0.017180558 -0.025064421 0.642979443 -0.68576622 0 0 0 0
104337000 0.01543647 -0.025901123 0.628012061 -0.701882421 0 0 0 0
107316700 0.013729751 -0.026871073 0.613614678 -0.718481719 0 0 0 0
110296300 0.011788272 -0.027527747 0.597825288 -0.734135568 0 0 0 0
113275900 0.009769618 -0.028099697 0.581726133 -0.749832749 0 0 0 0
116255600 0.007578974 -0.028535541 0.566048622 -0.766756534 0 0 0 0
119235200 0.005557622 -0.028782363 0.548445701 -0.782107234 0 0 0 0
122214800 0.003251003 -0.028899049 0.53079307 -0.797785639 0 0 0 0
125194500 0.000992468 -0.028660066 0.512939333 -0.814370036 0 0 0 0
128174100 -0.001473439 -0.02835921 0.493724465 -0.829853057 0 0 0 0
131153700 -0.003677803 -0.027982838 0.473736107 -0.844580471 0 0 0 0
134133300 -0.006077735 -0.027298863 0.453561544 -0.860676586 0 0 0 0
137113000 -0.008324685 -0.026248661 0.431438207 -0.875152528 0 0 0 0
140092600 -0.0105107 -0.025036355 0.408935487 -0.889336347 0 0 0 0
143072200 -0.012658257 -0.023624306 0.385899782 -0.904005169 0 0 0 0
146051900 -0.014688652 -0.021907184 0.361682534 -0.917153894 0 0 0 0
149031500 -0.01661117 -0.020004376 0.336396962 -0.929403543 0 0 0 0
152011100 -0.018422318 -0.017941564 0.310957551 -0.942591607 0 0 0 0
154990800 -0.020013945 -0.015736788 0.284168392 -0.953165948 0 0 0 0
157970400 -0.021265631 -0.013255811 0.256162524 -0.962467908 0 0 0 0
160950000 -0.02247058 -0.01060571 0.228218838 -0.972721517 0 0 0 0
163929700 -0.023390982 -0.008092965 0.199471086 -0.980043411 0 0 0 0
166909300 -0.024133797 -0.005403846 0.170155495 -0.986167192 0 0 0 0
169888900 -0.02443991 -0.002642183 0.140566289 -0.992050826 0 0 0 0
172868500 -0.02458143 0.000186172 0.11011368 -0.995862483 0 0 0 0
175848200 -0.024220809 0.00318454 0.079112321 -0.997462868 0 0 0 0
178827800 -0.023703569 0.006184363 0.048167258 -0.999099373 0 0 0 0
181807400 -0.022995198 0.008982954 0.017246365 -0.998749136 0 0 0 0
184787100 -0.021911801 0.011624085 -0.013323307 -0.99601531 0 0 0 0
187766700 -0.020734451 0.01417315 -0.043655455 -0.99410063 0 0 0 0
190746300 -0.019196268 0.016508927 -0.073556542 -0.989338517 0 0 0 0
193726000 -0.017460782 0.018706675 -0.102928608 -0.982867956 0 0 0 0
196705600 -0.015495087 0.020600704 -0.131877243 -0.976334393 0 0 0 0
199685200 -0.013329887 0.022272568 -0.159629583 -0.968057096 0 0 0 0
202664900 -0.010825781 0.023898508 -0.187335729 -0.957786321 0 0 0 0
205644500 -0.008443021 0.025106696 -0.213613599 -0.948592185 0 0 0 0
208624100 -0.005944026 0.026025207 -0.239541739 -0.937879443 0 0 0 0
211603800 -0.003423599 0.026721067 -0.26443696 -0.92544794 0 0 0 0
214583400 -0.00081882 0.027235481 -0.288408488 -0.91379559 0 0 0 0
217563000 0.001788498 0.027195384 -0.311377942 -0.900899052 0 0 0 0
220542600 0.004244031 0.02728131 -0.33391112 -0.887419283 0 0 0 0
223522300 0.006575534 0.026768328 -0.355708926 -0.874683678 0 0 0 0
226501900 0.008914133 0.026181779 -0.376311421 -0.861084997 0 0 0 0
229481500 0.011330186 0.025213843 -0.395928472 -0.845929324 0 0 0 0
232461200 0.013361644 0.024069426 -0.415483117 -0.832447588 0 0 0 0
235440800 0.015302987 0.022999545 -0.434382379 -0.818265497 0 0 0 0
238420400 0.016820922 0.021487638 -0.45242393 -0.803965747 0 0 0 0
241400100 0.018321646 0.019785683 -0.470219969 -0.790565133 0 0 0 0
244379700 0.019702985 0.018136158 -0.488073617 -0.776413023 0 0 0 0
247359300 0.020583132 0.016433613 -0.504738926 -0.762062966 0 0 0 0
250339000 0.021792585 0.014527712 -0.521627128 -0.747952878 0 0 0 0
253318600 0.022375568 0.012610953 -0.53830862 -0.734433352 0 0 0 0
256298200 0.022968985 0.010677956 -0.554508805 -0.719092667 0 0 0 0
259277800 0.023369755 0.00874944 -0.570822119 -0.70528835 0 0 0 0
262257500 0.023274833 0.006713249 -0.587683677 -0.691257655 0 0 0 0
265237100 0.023183166 0.005015689 -0.60344237 -0.675792574 0 0 0 0
268216700 0.022853843 0.002930644 -0.620047271 -0.66121757 0 0 0 0
271196400 0.022214118 0.00114557 -0.636591911 -0.646580219 0 0 0 0
274176000 0.021282155 -0.000819309 -0.652801752 -0.630706965 0 0 0 0
277155600 0.019959606 -0.002549257 -0.670408248 -0.615678548 0 0 0 0
280135300 0.018779315 -0.003975601 -0.687370955 -0.59966886 0 0 0 0
283114900 0.017378428 -0.005478767 -0.703641533 -0.58188194 0 0 0 0
286094500 0.015747522 -0.006535 -0.721009552 -0.564413309 0 0 0 0
289074200 0.014073409 -0.0077525 -0.738107144 -0.546673655 0 0 0 0
292053800 0.012294896 -0.008347125 -0.75430423 -0.526842534 0 0 0 0
295033400 0.010251375 -0.008670579 -0.771587252 -0.506777822 0 0 0 0
298013100 0.008892619 -0.008229706 -0.792208135 -0.491862356 0 0 0 0
300993344 0.016712462 -0.011935156 -0.769563317 -0.432334035 0 0 0 0
303973444 0.011221723 -0.003757908 -0.806279778 -0.421855717 0 0 0 0
306953544 0.006769225 -0.002188278 -0.833498179 -0.409817576 0 0 0 0
309933644 0.001595016 -0.003940101 -0.847163677 -0.38704282 0 0 0 0
312913844 -0.002921044 -0.006546195 -0.861724495 -0.364652633 0 0 0 0
315893944 -0.006210982 -0.006701823 -0.874926686 -0.33880186 0 0 0 0
318874044 -0.008219554 -0.003430184 -0.885634064 -0.308956086 0 0 0 0
321854244 -0.00897307 -0.000400715 -0.897256851 -0.278827875 0 0 0 0
324834344 -0.010145908 0.003792587 -0.906883955 -0.248328804 0 0 0 0
327814444 -0.009880988 0.0067316 -0.913493871 -0.218346506 0 0 0 0
330794644 -0.010077592 0.010170649 -0.919282317 -0.186791598 0 0 0 0
333774744 -0.009366323 0.012785742 -0.924849987 -0.15629521 0 0 0 0
336754844 -0.008534908 0.01604495 -0.927087485 -0.123902559 0 0 0 0
339735044 -0.007302877 0.018936423 -0.928919911 -0.090478718 0 0 0 0
342715144 -0.005599029 0.021421682 -0.930386364 -0.057468086 0 0 0 0
345695244 -0.002524703 0.02411683 -0.924749493 -0.023563295 0 0 0 0
348675344 -0.000375299 0.026431633 -0.922716796 0.006683677 0 0 0 0
351655544 0.003009853 0.027892656 -0.921696126 0.040766924 0 0 0 0
354635644 0.006344206 0.028639724 -0.916070699 0.071252122 0 0 0 0
357615744 0.009635766 0.029111951 -0.909810602 0.102496713 0 0 0 0
360595944 0.013285334 0.029126891 -0.902972221 0.131504297 0 0 0 0
363576044 0.017368447 0.028893625 -0.890933215 0.163888603 0 0 0 0
366556144 0.021398302 0.028762144 -0.880900442 0.193619281 0 0 0 0
369536344 0.024969253 0.026831779 -0.871767282 0.218019664 0 0 0 0
372516444 0.028012111 0.024546967 -0.859591841 0.243784338 0 0 0 0
375496544 0.031087519 0.020807696 -0.850082159 0.269172012 0 0 0 0
378476744 0.033944416 0.018671737 -0.83801645 0.297302216 0 0 0 0
381456844 0.035815473 0.014963014 -0.826244711 0.320890307 0 0 0 0
384436944 0.03819555 0.011072983 -0.81061834 0.343873232 0 0 0 0
387417044 0.0390633 0.006412413 -0.799592494 0.368017286 0 0 0 0
390397244 0.040263511 0.001431896 -0.785056591 0.389228463 0 0 0 0
393377344 0.041019547 -0.004140336 -0.775114536 0.41127783 0 0 0 0
396357444 0.040339205 -0.009532075 -0.761392891 0.435033947 0 0 0 0
399337644 0.039817817 -0.015233433 -0.747118294 0.454141348 0 0 0 0
402317744 0.037819113 -0.020861906 -0.732160329 0.474409729 0 0 0 0
405297844 0.034614544 -0.026582648 -0.719977974 0.497360318 0 0 0 0
408278044 0.032543908 -0.031763207 -0.703893125 0.518765747 0 0 0 0
411258144 0.028781097 -0.036991171 -0.687624096 0.542443871 0 0 0 0
414238244 0.024170776 -0.042138841 -0.672683715 0.566598415 0 0 0 0
417218444 0.018660493 -0.046966567 -0.655197262 0.589232206 0 0 0 0
420198544 0.012409763 -0.051707904 -0.637091755 0.613335609 0 0 0 0
423178644 0.004897878 -0.055175729 -0.619502961 0.639729857 0 0 0 0
426158844 -0.002900359 -0.059825547 -0.60057199 0.663671433 0 0 0 0
429138944 -0.011768856 -0.062414854 -0.579371213 0.689252614 0 0 0 0
432119044 -0.021429419 -0.064447239 -0.558401167 0.716412723 0 0 0 0
435099144 -0.031088534 -0.063656881 -0.530714094 0.742238044 0 0 0 0
438079344 -0.040244136 -0.063677623 -0.503199338 0.766634643 0 0 0 0
441059444 -0.051211141 -0.062664672 -0.474292874 0.792853653 0 0 0 0
444039544 -0.062352664 -0.059210401 -0.441755354 0.818371295 0 0 0 0
447019744 -0.073411792 -0.054334469 -0.406280636 0.844106495 0 0 0 0
449999844 -0.08386489 -0.049365036 -0.371056437 0.868094682 0 0 0 0
452979944 -0.094185635 -0.042141094 -0.330307215 0.887860536 0 0 0 0
455960144 -0.104825638 -0.032980646 -0.288523972 0.908686637 0 0 0 0
458940244 -0.113126993 -0.022514507 -0.241340398 0.926354289 0 0 0 0
461920344 -0.121387086 -0.0115794 -0.193188339 0.93947184 0 0 0 0
464900544 -0.129331901 0.000146184 -0.14451608 0.951457262 0 0 0 0
467880644 -0.13301061 0.012700736 -0.092854052 0.956737756 0 0 0 0
470860744 -0.13729465 0.02698685 -0.039985835 0.960241258 0 0 0 0
473840844 -0.13814865 0.041717186 0.014690995 0.956761479 0 0 0 0
476821044 -0.139092177 0.056369438 0.069886147 0.952944993 0 0 0 0
479801144 -0.137114852 0.070135079 0.122989803 0.94078809 0 0 0 0
482781244 -0.133829057 0.083609871 0.176040783 0.925080835 0 0 0 0
485761444 -0.129597365 0.096444144 0.227661266 0.907416582 0 0 0 0
488741544 -0.122908562 0.108605667 0.277170121 0.881921172 0 0 0 0
491721644 -0.114952914 0.118825167 0.324539035 0.854110896 0 0 0 0
494701844 -0.107461221 0.1287705 0.37130934 0.826984286 0 0 0 0
497681944 -0.098259352 0.137065052 0.413736104 0.79275906 0 0 0 0
500662044 -0.09097772 0.143793836 0.454084396 0.76018399 0 0 0 0
503642244 -0.080380573 0.149664044 0.492466151 0.720907866 0 0 0 0
506622344 -0.073081389 0.153816401 0.526337742 0.682936549 0 0 0 0
509602444 -0.064406372 0.156533941 0.556782364 0.641064822 0 0 0 0
512582644 -0.057266332 0.15926066 0.590177237 0.599165737 0 0 0 0
515562744 -0.050937473 0.159542605 0.615401387 0.555342972 0 0 0 0
518542844 -0.043967273 0.159750565 0.641319215 0.509136557 0 0 0 0
521522944 -0.039689719 0.160577923 0.667411625 0.460884422 0 0 0 0
524503144 -0.035695914 0.161976531 0.688491344 0.412068873 0 0 0 0
527483244 -0.032021794 0.162243276 0.707269787 0.359550625 0 0 0 0
530463344 -0.030151486 0.16381067 0.725131988 0.308041602 0 0 0 0
533443544 -0.028949724 0.165346994 0.737329065 0.252496719 0 0 0 0
536423644 -0.026906438 0.168991595 0.74610722 0.194373548 0 0 0 0
539403744 -0.027744954 0.172901093 0.753116726 0.135178729 0 0 0 0
542383944 -0.026799084 0.177999034 0.75186479 0.072625912 0 0 0 0
545364044 -0.026354523 0.185468077 0.745462715 0.008716166 0 0 0 0
548344144 -0.024635152 0.193031206 0.73261547 -0.055602997 0 0 0 0
551324344 -0.020947473 0.203400552 0.710097193 -0.119730144 0 0 0 0
554304444 -0.016770549 0.212785676 0.679942965 -0.179581403 0 0 0 0
557284544 -0.010559248 0.222682788 0.644852161 -0.237979292 0 0 0 0
560264644 -0.002464301 0.233583122 0.598383545 -0.289214164 0 0 0 0
563244844 0.009098568 0.243836998 0.547808706 -0.334526181 0 0 0 0
566224944 0.020352853 0.252796709 0.491858571 -0.370816111 0 0 0 0
569205044 0.03362045 0.261509269 0.431992828 -0.400258272 0 0 0 0
572185244 0.048128072 0.268174856 0.370797693 -0.419711709 0 0 0 0
575165344 0.06457486 0.272599041 0.30749157 -0.429126024 0 0 0 0
578145444 0.080263055 0.277122944 0.249360233 -0.432303994 0 0 0 0
581125644 0.097589239 0.277225553 0.191203877 -0.426857084 0 0 0 0
584105744 0.113428793 0.276401668 0.138446658 -0.413011282 0 0 0 0
587085844 0.130243092 0.274866402 0.08790744 -0.392637968 0 0 0 0
590066044 0.145348101 0.270161896 0.045162215 -0.367522567 0 0 0 0
593046144 0.159383982 0.266812354 0.007012888 -0.339794993 0 0 0 0
596026244 0.17398855 0.260537415 -0.024315789 -0.305891871 0 0 0 0
599006444 0.187126636 0.253444075 -0.047897934 -0.27015677 0 0 0 0
601986688 0.200529724 0.247002422 -0.063302405 -0.231437861 0 0 0 0
604966788 0.212026298 0.238435357 -0.072015359 -0.195962995 0 0 0 0
607946888 0.222944572 0.230594545 -0.077634237 -0.16304481 0 0 0 0
610926988 0.232664525 0.22236976 -0.077334918 -0.134539768 0 0 0 0
613907188 0.243207544 0.212916627 -0.073758766 -0.10880158 0 0 0 0
616887288 0.251375168 0.204441964 -0.067494235 -0.087360039 0 0 0 0
619867388 0.25834605 0.194867193 -0.059576038 -0.070227086 0 0 0 0
622847588 0.265526652 0.18350546 -0.049706406 -0.0562702 0 0 0 0
625827688 0.271833807 0.173801109 -0.039708573 -0.045437324 0 0 0 0
628807788 0.277044475 0.163302004 -0.030664492 -0.037912432 0 0 0 0
631787988 0.281026005 0.153297856 -0.022200742 -0.031726662 0 0 0 0
634768088 0.286006927 0.143450632 -0.01429082 -0.028222674 0 0 0 0
637748188 0.28927958 0.13563697 -0.006955269 -0.025173172 0 0 0 0
640728388 0.290791302 0.126469805 -0.00141769 -0.023506237 0 0 0 0
643708488 0.294535368 0.117225587 0.003471974 -0.022448489 0 0 0 0
646688588 0.296825081 0.107945561 0.007378118 -0.021734399 0 0 0 0
649668688 0.297848492 0.099093444 0.01171102 -0.021846452 0 0 0 0
652648888 0.300188302 0.091960564 0.014429164 -0.021433986 0 0 0 0
655628988 0.301146745 0.083548896 0.01736553 -0.021850291 0 0 0 0
658609088 0.30388996 0.076823577 0.019356586 -0.021866472 0 0 0 0
661589288 0.304921329 0.068413183 0.021261427 -0.022044505 0 0 0 0
664569388 0.306348413 0.061120569 0.022858031 -0.02330376 0 0 0 0
667549488 0.307044535 0.053675215 0.0243446 -0.023366587 0 0 0 0
670529688 0.306694358 0.046495057 0.024763019 -0.023994892 0 0 0 0
673509788 0.309067696 0.04081713 0.025447687 -0.023952143 0 0 0 0
676489888 0.309469789 0.034937333 0.025189949 -0.023900814 0 0 0 0
679470088 0.310364246 0.028295796 0.026359099 -0.02434846 0 0 0 0
682450188 0.31031835 0.021048586 0.026052538 -0.024618508 0 0 0 0
685430288 0.310275733 0.014499633 0.026631023 -0.0250179 0 0 0 0
688410388 0.312075436 0.008896111 0.02637504 -0.025118824 0 0 0 0
691390588 0.311234712 0.002724043 0.026277901 -0.024800335 0 0 0 0
694370688 0.310072332 -0.004176377 0.025833662 -0.025232402 0 0 0 0
697350788 0.310989022 -0.010367983 0.025267381 -0.025145653 0 0 0 0
700330988 0.309393972 -0.016346625 0.024923531 -0.025266226 0 0 0 0
703311088 0.310353189 -0.022700266 0.024298135 -0.024830903 0 0 0 0
706291188 0.309406638 -0.028492003 0.023494835 -0.025140674 0 0 0 0
709271388 0.307248234 -0.034807235 0.022949771 -0.025373807 0 0 0 0
712251488 0.307009905 -0.040671873 0.021904304 -0.024782683 0 0 0 0
715231588 0.305693954 -0.046441696 0.020552588 -0.024595888 0 0 0 0
718211788 0.306393057 -0.051410105 0.019155427 -0.02445621 0 0 0 0
721191888 0.305599421 -0.056133035 0.018210129 -0.024027703 0 0 0 0
724171988 0.304491937 -0.061979494 0.017527319 -0.023705311 0 0 0 0
727152188 0.303231179 -0.067938424 0.015777926 -0.02288042 0 0 0 0
730132288 0.301053643 -0.072802729 0.014319015 -0.022230101 0 0 0 0
733112388 0.30026111 -0.079072467 0.013342218 -0.02100096 0 0 0 0
736092488 0.298623025 -0.083340145 0.010420078 -0.020109191 0 0 0 0
739072688 0.298909753 -0.088557228 0.008782168 -0.019712485 0 0 0 0
742052788 0.29639402 -0.092836484 0.007821816 -0.018430927 0 0 0 0
745032888 0.298790156 -0.097131721 0.005391942 -0.01725973 0 0 0 0
748013088 0.297107964 -0.102847546 0.003324543 -0.015713684 0 0 0 0
750993188 0.296168535 -0.107726357 0.001012505 -0.014946158 0 0 0 0
753973288 0.293115019 -0.112185053 -0.001184842 -0.013116474 0 0 0 0
756953488 0.292630612 -0.118178933 -0.002785386 -0.01160208 0 0 0 0
759933588 0.289286643 -0.121955312 -0.005319727 -0.010121752 0 0 0 0
762913688 0.289157599 -0.12650372 -0.007900855 -0.008874751 0 0 0 0
765893888 0.288451164 -0.132582962 -0.009373776 -0.007048471 0 0 0 0
768873988 0.286129772 -0.138110145 -0.012217047 -0.005782849 0 0 0 0
771854088 0.286554425 -0.142305999 -0.015081203 -0.004001996 0 0 0 0
774834188 0.283932894 -0.148008257 -0.01719281 -0.002724115 0 0 0 0
777814388 0.284154295 -0.15272057 -0.020025195 -0.000832008 0 0 0 0
780794488 0.28268516 -0.156641602 -0.022955281 0.000624763 0 0 0 0
783774588 0.280732959 -0.160956218 -0.026170412 0.003535191 0 0 0 0
786754788 0.278247445 -0.167036086 -0.029370125 0.003929895 0 0 0 0
789734888 0.275446921 -0.170816898 -0.033126432 0.005756321 0 0 0 0
792714988 0.272930562 -0.176066368 -0.036106809 0.008019103 0 0 0 0
795695188 0.271010726 -0.180500596 -0.040588092 0.010184074 0 0 0 0
798675288 0.269720613 -0.185415387 -0.043728925 0.01157637 0 0 0 0
801655388 0.269462794 -0.189642995 -0.04767467 0.013306256 0 0 0 0
804635588 0.266304194 -0.193687662 -0.051016233 0.014147147 0 0 0 0
807615688 0.26580131 -0.198432251 -0.05544386 0.016908308 0 0 0 0
810595788 0.262930542 -0.202381998 -0.059932593 0.017834005 0 0 0 0
813575988 0.262762337 -0.205612644 -0.062980525 0.020656755 0 0 0 0
816556088 0.259906977 -0.210405752 -0.067145228 0.022149436 0 0 0 0
819536188 0.257081419 -0.215313091 -0.07147105 0.024175787 0 0 0 0
822516288 0.255619108 -0.218966484 -0.074225552 0.026966184 0 0 0 0
825496488 0.252718329 -0.222015097 -0.077908396 0.028594085 0 0 0 0
828476588 0.251247286 -0.227282136 -0.082224383 0.031475316 0 0 0 0
831456688 0.247229769 -0.230954661 -0.084757834 0.033343002 0 0 0 0
834436888 0.244829803 -0.234967529 -0.088458031 0.035939637 0 0 0 0
837416988 0.244130432 -0.242116436 -0.091532863 0.037647016 0 0 0 0
840397088 0.24267888 -0.245355144 -0.09354484 0.039184018 0 0 0 0
843377288 0.238249227 -0.250815451 -0.095704078 0.041344247 0 0 0 0
846357388 0.235897868 -0.253775507 -0.099585823 0.04348094 0 0 0 0
849337488 0.234116226 -0.25772503 -0.100758448 0.044476959 0 0 0 0
852317688 0.231594517 -0.259310901 -0.101965107 0.046376775 0 0 0 0
855297788 0.229360222 -0.262926518 -0.103257708 0.046065207 0 0 0 0
858277888 0.225805401 -0.266966074 -0.104192122 0.047473266 0 0 0 0
861257988 0.222481623 -0.27007693 -0.104752607 0.048279978 0 0 0 0
864238188 0.222745761 -0.273735105 -0.10491912 0.048515297 0 0 0 0
867218288 0.219334647 -0.281678646 -0.104554452 0.047281265 0 0 0 0
870198388 0.215308189 -0.284191995 -0.10513392 0.047732196 0 0 0 0
873178588 0.212053954 -0.289955884 -0.106167316 0.045243188 0 0 0 0
876158688 0.210597261 -0.295172244 -0.10491579 0.044938787 0 0 0 0
879138788 0.208248615 -0.297879129 -0.105238445 0.043475143 0 0 0 0
