!Created with skrf (http://scikit-rf.org).
# Hz S RI R 50.0 
!freq ReS11 ImS11 ReS21 ImS21 ReS12 ImS12 ReS22 ImS22
25000000.0 0.0 0.0 -0.0005191364878413975 -0.01679935995205062 0.0 0.0 -0.0005191364878413975 -0.01679935995205062
30000000.0 0.0 0.0 0.001274685637922523 -0.016566018294886325 0.0 0.0 0.001274685637922523 -0.016566018294886325
35000000.0 0.0 0.0 0.0006319608301295569 -0.016912079189142885 0.0 0.0 0.0006319608301295569 -0.016912079189142885
40000000.0 0.0 0.0 0.00037043576222442373 -0.016842050949638556 0.0 0.0 0.00037043576222442373 -0.016842050949638556
45000000.0 0.0 0.0 0.00034438644378947855 -0.01715586084570547 0.0 0.0 0.00034438644378947855 -0.01715586084570547
50000000.0 0.0 0.0 0.0014040522513187727 -0.016478941407330687 0.0 0.0 0.0014040522513187727 -0.016478941407330687
55000000.0 0.0 0.0 0.00276483540975531 -0.01731950826758757 0.0 0.0 0.00276483540975531 -0.01731950826758757
60000000.0 0.0 0.0 0.001686821682396395 -0.018826244202275882 0.0 0.0 0.001686821682396395 -0.018826244202275882
65000000.0 0.0 0.0 -0.0007531330143135209 -0.018670112644045223 0.0 0.0 -0.0007531330143135209 -0.018670112644045223
70000000.0 0.0 0.0 0.0019154404075956096 -0.016504207756417283 0.0 0.0 0.0019154404075956096 -0.016504207756417283
75000000.0 0.0 0.0 0.004319266005967788 -0.020639166859124897 0.0 0.0 0.004319266005967788 -0.020639166859124897
80000000.0 0.0 0.0 0.0015915686483798945 -0.016868460731197826 0.0 0.0 0.0015915686483798945 -0.016868460731197826
85000000.0 0.0 0.0 0.0023057753839045075 -0.017777779775410982 0.0 0.0 0.0023057753839045075 -0.017777779775410982
90000000.0 0.0 0.0 0.0020640923677510865 -0.015806226407726862 0.0 0.0 0.0020640923677510865 -0.015806226407726862
95000000.0 0.0 0.0 0.0004850232592425679 -0.016342135518478764 0.0 0.0 0.0004850232592425679 -0.016342135518478764
100000000.0 0.0 0.0 0.00291136807005575 -0.017605217639474736 0.0 0.0 0.00291136807005575 -0.017605217639474736
105000000.0 0.0 0.0 -0.000750102372557755 -0.02334941557131471 0.0 0.0 -0.000750102372557755 -0.02334941557131471
110000000.0 0.0 0.0 -0.0021952853316836727 -0.022592241298601844 0.0 0.0 -0.0021952853316836727 -0.022592241298601844
115000000.0 0.0 0.0 -0.008182020003941897 -0.047270459761500135 0.0 0.0 -0.008182020003941897 -0.047270459761500135
120000000.0 0.0 0.0 0.0017936912148227306 -0.020338437877482213 0.0 0.0 0.0017936912148227306 -0.020338437877482213
125000000.0 0.0 0.0 0.007407766512412354 -0.016851384258771872 0.0 0.0 0.007407766512412354 -0.016851384258771872
130000000.0 0.0 0.0 0.002369470023576277 -0.018599625059007825 0.0 0.0 0.002369470023576277 -0.018599625059007825
135000000.0 0.0 0.0 0.00036193489423534214 -0.017135751174911708 0.0 0.0 0.00036193489423534214 -0.017135751174911708
140000000.0 0.0 0.0 0.0003844815404288128 -0.016194876605998373 0.0 0.0 0.0003844815404288128 -0.016194876605998373
145000000.0 0.0 0.0 0.0009282708273494769 -0.01585832243710379 0.0 0.0 0.0009282708273494769 -0.01585832243710379
150000000.0 0.0 0.0 0.0020487276756911174 -0.01575280267631493 0.0 0.0 0.0020487276756911174 -0.01575280267631493
155000000.0 0.0 0.0 0.0033447808982056196 -0.015641963733290118 0.0 0.0 0.0033447808982056196 -0.015641963733290118
160000000.0 0.0 0.0 0.00603142605607939 -0.015256978079644016 0.0 0.0 0.00603142605607939 -0.015256978079644016
165000000.0 0.0 0.0 0.006977860502269891 -0.016025029614088495 0.0 0.0 0.006977860502269891 -0.016025029614088495
170000000.0 0.0 0.0 0.00512499955890989 -0.023804615184900024 0.0 0.0 0.00512499955890989 -0.023804615184900024
175000000.0 0.0 0.0 -0.0018947361117955357 -0.05536634323718532 0.0 0.0 -0.0018947361117955357 -0.05536634323718532
180000000.0 0.0 0.0 -0.010526865748451176 -0.06400352631971556 0.0 0.0 -0.010526865748451176 -0.06400352631971556
185000000.0 0.0 0.0 -0.002918119512630888 -0.031818611883890895 0.0 0.0 -0.002918119512630888 -0.031818611883890895
190000000.0 0.0 0.0 -0.026522814673292774 -0.059767626381863496 0.0 0.0 -0.026522814673292774 -0.059767626381863496
195000000.0 0.0 0.0 -0.025042641117609576 -0.061303940359527215 0.0 0.0 -0.025042641117609576 -0.061303940359527215
200000000.0 0.0 0.0 -0.008951368159385516 -0.035795498188195246 0.0 0.0 -0.008951368159385516 -0.035795498188195246
205000000.0 0.0 0.0 -0.0014364500152869227 -0.020039511079893827 0.0 0.0 -0.0014364500152869227 -0.020039511079893827
210000000.0 0.0 0.0 -0.0019257195227934869 -0.016197657555937307 0.0 0.0 -0.0019257195227934869 -0.016197657555937307
215000000.0 0.0 0.0 -0.0017913330806423042 -0.015894958775811943 0.0 0.0 -0.0017913330806423042 -0.015894958775811943
220000000.0 0.0 0.0 0.0009325555308100746 -0.015931521127640628 0.0 0.0 0.0009325555308100746 -0.015931521127640628
225000000.0 0.0 0.0 0.0012384223878615095 -0.016021620674972398 0.0 0.0 0.0012384223878615095 -0.016021620674972398
230000000.0 0.0 0.0 0.0010749380062064853 -0.016014887573226055 0.0 0.0 0.0010749380062064853 -0.016014887573226055
235000000.0 0.0 0.0 0.0007517620238785375 -0.015941075218377156 0.0 0.0 0.0007517620238785375 -0.015941075218377156
240000000.0 0.0 0.0 0.0005479715621023253 -0.015931007429602732 0.0 0.0 0.0005479715621023253 -0.015931007429602732
245000000.0 0.0 0.0 0.0004177524594282827 -0.01595332279310946 0.0 0.0 0.0004177524594282827 -0.01595332279310946
250000000.0 0.0 0.0 -0.0002704757637566276 -0.01597488569997748 0.0 0.0 -0.0002704757637566276 -0.01597488569997748
255000000.0 0.0 0.0 -0.0013424930159482143 -0.015920673439533108 0.0 0.0 -0.0013424930159482143 -0.015920673439533108
260000000.0 0.0 0.0 -0.002095789281069353 -0.015876273836802093 0.0 0.0 -0.002095789281069353 -0.015876273836802093
265000000.0 0.0 0.0 -0.0019208853906659868 -0.016085150097352834 0.0 0.0 -0.0019208853906659868 -0.016085150097352834
270000000.0 0.0 0.0 -0.0016253798700212015 -0.016458584778431012 0.0 0.0 -0.0016253798700212015 -0.016458584778431012
275000000.0 0.0 0.0 -0.0012889742561563884 -0.016488341881391144 0.0 0.0 -0.0012889742561563884 -0.016488341881391144
280000000.0 0.0 0.0 -0.0004078140523245394 -0.016686695435636858 0.0 0.0 -0.0004078140523245394 -0.016686695435636858
285000000.0 0.0 0.0 0.00184033021349846 -0.016803935224904306 0.0 0.0 0.00184033021349846 -0.016803935224904306
290000000.0 0.0 0.0 0.00533801244458893 -0.0163703623079591 0.0 0.0 0.00533801244458893 -0.0163703623079591
295000000.0 0.0 0.0 0.008205211967580013 -0.015296244604009634 0.0 0.0 0.008205211967580013 -0.015296244604009634
300000000.0 0.0 0.0 0.009976909959989701 -0.014033688275100476 0.0 0.0 0.009976909959989701 -0.014033688275100476
305000000.0 0.0 0.0 0.010932088339964782 -0.013200545811570031 0.0 0.0 0.010932088339964782 -0.013200545811570031
310000000.0 0.0 0.0 0.011362711178966596 -0.01272637051441015 0.0 0.0 0.011362711178966596 -0.01272637051441015
315000000.0 0.0 0.0 0.011947279642931491 -0.012234285713433709 0.0 0.0 0.011947279642931491 -0.012234285713433709
320000000.0 0.0 0.0 0.012608601391217162 -0.011638957613861847 0.0 0.0 0.012608601391217162 -0.011638957613861847
325000000.0 0.0 0.0 0.013226217839160052 -0.011117797603971769 0.0 0.0 0.013226217839160052 -0.011117797603971769
330000000.0 0.0 0.0 0.013947794257198597 -0.010533335021749253 0.0 0.0 0.013947794257198597 -0.010533335021749253
335000000.0 0.0 0.0 0.014756474539380894 -0.009923418019283547 0.0 0.0 0.014756474539380894 -0.009923418019283547
340000000.0 0.0 0.0 0.015889827717700478 -0.009081784750786887 0.0 0.0 0.015889827717700478 -0.009081784750786887
345000000.0 0.0 0.0 0.017372023372834177 -0.008145046198532842 0.0 0.0 0.017372023372834177 -0.008145046198532842
350000000.0 0.0 0.0 0.019506215402516857 -0.007417508635396587 0.0 0.0 0.019506215402516857 -0.007417508635396587
355000000.0 0.0 0.0 0.023364144903859064 -0.006858721272327364 0.0 0.0 0.023364144903859064 -0.006858721272327364
360000000.0 0.0 0.0 0.031315105341430456 -0.006160808835634399 0.0 0.0 0.031315105341430456 -0.006160808835634399
365000000.0 0.0 0.0 0.04940656643442808 -0.00691726184576201 0.0 0.0 0.04940656643442808 -0.00691726184576201
370000000.0 0.0 0.0 0.06089366801168126 -0.017864253114466797 0.0 0.0 0.06089366801168126 -0.017864253114466797
375000000.0 0.0 0.0 0.060648752399657516 -0.036991104444181216 0.0 0.0 0.060648752399657516 -0.036991104444181216
380000000.0 0.0 0.0 0.04583420457205788 -0.0504418322771313 0.0 0.0 0.04583420457205788 -0.0504418322771313
385000000.0 0.0 0.0 0.02953521714932192 -0.05016086631363566 0.0 0.0 0.02953521714932192 -0.05016086631363566
390000000.0 0.0 0.0 0.016243968257833898 -0.038028263309396224 0.0 0.0 0.016243968257833898 -0.038028263309396224
395000000.0 0.0 0.0 0.010729117940436027 -0.030214273553184883 0.0 0.0 0.010729117940436027 -0.030214273553184883
400000000.0 0.0 0.0 0.009556302398633542 -0.024472778516263997 0.0 0.0 0.009556302398633542 -0.024472778516263997
405000000.0 0.0 0.0 0.00838393451662517 -0.01969394649976166 0.0 0.0 0.00838393451662517 -0.01969394649976166
410000000.0 0.0 0.0 0.00864980964203411 -0.018365138503531733 0.0 0.0 0.00864980964203411 -0.018365138503531733
415000000.0 0.0 0.0 0.009073885085149629 -0.017334628717636892 0.0 0.0 0.009073885085149629 -0.017334628717636892
420000000.0 0.0 0.0 0.0098194448629351 -0.016355229705234484 0.0 0.0 0.0098194448629351 -0.016355229705234484
425000000.0 0.0 0.0 0.010743697723359561 -0.015498525020080579 0.0 0.0 0.010743697723359561 -0.015498525020080579
430000000.0 0.0 0.0 0.011584646204914062 -0.014907954444967118 0.0 0.0 0.011584646204914062 -0.014907954444967118
435000000.0 0.0 0.0 0.01223608425966066 -0.014864688485570779 0.0 0.0 0.01223608425966066 -0.014864688485570779
440000000.0 0.0 0.0 0.012817081330838663 -0.015231561325553804 0.0 0.0 0.012817081330838663 -0.015231561325553804
445000000.0 0.0 0.0 0.01352586007462374 -0.015797624513727 0.0 0.0 0.01352586007462374 -0.015797624513727
450000000.0 0.0 0.0 0.014487287018063559 -0.016595391378884928 0.0 0.0 0.014487287018063559 -0.016595391378884928
455000000.0 0.0 0.0 0.015822608367588656 -0.01784651213233989 0.0 0.0 0.015822608367588656 -0.01784651213233989
460000000.0 0.0 0.0 0.01756730633891171 -0.019779578964100968 0.0 0.0 0.01756730633891171 -0.019779578964100968
465000000.0 0.0 0.0 0.020287676657807546 -0.021386224657815433 0.0 0.0 0.020287676657807546 -0.021386224657815433
470000000.0 0.0 0.0 0.024428268713785544 -0.021506125007178186 0.0 0.0 0.024428268713785544 -0.021506125007178186
475000000.0 0.0 0.0 0.030177415114314914 -0.02196543693996596 0.0 0.0 0.030177415114314914 -0.02196543693996596
480000000.0 0.0 0.0 0.0380849807456405 -0.023439200311378736 0.0 0.0 0.0380849807456405 -0.023439200311378736
485000000.0 0.0 0.0 0.048452842343844636 -0.02685784907980708 0.0 0.0 0.048452842343844636 -0.02685784907980708
490000000.0 0.0 0.0 0.05577687941519628 -0.029184243441573866 0.0 0.0 0.05577687941519628 -0.029184243441573866
495000000.0 0.0 0.0 0.06416006181891909 -0.032367424366377864 0.0 0.0 0.06416006181891909 -0.032367424366377864
500000000.0 0.0 0.0 0.0731845652214799 -0.037273310697094914 0.0 0.0 0.0731845652214799 -0.037273310697094914
505000000.0 0.0 0.0 0.0825108292013641 -0.047426670487029955 0.0 0.0 0.0825108292013641 -0.047426670487029955
510000000.0 0.0 0.0 0.08949671137390591 -0.06400249986336938 0.0 0.0 0.08949671137390591 -0.06400249986336938
515000000.0 0.0 0.0 0.08932970102576804 -0.0880910503928128 0.0 0.0 0.08932970102576804 -0.0880910503928128
520000000.0 0.0 0.0 0.0767987431410109 -0.11033446565815372 0.0 0.0 0.0767987431410109 -0.11033446565815372
525000000.0 0.0 0.0 0.06154891342440163 -0.13961605864987595 0.0 0.0 0.06154891342440163 -0.13961605864987595
530000000.0 0.0 0.0 0.039957985996368 -0.16707917770260278 0.0 0.0 0.039957985996368 -0.16707917770260278
535000000.0 0.0 0.0 0.0049469157648505055 -0.17491472882899897 0.0 0.0 0.0049469157648505055 -0.17491472882899897
540000000.0 0.0 0.0 -0.025935286277511738 -0.16066226162907865 0.0 0.0 -0.025935286277511738 -0.16066226162907865
545000000.0 0.0 0.0 -0.04748804129604341 -0.13652050117988015 0.0 0.0 -0.04748804129604341 -0.13652050117988015
550000000.0 0.0 0.0 -0.03968767238628204 -0.11585222058977931 0.0 0.0 -0.03968767238628204 -0.11585222058977931
555000000.0 0.0 0.0 -0.0011462554366186892 -0.10103504805536948 0.0 0.0 -0.0011462554366186892 -0.10103504805536948
560000000.0 0.0 0.0 0.03748409330207065 -0.07478878732366499 0.0 0.0 0.03748409330207065 -0.07478878732366499
565000000.0 0.0 0.0 0.03120515944172428 -0.1064374263703345 0.0 0.0 0.03120515944172428 -0.1064374263703345
570000000.0 0.0 0.0 -0.015969440610043174 -0.1708484512794597 0.0 0.0 -0.015969440610043174 -0.1708484512794597
575000000.0 0.0 0.0 -0.0692106287340591 -0.19108804009998212 0.0 0.0 -0.0692106287340591 -0.19108804009998212
580000000.0 0.0 0.0 -0.08316422769968951 -0.173888568171779 0.0 0.0 -0.08316422769968951 -0.173888568171779
585000000.0 0.0 0.0 -0.09334426288934553 -0.14445405238746406 0.0 0.0 -0.09334426288934553 -0.14445405238746406
590000000.0 0.0 0.0 -0.0837808229554422 -0.10910641544546588 0.0 0.0 -0.0837808229554422 -0.10910641544546588
595000000.0 0.0 0.0 0.08024815500999767 -0.0876676055548395 0.0 0.0 0.08024815500999767 -0.0876676055548395
600000000.0 0.0 0.0 0.058728972679559475 -0.09697306000864216 0.0 0.0 0.058728972679559475 -0.09697306000864216
605000000.0 0.0 0.0 0.033096145485610975 -0.09315050919642562 0.0 0.0 0.033096145485610975 -0.09315050919642562
610000000.0 0.0 0.0 0.010758353288485895 -0.08433241292967864 0.0 0.0 0.010758353288485895 -0.08433241292967864
615000000.0 0.0 0.0 -0.004019674549549731 -0.07100766744899342 0.0 0.0 -0.004019674549549731 -0.07100766744899342
620000000.0 0.0 0.0 -0.006865276369004398 -0.05607500187675388 0.0 0.0 -0.006865276369004398 -0.05607500187675388
625000000.0 0.0 0.0 0.0006141545431739344 -0.0322790991756338 0.0 0.0 0.0006141545431739344 -0.0322790991756338
630000000.0 0.0 0.0 0.005576976622453717 -0.020109928031650775 0.0 0.0 0.005576976622453717 -0.020109928031650775
635000000.0 0.0 0.0 0.008091697319072904 -0.017226939162637313 0.0 0.0 0.008091697319072904 -0.017226939162637313
640000000.0 0.0 0.0 0.00906993179140299 -0.01673258305570291 0.0 0.0 0.00906993179140299 -0.01673258305570291
645000000.0 0.0 0.0 0.009090739624646058 -0.0169968727174755 0.0 0.0 0.009090739624646058 -0.0169968727174755
650000000.0 0.0 0.0 0.008585787031645834 -0.01735676419418971 0.0 0.0 0.008585787031645834 -0.01735676419418971
655000000.0 0.0 0.0 0.007663486579638868 -0.017734743619218618 0.0 0.0 0.007663486579638868 -0.017734743619218618
660000000.0 0.0 0.0 0.006387763253909864 -0.01813903692019687 0.0 0.0 0.006387763253909864 -0.01813903692019687
665000000.0 0.0 0.0 0.004851112897218809 -0.01851767475430624 0.0 0.0 0.004851112897218809 -0.01851767475430624
670000000.0 0.0 0.0 0.0036153016308903304 -0.0186861604545819 0.0 0.0 0.0036153016308903304 -0.0186861604545819
675000000.0 0.0 0.0 0.0034582642372122632 -0.018604753305761796 0.0 0.0 0.0034582642372122632 -0.018604753305761796
680000000.0 0.0 0.0 0.004509748107879642 -0.01815509127026997 0.0 0.0 0.004509748107879642 -0.01815509127026997
685000000.0 0.0 0.0 0.005707692362008753 -0.017278696981637774 0.0 0.0 0.005707692362008753 -0.017278696981637774
690000000.0 0.0 0.0 0.006408994281271643 -0.016412822765004897 0.0 0.0 0.006408994281271643 -0.016412822765004897
695000000.0 0.0 0.0 0.00667650604578003 -0.015828619323469163 0.0 0.0 0.00667650604578003 -0.015828619323469163
700000000.0 0.0 0.0 0.006669741384986198 -0.015554174579451662 0.0 0.0 0.006669741384986198 -0.015554174579451662
705000000.0 0.0 0.0 0.006602738488534022 -0.015435094349516527 0.0 0.0 0.006602738488534022 -0.015435094349516527
710000000.0 0.0 0.0 0.006479026301548756 -0.015382923488297558 0.0 0.0 0.006479026301548756 -0.015382923488297558
715000000.0 0.0 0.0 0.006257291255343744 -0.015433026813006671 0.0 0.0 0.006257291255343744 -0.015433026813006671
720000000.0 0.0 0.0 0.006017103777440822 -0.015569411645739368 0.0 0.0 0.006017103777440822 -0.015569411645739368
725000000.0 0.0 0.0 0.006025763535409011 -0.015648650320562132 0.0 0.0 0.006025763535409011 -0.015648650320562132
730000000.0 0.0 0.0 0.00647319084466655 -0.01557382133688828 0.0 0.0 0.00647319084466655 -0.01557382133688828
735000000.0 0.0 0.0 0.007280586682431779 -0.015277789583256308 0.0 0.0 0.007280586682431779 -0.015277789583256308
740000000.0 0.0 0.0 0.008303150859079724 -0.014814210614272506 0.0 0.0 0.008303150859079724 -0.014814210614272506
745000000.0 0.0 0.0 0.009367574423127415 -0.014212069103311496 0.0 0.0 0.009367574423127415 -0.014212069103311496
750000000.0 0.0 0.0 0.010640423526433674 -0.013386434363281737 0.0 0.0 0.010640423526433674 -0.013386434363281737
755000000.0 0.0 0.0 0.011811694442397947 -0.012446928849290552 0.0 0.0 0.011811694442397947 -0.012446928849290552
760000000.0 0.0 0.0 0.012885764665948174 -0.01148079752964578 0.0 0.0 0.012885764665948174 -0.01148079752964578
765000000.0 0.0 0.0 0.013951919100931465 -0.01049444864506289 0.0 0.0 0.013951919100931465 -0.01049444864506289
770000000.0 0.0 0.0 0.014947622837627269 -0.009633085565948312 0.0 0.0 0.014947622837627269 -0.009633085565948312
775000000.0 0.0 0.0 0.01617622699493874 -0.008561256880040611 0.0 0.0 0.01617622699493874 -0.008561256880040611
780000000.0 0.0 0.0 0.01741678534588358 -0.007620068953430023 0.0 0.0 0.01741678534588358 -0.007620068953430023
785000000.0 0.0 0.0 0.01919010670943991 -0.006833289626137041 0.0 0.0 0.01919010670943991 -0.006833289626137041
790000000.0 0.0 0.0 0.02217818937936594 -0.006439162316683848 0.0 0.0 0.02217818937936594 -0.006439162316683848
795000000.0 0.0 0.0 0.027373979897166653 -0.007968421471886098 0.0 0.0 0.027373979897166653 -0.007968421471886098
800000000.0 0.0 0.0 0.034594420973317525 -0.013314203413400429 0.0 0.0 0.034594420973317525 -0.013314203413400429
805000000.0 0.0 0.0 0.04241741042460238 -0.02276308289400431 0.0 0.0 0.04241741042460238 -0.02276308289400431
810000000.0 0.0 0.0 0.04567536609500017 -0.03324603415730168 0.0 0.0 0.04567536609500017 -0.03324603415730168
815000000.0 0.0 0.0 0.041913742475795414 -0.04097337758437117 0.0 0.0 0.041913742475795414 -0.04097337758437117
820000000.0 0.0 0.0 0.037487470525155206 -0.04726351568490954 0.0 0.0 0.037487470525155206 -0.04726351568490954
825000000.0 0.0 0.0 0.029374826436448447 -0.04825616465208659 0.0 0.0 0.029374826436448447 -0.04825616465208659
830000000.0 0.0 0.0 0.020765286500460518 -0.04485792493247724 0.0 0.0 0.020765286500460518 -0.04485792493247724
835000000.0 0.0 0.0 0.013255935777790202 -0.039321097920087485 0.0 0.0 0.013255935777790202 -0.039321097920087485
840000000.0 0.0 0.0 0.008293483532702876 -0.03462470211786135 0.0 0.0 0.008293483532702876 -0.03462470211786135
845000000.0 0.0 0.0 0.00535269541119924 -0.03131455792297906 0.0 0.0 0.00535269541119924 -0.03131455792297906
850000000.0 0.0 0.0 0.0038332464842314564 -0.028921346088892613 0.0 0.0 0.0038332464842314564 -0.028921346088892613
855000000.0 0.0 0.0 0.002955414072160981 -0.027160896267835855 0.0 0.0 0.002955414072160981 -0.027160896267835855
860000000.0 0.0 0.0 0.002301567696040322 -0.025839493850013044 0.0 0.0 0.002301567696040322 -0.025839493850013044
865000000.0 0.0 0.0 0.0014503197598591448 -0.025076959885009086 0.0 0.0 0.0014503197598591448 -0.025076959885009086
870000000.0 0.0 0.0 0.0010853475342192912 -0.024466571009961195 0.0 0.0 0.0010853475342192912 -0.024466571009961195
875000000.0 0.0 0.0 0.0008999407169141345 -0.023971442260389702 0.0 0.0 0.0008999407169141345 -0.023971442260389702
880000000.0 0.0 0.0 0.0009775732641657193 -0.023421896259073743 0.0 0.0 0.0009775732641657193 -0.023421896259073743
885000000.0 0.0 0.0 0.0011510308325340594 -0.02287974187512457 0.0 0.0 0.0011510308325340594 -0.02287974187512457
890000000.0 0.0 0.0 0.0012716295604153708 -0.02232526580442116 0.0 0.0 0.0012716295604153708 -0.02232526580442116
895000000.0 0.0 0.0 0.001224056716476991 -0.021893858353533212 0.0 0.0 0.001224056716476991 -0.021893858353533212
