!Created with skrf (http://scikit-rf.org).
# Hz S RI R 50.0 
!freq ReS11 ImS11 ReS21 ImS21 ReS12 ImS12 ReS22 ImS22
25000000.0 -0.08333226429591092 -0.029947476537488006 0.0060655148939176284 -0.021457829975826757 0.0 0.0 -0.08122653323048937 -0.054182252592589734
30000000.0 -0.07783264138038386 -0.031181318724723014 0.008856176636212089 -0.019610609349455545 0.0 0.0 -0.07314382656702537 -0.05388687321493887
35000000.0 -0.07993198297504155 -0.032203213270348086 0.011374297630009439 -0.022807573495759473 0.0 0.0 -0.07490219698242415 -0.06019700579390461
40000000.0 -0.07899645496975906 -0.030769262915785755 0.012107180702020739 -0.020652463877446736 0.0 0.0 -0.07421986346236868 -0.05598559344193629
45000000.0 -0.07621137297303889 -0.03779667063912689 0.01328906521943412 -0.02188311786630732 0.0 0.0 -0.0713875405157335 -0.06409048260273187
50000000.0 -0.07986574126212338 -0.03237970071512889 0.01250834054940339 -0.01624543216162893 0.0 0.0 -0.07353839350655782 -0.05313634284057009
55000000.0 -0.08401343966042205 -0.04072383813536655 0.01854693673659569 -0.017555625444764574 0.0 0.0 -0.07384033095901124 -0.0663804494400719
60000000.0 -0.08365309193289308 -0.04368230580004057 0.022780192362862134 -0.02288853219317189 0.0 0.0 -0.07346306405735378 -0.0780615911674615
65000000.0 -0.0798631661554555 -0.04791390880082337 0.020196206075711626 -0.024657025355166024 0.0 0.0 -0.07232036831288044 -0.08207854814895406
70000000.0 -0.08531065952663236 -0.025501865668803747 0.016999659345120776 -0.01296914386509763 0.0 0.0 -0.07766119528388511 -0.04655274564770186
75000000.0 -0.0862747324998396 -0.0408044321486474 0.0437196549570671 -0.023196074147662355 0.0 0.0 -0.06397152214163875 -0.0898018112907547
80000000.0 -0.1076576777022762 -0.01157300437642114 0.020413452898883647 -0.013000058213559058 0.0 0.0 -0.09774610771521797 -0.037156804360880924
85000000.0 -0.09400075593785019 -0.015585332128003735 0.026391425260167935 -0.014366760677738528 0.0 0.0 -0.07913793125147321 -0.045532579914800704
90000000.0 -0.09418668618892145 -0.013590189156924901 0.017035736802399268 -0.007961983797411611 0.0 0.0 -0.085526320412846 -0.031076199531184866
95000000.0 -0.09783260607187996 0.0008609613561929654 0.017243480418092084 -0.009039284296549549 0.0 0.0 -0.09026904201482869 -0.017979005894753153
100000000.0 -0.08992625815976106 0.019448025174579435 0.02729223943922054 -0.008024341824785567 0.0 0.0 -0.07572290394097668 -0.006270686821383629
105000000.0 -0.08039821601872808 0.04377625011677777 0.051690051791907436 -0.021631283356677425 0.0 0.0 -0.0613457588705953 -0.011713673442054493
110000000.0 -0.07868290211543474 0.02111398330720936 0.04204458433395313 -0.022455204395512806 0.0 0.0 -0.06740188125888498 -0.0275011803297141
115000000.0 -0.09531588695614117 0.005567692509941804 0.07372050051727766 -0.04141132709502957 0.0 0.0 -0.0817100463519846 -0.07972975127940461
120000000.0 -0.09530993800741187 -0.009321058657612196 0.04459084451404481 -0.009787203222823466 0.0 0.0 -0.07676804930795744 -0.05118456961486847
125000000.0 -0.1032832281072626 -0.02757206189273943 0.03381437600664893 0.006338023395544447 0.0 0.0 -0.07649907673982789 -0.04948641345131402
130000000.0 -0.09120860181530033 -0.020260551375583385 0.03636364120601312 -0.0002919189587776615 0.0 0.0 -0.07278749046501534 -0.04861159025623434
135000000.0 -0.10158594612934309 -0.019050281383419014 0.024945497602170658 -0.0017597419465084437 0.0 0.0 -0.08929419606708176 -0.04417225574697695
140000000.0 -0.09280475815562053 -0.01451651063777329 0.01909920280366302 -0.0002029252106291225 0.0 0.0 -0.08384289047265124 -0.03267346125183374
145000000.0 -0.09388368725703268 -0.013508187601838943 0.017838926465293812 0.0006094231542108789 0.0 0.0 -0.08444137868226863 -0.03032372193892528
150000000.0 -0.09447495675028508 -0.01432220259110784 0.017892149597053358 0.002256941583575325 0.0 0.0 -0.0833717795545241 -0.030235621715523416
155000000.0 -0.09395670698531854 -0.017434359828020007 0.017782991623244124 0.0052682000834709634 0.0 0.0 -0.08098453290362077 -0.032299727482615954
160000000.0 -0.09528590405211522 -0.028107645754306482 0.01736519968542791 0.009960842389467543 0.0 0.0 -0.07840616856212082 -0.04229424751956039
165000000.0 -0.10565546978823218 -0.012316544716968957 0.02174202280700079 0.01741681015329123 0.0 0.0 -0.08002660968736651 -0.030921286907805122
170000000.0 -0.09837658282466404 0.04796402323433018 0.04536878717976887 0.03231434034003449 0.0 0.0 -0.05440737878714093 0.002311297518747674
175000000.0 -0.09524300680312611 0.05034025471757419 0.08135597552435168 0.028002779922462608 0.0 0.0 -0.04791017694424797 -0.03456973114940634
180000000.0 -0.09503921018280274 0.06170031039734944 0.09423612319887151 0.03677711808042605 0.0 0.0 -0.04557203085296963 -0.034064391230510624
185000000.0 -0.045209729765403515 0.0703917607961052 0.05945876588525643 0.019932033169184137 0.0 0.0 -0.01720643822474868 0.011423083536137019
190000000.0 -0.11482811555953601 0.07628058823813509 0.12310601420112761 0.006181918358376436 0.0 0.0 -0.09045274444999303 -0.0506993384356154
195000000.0 -0.1115229374002396 0.015831720354529812 0.11286044577200895 0.007503290945610302 0.0 0.0 -0.09132764632719301 -0.09144983071142358
200000000.0 -0.08476007692209654 0.0016863744063099033 0.07401948402137647 0.019725454539640006 0.0 0.0 -0.0605640582743577 -0.06887374689148955
205000000.0 -0.0940863707025189 -0.005941581341008122 0.039656153187369744 0.021465405441704496 0.0 0.0 -0.07185837742700621 -0.04473791722459577
210000000.0 -0.09318161592953539 -0.011920311217503667 0.01777875842442817 0.010355167438650467 0.0 0.0 -0.08290961196013281 -0.02992771797494164
215000000.0 -0.08690579967097353 -0.01530338479515479 0.015774211018923612 0.011057844486366908 0.0 0.0 -0.07654140621655765 -0.0318044489224325
220000000.0 -0.07529511239424738 -0.034738662712455515 0.010966631805369146 0.015401756979399299 0.0 0.0 -0.061506472713704956 -0.048240415909785256
225000000.0 -0.07834864545068924 -0.03261945797036275 0.010464976057858868 0.016916057823872566 0.0 0.0 -0.06321000487779904 -0.04691899685342693
230000000.0 -0.09084569027345447 -0.03703081184112743 0.009030618202206445 0.015215484811399511 0.0 0.0 -0.07613964392412226 -0.0510723304833294
235000000.0 -0.08695107746867595 -0.03376270432007054 0.008801659449972006 0.015319261416372496 0.0 0.0 -0.07280464255935191 -0.04731974555579754
240000000.0 -0.08479604814222998 -0.03075348814801597 0.008398171680923414 0.015590049150263359 0.0 0.0 -0.07083927717627092 -0.04390532405373787
245000000.0 -0.08398980045125862 -0.027422016742076335 0.008038064453548226 0.01593657333816779 0.0 0.0 -0.06997936714618792 -0.04028460834392514
250000000.0 -0.08222656546152078 -0.026790203084778717 0.007909095038928194 0.015996945314380315 0.0 0.0 -0.06856573150681398 -0.03980940092616206
255000000.0 -0.08226752319809347 -0.0270503833036341 0.007948245694448252 0.015874666861665658 0.0 0.0 -0.06920667865431651 -0.040594377523791955
260000000.0 -0.08267664369306668 -0.029704627458002165 0.007534437709769222 0.016107590941880544 0.0 0.0 -0.06961358235887427 -0.04365731889392176
265000000.0 -0.08312506935899863 -0.03269607393573286 0.006490884390268512 0.017444638911350202 0.0 0.0 -0.06870561462770285 -0.046853872632334634
270000000.0 -0.08617529198100658 -0.03806840338981262 0.00537816892350811 0.019850984010186767 0.0 0.0 -0.06958055219034141 -0.05334405861310198
275000000.0 -0.08762882666460545 -0.038596309551655876 0.0028651522777609663 0.02034639906242353 0.0 0.0 -0.07035775008153201 -0.053128410297200244
280000000.0 -0.09032912605349531 -0.03278692172747855 0.0015054723301802853 0.021438228160369596 0.0 0.0 -0.07103901923544509 -0.047107550316321606
285000000.0 -0.08697639471842128 -0.03017842059579656 -0.0026202163756456377 0.022462694818220563 0.0 0.0 -0.06558923721243791 -0.042173603312871115
290000000.0 -0.08798154151598023 -0.0312233076730175 -0.00884488307106184 0.02259942342379806 0.0 0.0 -0.06332024021445846 -0.039088189662789465
295000000.0 -0.08999769762024278 -0.032442239186131656 -0.013730889262691465 0.020474288399759184 0.0 0.0 -0.06429601892769952 -0.0360369319498255
300000000.0 -0.089810534496262 -0.03378382264194354 -0.01662090745491383 0.017312199368347114 0.0 0.0 -0.06487983374096101 -0.034125365407425376
305000000.0 -0.09026859453134087 -0.03329036060107274 -0.017766502038974886 0.014928251229853678 0.0 0.0 -0.06628590811984172 -0.03205130288820732
310000000.0 -0.09013780805137613 -0.03379985834416152 -0.018620642781645335 0.013251786871639113 0.0 0.0 -0.06659229077830812 -0.03173402381926873
315000000.0 -0.09015648679388838 -0.0346645278084482 -0.01979116271852928 0.011716329623195094 0.0 0.0 -0.06658669793512215 -0.03159305910741819
320000000.0 -0.09107194370469439 -0.03638498114242545 -0.021100237031628388 0.009988480422038584 0.0 0.0 -0.06732743021161704 -0.03183186233432205
325000000.0 -0.09160400204607835 -0.03660099279492714 -0.022604787507676194 0.008208897374762393 0.0 0.0 -0.06748347400785973 -0.030438766681376465
330000000.0 -0.09172270661556135 -0.03771381644956048 -0.02445712580904552 0.006311394875435766 0.0 0.0 -0.06689900370104838 -0.029676732015875163
335000000.0 -0.09193130784523731 -0.039876336374539974 -0.027030711164700384 0.004203537070004151 0.0 0.0 -0.06573758307600201 -0.029551546445829732
340000000.0 -0.09279658479196069 -0.04277565987567016 -0.030929825469678377 0.0006869175428899902 0.0 0.0 -0.064400006773852 -0.028566493231339828
345000000.0 -0.09409435062928115 -0.045066690896653286 -0.0360279515073838 -0.004186622960182858 0.0 0.0 -0.0625534662706717 -0.025501096407605454
350000000.0 -0.0961571963174165 -0.04652410054878286 -0.043076184142435935 -0.010644080734752533 0.0 0.0 -0.05963858625180559 -0.01979440948477313
355000000.0 -0.09863443524682815 -0.049881951283168066 -0.051955724344521746 -0.01867881749347049 0.0 0.0 -0.055294410943501154 -0.014260320742486577
360000000.0 -0.09635918909094852 -0.06383238047278944 -0.05774732828182768 -0.02857313379717149 0.0 0.0 -0.04901277551282049 -0.019151732381982808
365000000.0 -0.09025718648672897 -0.08939153221407153 -0.06734146598920218 -0.04409738840679886 0.0 0.0 -0.03661390456931997 -0.02829062158807714
370000000.0 -0.0923114391231721 -0.10186256122133258 -0.08758582497118078 -0.05342185678878236 0.0 0.0 -0.020655125044304876 -0.027694046345519047
375000000.0 -0.09496859291862515 -0.0997950857068011 -0.10622443472986559 -0.040829551049736505 0.0 0.0 -0.0014442914139821727 -0.03561020365682598
380000000.0 -0.08100288192677539 -0.0928964323967875 -0.10951432629233392 -0.013475263491151884 0.0 0.0 0.02261678126866495 -0.05782429550081298
385000000.0 -0.060185460374889393 -0.0760382760422113 -0.09367251763989289 0.00024953706491597606 0.0 0.0 0.03237966553817432 -0.06097984332584643
390000000.0 -0.04819754213552388 -0.06303564101845016 -0.07893043418645533 0.00665889567056248 0.0 0.0 0.03125178133927062 -0.05975319914996141
395000000.0 -0.04339503704780517 -0.05829724214634938 -0.0666101662294782 0.0066282447730930056 0.0 0.0 0.02397247308836564 -0.059032820719253816
400000000.0 -0.04045109458187558 -0.05218579854903543 -0.05852592076584289 0.0037721184443825473 0.0 0.0 0.01854645787533817 -0.05269109738514409
405000000.0 -0.037878950819730216 -0.04740733850844412 -0.05522152596604783 -0.0004186857170579064 0.0 0.0 0.017192285417377152 -0.04596878770256827
410000000.0 -0.030996188360332178 -0.0464231301602366 -0.052315980719254945 -0.004708503295032213 0.0 0.0 0.021326236263194645 -0.04298925112043467
415000000.0 -0.02795515593008329 -0.045598108782830826 -0.04753529505825565 -0.008501292524870382 0.0 0.0 0.02036676106146428 -0.040210689133824584
420000000.0 -0.026583263750400512 -0.046064297241058066 -0.04288692827750126 -0.012508750253249396 0.0 0.0 0.01788159419725525 -0.038176289032294544
425000000.0 -0.024863004252987576 -0.046926219473659506 -0.03923605687719408 -0.016972264098480048 0.0 0.0 0.01704375732737943 -0.03594414854731098
430000000.0 -0.021815741511410715 -0.04787867509242173 -0.0364661034595438 -0.021755907223225998 0.0 0.0 0.019000385194670396 -0.03342711374008264
435000000.0 -0.01953379673699947 -0.04910281914959225 -0.03577788321553035 -0.026176838228457358 0.0 0.0 0.022490394444918287 -0.03182461266777242
440000000.0 -0.01938927027647793 -0.049474501054291964 -0.03654391996472492 -0.031080359621723296 0.0 0.0 0.025612401259259295 -0.029318206799469414
445000000.0 -0.021924574528750018 -0.048836583163605875 -0.03651820328056546 -0.035152512895552296 0.0 0.0 0.02535712960943111 -0.02648147598000897
450000000.0 -0.029166285079685092 -0.04543396068263851 -0.03647163628338725 -0.038434011926892366 0.0 0.0 0.020242100816849396 -0.021683615613831746
455000000.0 -0.03990379055541094 -0.03772621099742976 -0.03765474108912218 -0.04124849485320263 0.0 0.0 0.012575143272962908 -0.012881246631851577
460000000.0 -0.047174263201020285 -0.02969341516317433 -0.03862619612573832 -0.04444668241482788 0.0 0.0 0.007856646653846971 -0.0026038223466511756
465000000.0 -0.04492335820874825 -0.03141959292037587 -0.034492689909438524 -0.05021018717627443 0.0 0.0 0.009318508860064438 0.002195003470095835
470000000.0 -0.04352849396630802 -0.03761435793821946 -0.027172867097154735 -0.05546083425351287 0.0 0.0 0.007289472388295939 0.0026090121361463
475000000.0 -0.04339568989463678 -0.04531881768055075 -0.019208357286946816 -0.06134711421720463 0.0 0.0 0.005501626365803122 0.0022515858573783558
480000000.0 -0.04123293759298658 -0.052119380423551166 -0.01152068776340096 -0.06886342124357675 0.0 0.0 0.007601729250037176 0.0035850152372392118
485000000.0 -0.03480052866041799 -0.05902866126034555 -0.004428252878475496 -0.07801593225778335 0.0 0.0 0.016275735411656334 0.005503087125992772
490000000.0 -0.026496411133330115 -0.06863010201336535 0.003146152348219034 -0.08865312304029575 0.0 0.0 0.02854634572973132 0.006800197705157045
495000000.0 -0.021330434172861706 -0.08036017197177507 0.012870028601356779 -0.1001630261716107 0.0 0.0 0.03786976799402094 0.007841167751074084
500000000.0 -0.02844668973639757 -0.09566446449269879 0.024705601852337524 -0.11291853359978787 0.0 0.0 0.03740523839100916 0.008307854162451712
505000000.0 -0.04831743579222815 -0.11385805915375107 0.03439344311282699 -0.1302927244475927 0.0 0.0 0.0323837023767073 0.006494842975082356
510000000.0 -0.07426364760397262 -0.12833913185110923 0.040740627048939375 -0.1521173298064144 0.0 0.0 0.02964894994631988 0.005181393426535171
515000000.0 -0.10921238928571492 -0.1360309091451102 0.04213139703792144 -0.1771111446760003 0.0 0.0 0.02579061010303345 0.004566557074241609
520000000.0 -0.1518381081950667 -0.12525946877946603 0.04440541733069318 -0.20433204683698364 0.0 0.0 0.020194079969581558 0.014054195737315573
525000000.0 -0.19695907883781372 -0.09673392789372054 0.027379554025113433 -0.2379613465048949 0.0 0.0 0.021071617131219265 0.032451088966159364
530000000.0 -0.21364379457166607 -0.05917825306282025 -0.022472955024672555 -0.254109606002965 0.0 0.0 0.03398931131523257 0.038915881561733694
535000000.0 -0.23376736921325927 -0.03335530018499347 -0.08242151116315774 -0.2672896199058404 0.0 0.0 0.04625892098070942 0.020231224148590125
540000000.0 -0.19143463959006357 0.010452998188134164 -0.1209728549588875 -0.2213460337484662 0.0 0.0 0.06205766586592908 0.009069277612600547
545000000.0 -0.11983108217187252 -0.008286454262859216 -0.13218427450545506 -0.1827600422347959 0.0 0.0 0.10198311167416779 -0.0362260480350322
550000000.0 -0.0593538943756132 -0.060027638855837485 -0.0840231731631674 -0.16886234621694465 0.0 0.0 0.1271273242218719 -0.054218892654358274
555000000.0 -0.03169382077885032 -0.04560781778982893 0.014795936190458736 -0.1428413231113385 0.0 0.0 0.0967428069879528 0.03099789639374552
560000000.0 -0.06823267785866567 -0.03196892565744031 0.05653086023637563 -0.12087072238982463 0.0 0.0 0.03784261008297206 0.06968044500562326
565000000.0 -0.15027886764418905 -0.015162907121346865 0.024307976449028924 -0.19604248508512517 0.0 0.0 0.05741551083793313 0.07552321915344283
570000000.0 -0.2080163161944813 0.03606145867133972 -0.04016805272886323 -0.2756802463284225 0.0 0.0 0.09645745633535335 0.06417657789293824
575000000.0 -0.22898022569984713 0.06931139676878248 -0.10245467356852996 -0.30178214371635875 0.0 0.0 0.10333112782864058 0.03590709056077209
580000000.0 -0.21670581386630194 0.0874638323250251 -0.12731763531946208 -0.27918576039594345 0.0 0.0 0.0906386587862758 0.025995489103432922
585000000.0 -0.1657110040280934 0.10089947985339758 -0.12257204321747334 -0.257550349690941 0.0 0.0 0.1106539471114511 0.030729690106153604
590000000.0 -0.13319709258497942 0.11070422162317563 -0.11931536177946049 -0.20293173169209114 0.0 0.0 0.0890689395387841 0.030670308804426807
595000000.0 -0.03280422834505906 -0.09437556625754566 0.16926494917435014 -0.12534635623110685 0.0 0.0 0.0569625212989269 0.09315822101295032
600000000.0 -0.064892956117637 -0.09445314422335722 0.11674480846953442 -0.12100264313472345 0.0 0.0 0.03945615618483062 0.04947116076352226
605000000.0 -0.08237514715033457 -0.06773553648891212 0.07418654026666309 -0.11023865940193059 0.0 0.0 0.026646084420877382 0.03221687697891809
610000000.0 -0.08302820646448575 -0.03182490235558988 0.04572370533005743 -0.10764052905697989 0.0 0.0 0.0295615086623507 0.03198892325676237
615000000.0 -0.07113711571293165 -0.004910989843817323 0.023142788811805086 -0.09826969642005697 0.0 0.0 0.033882109827364094 0.02884597287515996
620000000.0 -0.05122844113989786 0.006383979873345147 0.013561604320298085 -0.08173091814856404 0.0 0.0 0.03626631540121939 0.025287081131246707
625000000.0 -0.022851478793679252 0.010235956730443594 0.0181304280532742 -0.059567323431768904 0.0 0.0 0.040591588990528935 0.03078436364021401
630000000.0 -0.0009418044564094134 0.016783135974965575 0.02152375458241489 -0.032566946495749156 0.0 0.0 0.03417737418791689 0.03931318305236195
635000000.0 0.0034461559553699977 0.019004917819975018 0.021157248558741695 -0.02005884569034545 0.0 0.0 0.02602370832497337 0.0405095156332026
640000000.0 0.004169769615268883 0.02034352476358667 0.02228815132096209 -0.01705233553004522 0.0 0.0 0.024572651722636184 0.04247989770387995
645000000.0 0.004400168580503409 0.02143416920957069 0.023155502524942174 -0.01553474097619625 0.0 0.0 0.024182844693352537 0.043984341101048575
650000000.0 0.003776419909912473 0.021833549015250125 0.023395010446962385 -0.014755105062096385 0.0 0.0 0.023583628800241615 0.04398440830688912
655000000.0 0.0032173718644430997 0.021854915006832752 0.025561214542534565 -0.015639438130080847 0.0 0.0 0.025244626145876935 0.04533233811538162
660000000.0 0.0021396210204981335 0.021217206695305402 0.025857613621660093 -0.015722635251143997 0.0 0.0 0.0252291998546026 0.04415031566396751
665000000.0 0.0019944048686750876 0.019940155757123434 0.02636975424953526 -0.0157478602209444 0.0 0.0 0.02610940397007577 0.04244141473156814
670000000.0 0.0007432055852033539 0.017187937600053476 0.02770366155571784 -0.014742410823697557 0.0 0.0 0.02514908838558979 0.04042034196609972
675000000.0 -0.0006230429456026067 0.015361202049225864 0.02974362254299107 -0.011710426602752603 0.0 0.0 0.022327669892098355 0.04080800821227434
680000000.0 -0.0021906699738295596 0.015259428640740232 0.03055623263304886 -0.007193964290487521 0.0 0.0 0.017424619606735976 0.04241098809130761
685000000.0 -0.00265856580845509 0.016791940640590135 0.028525941077464728 -0.002844430533250602 0.0 0.0 0.012723968333849913 0.043040533441726155
690000000.0 -0.0021668500205255198 0.018903464086136516 0.025281312536113945 -7.0535387959614e-05 0.0 0.0 0.009875169108187488 0.04270226089035941
695000000.0 -0.002448102062185776 0.020581412413412437 0.022994611668969597 0.0014699797417744521 0.0 0.0 0.007782082559499973 0.04252722007527688
700000000.0 -0.0030545930856659513 0.021470175626283804 0.021867784791129694 0.002413656983975742 0.0 0.0 0.006424076198386343 0.04244877068161598
