!Created with skrf (http://scikit-rf.org).
# Hz S RI R 50.0 
!freq ReS11 ImS11
25000000.0 0.0800313255314517 0.009812432782430148
30000000.0 0.08120111550195959 0.006618877945430512
35000000.0 0.083181177766293 0.007950830534232428
40000000.0 0.08292433202502732 0.00947735719020431
45000000.0 0.08420236145355203 0.00741117982513633
50000000.0 0.08258783078337849 0.009877242311769193
55000000.0 0.08729558187373622 0.004223650210744379
60000000.0 0.0905239099128468 0.009211046151992832
65000000.0 0.08505280004467436 0.012044231227091693
70000000.0 0.08558557898073153 0.011815085891927857
75000000.0 0.0916504499960544 0.003761174281083035
80000000.0 0.09843007274823835 0.006244438849581059
85000000.0 0.08663291002902679 -0.006757305421311951
90000000.0 0.08789252595410603 -0.008555991271582186
95000000.0 0.08997119156619321 -0.010425935519537275
100000000.0 0.08654832057479563 -0.002886225737354301
105000000.0 0.08587235412406849 -0.02015699153119374
110000000.0 0.05842508836421049 -0.038964690287278766
115000000.0 0.06850741606774037 -0.02695816847891836
120000000.0 0.08555207503482541 -0.02424105478798017
125000000.0 0.09737053911934485 -0.010629413284253776
130000000.0 0.09848363289490836 -0.008564243187756008
135000000.0 0.09449804953291605 -0.008068113148369478
140000000.0 0.08690827387636395 -0.008230554785981245
145000000.0 0.08445595084077095 -0.008846872860523705
150000000.0 0.083049704224506 -0.010830494560350548
155000000.0 0.08271222956590234 -0.011874810356767464
160000000.0 0.08579839969970908 -0.010154909801156683
165000000.0 0.09134209648873408 -0.003556907555063347
170000000.0 0.09630464235486877 -0.011074699388570045
175000000.0 0.08811824950490293 -0.042768918847113854
180000000.0 0.07097455839885379 -0.02986411401477855
185000000.0 0.04738999224543375 -0.03833459176709012
190000000.0 0.020255066967531776 -0.06491180536800226
195000000.0 0.05392469616230765 -0.03909237244165573
200000000.0 0.05926042662707066 -0.029895659735873194
205000000.0 0.07272320587011184 -0.027654006500188504
210000000.0 0.07326887134166124 -0.02310158639655585
215000000.0 0.0714335703529803 -0.01850058255974722
220000000.0 0.07212685179165676 -0.009713479785378445
225000000.0 0.08495194217690812 -0.009724112052286932
230000000.0 0.08296729954525552 -0.010716677012515434
235000000.0 0.07988447442447824 -0.012238311664588499
240000000.0 0.07801791684692488 -0.013391911648068208
245000000.0 0.07634815598531877 -0.014978912683521762
250000000.0 0.07410921258391345 -0.018134408948213186
255000000.0 0.0727143309702487 -0.02002886367189974
260000000.0 0.07271599325934071 -0.022509360021473836
265000000.0 0.07275453890305625 -0.02383608009182635
270000000.0 0.075292523036633 -0.023840812268089373
275000000.0 0.07652331687256617 -0.022304512846916612
280000000.0 0.07626192541704363 -0.02286516661331258
285000000.0 0.07314493279892606 -0.024346260328771623
290000000.0 0.07387729550407746 -0.02440397419565825
295000000.0 0.07535852237701791 -0.024529098908962606
300000000.0 0.07507097403365022 -0.02539552019101389
305000000.0 0.07484650065254278 -0.026049662727223397
310000000.0 0.0740091874729826 -0.0275678893717511
315000000.0 0.07379038938449704 -0.028148299936381557
320000000.0 0.07432289772177142 -0.028544771619481834
325000000.0 0.07425544638770107 -0.029474795057281417
330000000.0 0.07394303803128936 -0.03049222001642023
335000000.0 0.0745617350896514 -0.0311745599310619
340000000.0 0.0761295712357842 -0.03131618526516934
345000000.0 0.07782578327129985 -0.03120690079208439
350000000.0 0.07937764649783247 -0.03152402796298135
355000000.0 0.08176487392377592 -0.03171450449077089
360000000.0 0.08739723341384649 -0.029548332840101197
365000000.0 0.09916813444071561 -0.021115020549667678
370000000.0 0.1098542757791138 -0.011042376659717468
375000000.0 0.1059451327418579 -0.01334641239891055
380000000.0 0.09485131082508838 -0.014412652507230745
385000000.0 0.08071708267704136 -0.010340096765760627
390000000.0 0.06980985544595114 -0.009004775991844939
395000000.0 0.06392310122327083 -0.009598999763813388
400000000.0 0.05865584579366589 -0.010374278122618536
405000000.0 0.05419818945305599 -0.01147075622623934
410000000.0 0.0494325409893935 -0.011521503735819666
415000000.0 0.04888893572580066 -0.011547845516766651
420000000.0 0.04873996497362536 -0.012161274063614742
425000000.0 0.04826101536171692 -0.013085096788046924
430000000.0 0.04855352347798021 -0.013547252984370331
435000000.0 0.04988058406231699 -0.013823735328092765
440000000.0 0.05025031415552503 -0.014713262697271521
445000000.0 0.04955768669656522 -0.016332084905577603
450000000.0 0.04878670502509285 -0.01884479076830766
455000000.0 0.047724449737217026 -0.02269186502950308
460000000.0 0.046965151841932985 -0.027675630872704665
465000000.0 0.048840298309275505 -0.030554375080945165
470000000.0 0.055155919011184794 -0.031972767939040754
475000000.0 0.06024289534680726 -0.033036706447064794
480000000.0 0.0624846842546548 -0.03327967202165338
485000000.0 0.06449502801784937 -0.032254477616479656
490000000.0 0.06753956350277551 -0.02865493303111062
495000000.0 0.07233850506604884 -0.01976243751951455
500000000.0 0.07814825651746883 -0.008544823266987397
505000000.0 0.0867872126307608 -0.011133094488760794
510000000.0 0.0975940331751946 -0.027487591197915984
515000000.0 0.10524204017024996 -0.04849497491681108
520000000.0 0.09820401996931241 -0.07221722013991509
525000000.0 0.0804874731643134 -0.1044019872948675
530000000.0 0.050299359983975625 -0.1297466532310892
535000000.0 0.00991035156022266 -0.1362555754466565
540000000.0 -0.026287281924801696 -0.12076688035793058
545000000.0 -0.05218801361962789 -0.09231717594308657
550000000.0 -0.04814075344984468 -0.07342685168196691
555000000.0 -0.008965200835860625 -0.0663080554362463
560000000.0 0.020405439401304095 -0.025162680133324997
565000000.0 0.02243962102878049 -0.06914416769212363
570000000.0 -0.023539096063620008 -0.12939889701484586
575000000.0 -0.07707079452225547 -0.14611594868387462
580000000.0 -0.09563648846781728 -0.12844649640500994
585000000.0 -0.11184518747145 -0.08600806607143348
590000000.0 -0.10030161686655664 -0.04883371552184341
595000000.0 0.08723301828648948 -0.04959553618166694
600000000.0 0.059693130222907106 -0.056271633769015776
605000000.0 0.025940052321307777 -0.05492622025289306
610000000.0 -0.00553420478513858 -0.03342942115701425
615000000.0 -0.0159189222161563 -0.012446176192255081
620000000.0 -0.015246871503610388 -0.009856095653444679
625000000.0 -0.014018079189269362 -0.013746701913882652
630000000.0 -0.013815442289379247 -0.018141927981401185
635000000.0 -0.014511425773757792 -0.02161157166018689
640000000.0 -0.015935703356291516 -0.023759590625157426
645000000.0 -0.01839250010099295 -0.02501089689833103
650000000.0 -0.021837800128926405 -0.026164080327223515
655000000.0 -0.02656578216639935 -0.028299580987607573
660000000.0 -0.03242483428608228 -0.03251550816846312
665000000.0 -0.038836010983670025 -0.0391490648234736
670000000.0 -0.04159365208829956 -0.04455693433046329
675000000.0 -0.042958301881819705 -0.05079830728534868
680000000.0 -0.042980051099142574 -0.05656260410510092
685000000.0 -0.042383765001274214 -0.06050781003498204
690000000.0 -0.04196805499760558 -0.06266746897838117
695000000.0 -0.04196974925925347 -0.06381999051905947
700000000.0 -0.04252331877725556 -0.06451449624701626
705000000.0 -0.04336572260052497 -0.06524595125356251
710000000.0 -0.0442178047855548 -0.06587751944721768
715000000.0 -0.04533295154225038 -0.06645562174830516
720000000.0 -0.046777104745089663 -0.06635993839742561
725000000.0 -0.04885622886671015 -0.06566517338048308
730000000.0 -0.051350521054026876 -0.06506772154933864
735000000.0 -0.05386093254954598 -0.06552472605765136
740000000.0 -0.056100822895251846 -0.06662186893781517
745000000.0 -0.0579517130385332 -0.06811711610138664
750000000.0 -0.05977899711491167 -0.06957314798388334
755000000.0 -0.06124984522948157 -0.07098367155672773
760000000.0 -0.06242641426553428 -0.07227068005427231
765000000.0 -0.0635355999952841 -0.07365866647514863
770000000.0 -0.06428902313068266 -0.074795679973326
775000000.0 -0.0648037711105111 -0.07600968285739661
780000000.0 -0.06484540422096717 -0.07703367710804256
785000000.0 -0.06458972202745376 -0.07755051056542064
790000000.0 -0.06425906144359385 -0.07677125375534406
795000000.0 -0.06500123845690484 -0.07357397118076678
800000000.0 -0.06754944977374441 -0.06672917811065825
805000000.0 -0.07224100989121138 -0.05686848812392325
810000000.0 -0.07784361954709498 -0.04832153516809151
815000000.0 -0.08571525205649949 -0.044316749875967544
820000000.0 -0.09256118883481988 -0.048184305067305415
825000000.0 -0.09856528575797126 -0.05601563212966201
830000000.0 -0.10189674188346053 -0.06406849872584061
835000000.0 -0.10330594879472944 -0.0696545120089256
840000000.0 -0.10412279089770918 -0.07153485785293254
845000000.0 -0.10525130940849099 -0.07091275075457731
850000000.0 -0.10693088224056192 -0.06997360861209329
855000000.0 -0.10916350503807523 -0.0695180403065743
860000000.0 -0.11186760446798494 -0.06973985487573242
865000000.0 -0.1144650365332336 -0.07019923660582907
870000000.0 -0.1171964071787702 -0.07142473688636104
875000000.0 -0.11981374744568053 -0.07296251654165398
880000000.0 -0.122307035292014 -0.07483244669205634
885000000.0 -0.12454696588066384 -0.07692177390779113
890000000.0 -0.12664317282995383 -0.07870581733313284
895000000.0 -0.12883523862721613 -0.08009930999673696
900000000.0 -0.13077799241795604 -0.08130715685439736
905000000.0 -0.13292595632615273 -0.08293237782451453
910000000.0 -0.1349312766521931 -0.08487212520316892
915000000.0 -0.13685806800702469 -0.08702039496772246
920000000.0 -0.13835173019946237 -0.08957226936505511
925000000.0 -0.13952572516036524 -0.09266557288438546
930000000.0 -0.1403417079008378 -0.09562698392578309
935000000.0 -0.1409035966693299 -0.09793055081860008
940000000.0 -0.14111885196382526 -0.0996960170196963
945000000.0 -0.14149883382576578 -0.10122852516440899
950000000.0 -0.14204868249334865 -0.10218515615690271
955000000.0 -0.14268318155123472 -0.10233957790078548
960000000.0 -0.14369478695283114 -0.10196766195154239
965000000.0 -0.1450948715655936 -0.10174755615800349
970000000.0 -0.1466794887869237 -0.10198287170017493
975000000.0 -0.14834143441817416 -0.10248682146160049
980000000.0 -0.1498763115493497 -0.10319982259975734
985000000.0 -0.15144465378405805 -0.10389055638561995
990000000.0 -0.15269497492240883 -0.10431773044317935
995000000.0 -0.1542053082095053 -0.1047584796774564
1000000000.0 -0.1557473788037254 -0.10517162628277912
1005000000.0 -0.15732150967522754 -0.10555631699717374
1010000000.0 -0.15881895812591226 -0.10567895794584856
1015000000.0 -0.16058584527419695 -0.10580644723077276
1020000000.0 -0.1623651866706971 -0.10552178155214233
1025000000.0 -0.1643992608408878 -0.10525903939494716
1030000000.0 -0.16662133803625262 -0.10513023499485608
1035000000.0 -0.16891066628219656 -0.10534225287911961
1040000000.0 -0.17129294929497385 -0.10587529960603607
1045000000.0 -0.17381203446848173 -0.10667913443279117
1050000000.0 -0.17614026654717582 -0.10785433872055926
1055000000.0 -0.17857153301587034 -0.10938591030777454
1060000000.0 -0.18090067780425018 -0.11116031317025366
1065000000.0 -0.18293058729981068 -0.11302434414794175
1070000000.0 -0.1850943692059054 -0.11521109791399661
1075000000.0 -0.18702443985501674 -0.11736570157953254
1080000000.0 -0.1891051769594156 -0.11982468614553242
1085000000.0 -0.19098395632168158 -0.12218630686767078
1090000000.0 -0.19269772419522238 -0.12437569589374213
1095000000.0 -0.19442243208141585 -0.12659737815285152
1100000000.0 -0.19622551517430717 -0.12874904595808892
1105000000.0 -0.19817887121861225 -0.13072452174367338
1110000000.0 -0.1999890474024301 -0.13247027837512937
1115000000.0 -0.20202371016543896 -0.13442762389683754
1120000000.0 -0.20410158704402337 -0.13637632042824274
1125000000.0 -0.20617558612901296 -0.13838760013276544
1130000000.0 -0.20824482297126481 -0.14046290668246156
1135000000.0 -0.2103581312472065 -0.14253027580710217
1140000000.0 -0.21251676454086618 -0.14458896773212546
1145000000.0 -0.2144493553142212 -0.14650691715788397
1150000000.0 -0.2164760486729847 -0.1483352621103936
1155000000.0 -0.21874675056520348 -0.1503966954885624
1160000000.0 -0.22083928453911195 -0.1522330719805098
1165000000.0 -0.22292444742346182 -0.15413006701048212
1170000000.0 -0.22476972524793745 -0.15587020453916833
1175000000.0 -0.22660210832191072 -0.15766859391332913
1180000000.0 -0.22804662811030849 -0.15950208521449033
1185000000.0 -0.22955462490662418 -0.1612738452244783
1190000000.0 -0.23074833403592696 -0.16295605256154774
1195000000.0 -0.23167929083543135 -0.1644633978211427
1200000000.0 -0.23264088064698102 -0.16594112747494622
1205000000.0 -0.2332482575096106 -0.16735908063212646
1210000000.0 -0.2336147987382506 -0.16855029683132838
1215000000.0 -0.23394984756774034 -0.16978742782124914
1220000000.0 -0.23428258763497037 -0.17102977312614892
1225000000.0 -0.23437307348486458 -0.17203821360757987
1230000000.0 -0.23407061423280848 -0.1730135513962285
1235000000.0 -0.23427301277111245 -0.17443098030139348
1240000000.0 -0.2338399795639861 -0.1755720229591915
1245000000.0 -0.2334544156376909 -0.17720154618344564
