!Created with skrf (http://scikit-rf.org).
# Hz S RI R 50.0 
!freq ReS11 ImS11
25000000.0 0.0760820426597424 0.01669988265246766
30000000.0 0.06870641982601494 0.015294763245610632
35000000.0 0.06624868747047358 0.01349048941248126
40000000.0 0.060070568355451735 0.016523633902973126
45000000.0 0.056394078704866346 0.020425504610333697
50000000.0 0.05656958598070391 0.018435166199578832
55000000.0 0.05624046587410966 0.018992596154501235
60000000.0 0.057822173956727625 0.022613707691920986
65000000.0 0.05077804312612421 0.03153281969315079
70000000.0 0.03631647800170134 0.021528868827693514
75000000.0 0.032030735482619706 0.04341369717622599
80000000.0 0.03585447849527835 0.02107777813353969
85000000.0 0.032980533827853833 0.033926472363010704
90000000.0 0.036707447214708 0.02352958985836187
95000000.0 0.03721362177603314 0.02553798018669588
100000000.0 0.031875505914978855 0.03305420204145665
105000000.0 0.03830533303424144 0.0491345613702039
110000000.0 0.008897006662866242 0.05855221611490545
115000000.0 0.006586327144202086 0.08368722115365651
120000000.0 0.020821953007082027 0.0603344764708537
125000000.0 0.02366934180332439 0.05975146256368137
130000000.0 0.011228903042007092 0.08154953594337588
135000000.0 0.03796417489419953 0.08726996868101092
140000000.0 0.04427313681304848 0.07758760358080961
145000000.0 0.04779151153595324 0.07450011981715847
150000000.0 0.05043572801714318 0.07335700814636238
155000000.0 0.05167601457218689 0.07502064511239126
160000000.0 0.056119545201874205 0.07550995129546273
165000000.0 0.060920863618382774 0.06646016504366659
170000000.0 0.05243225642254831 0.06211113399798862
175000000.0 0.046226470886333366 0.08045527273734755
180000000.0 0.032059004282502614 0.10956225640674559
185000000.0 0.06133159358260545 0.11328859034780914
190000000.0 0.03616407976070712 0.11393462564195418
195000000.0 0.07374032379515197 0.11481827386446299
200000000.0 0.1032733291166751 0.1116031692870541
205000000.0 0.11294541408423645 0.10180364108958145
210000000.0 0.1150323424082104 0.0902617366058429
215000000.0 0.11437605033657745 0.08509811524802947
220000000.0 0.11469967927325468 0.0829982159342243
225000000.0 0.14609281182166078 0.06513638923902111
230000000.0 0.1493845173861763 0.05971930271553827
235000000.0 0.14969866636735232 0.05635750311087774
240000000.0 0.1499710027225892 0.054022452719903344
245000000.0 0.1500079322852918 0.05282613194199209
250000000.0 0.1501708938414364 0.05123935909486564
255000000.0 0.15085506466154838 0.05150219919045313
260000000.0 0.15405641302416948 0.04886957284567338
265000000.0 0.1552098697522849 0.047038029831536994
270000000.0 0.159493097920768 0.044471265272253604
275000000.0 0.16092758530434645 0.0389622125576966
280000000.0 0.16528905609077946 0.029382941467179523
285000000.0 0.15788581292981577 0.019106282735076013
290000000.0 0.1554121076227421 0.019853613301047242
295000000.0 0.15755142088636134 0.01544805188396746
300000000.0 0.1574785197362798 0.009438697182029197
305000000.0 0.15461569005580628 0.00521017779166214
310000000.0 0.14992747121103855 0.0035070549783268595
315000000.0 0.14467091089113082 0.003384095217251062
320000000.0 0.13908518047280252 0.004419526254478726
325000000.0 0.13340191402370932 0.005264694605745933
330000000.0 0.12839838208944845 0.005785625212727782
335000000.0 0.12402015338511552 0.006000506964249808
340000000.0 0.12033623927479555 0.006348676482274015
345000000.0 0.11895876173447699 0.006276003783527704
350000000.0 0.1209193836699414 0.005829327786342234
355000000.0 0.12546459208838234 0.0058948137450908706
360000000.0 0.13090460578469457 0.006562625688670499
365000000.0 0.14388569239632218 0.006785477004607949
370000000.0 0.16600113074678244 0.015516354867768478
375000000.0 0.18356360777604622 0.0502861983243089
380000000.0 0.17086185963098016 0.09253887840245756
385000000.0 0.13975372546939377 0.11128465648252205
390000000.0 0.11307552217950151 0.1019209143577403
395000000.0 0.09766341615351423 0.08809097988657243
400000000.0 0.092316760771449 0.07593783816897925
405000000.0 0.09326729096255833 0.06921590324789546
410000000.0 0.09530857066524184 0.0680080437845196
415000000.0 0.09545360624014132 0.0694274951672973
420000000.0 0.09616515668977964 0.07076961618415073
425000000.0 0.09919650035393145 0.07396572810668993
430000000.0 0.10375427788222082 0.08033514530390157
435000000.0 0.10908819219163836 0.09050245549402217
440000000.0 0.11221651265914334 0.10468021362979926
445000000.0 0.11418705814309375 0.11911477168430812
450000000.0 0.11815058088161272 0.1334510432474591
455000000.0 0.12458261932534373 0.14737144088151327
460000000.0 0.13618621482229068 0.15939722844566445
465000000.0 0.15372916122711694 0.16700362105829542
470000000.0 0.16769905698783852 0.17770918643607986
475000000.0 0.16832522184171267 0.1997510678472213
480000000.0 0.15694281078239694 0.22018824331026965
485000000.0 0.1401831663334939 0.23855469093656825
490000000.0 0.11943881280814068 0.2570738847365552
495000000.0 0.09706529836832853 0.27547838255374285
500000000.0 0.0719139347820843 0.2936659839531694
505000000.0 0.04021619843124707 0.30964757573001805
510000000.0 -0.0003894711559589981 0.31878631965517
515000000.0 -0.04608911726721323 0.3214257035593995
520000000.0 -0.10140523081909342 0.32005737732487494
525000000.0 -0.18646508392422176 0.2928043143710705
530000000.0 -0.26301771603561047 0.2630177160356105
535000000.0 -0.3276879594778523 0.1996292850673801
540000000.0 -0.361602102287703 0.11742187486029283
545000000.0 -0.351643693136764 0.01504565486026545
550000000.0 -0.30653838035465875 0.06992518026602744
555000000.0 -0.22945585077975986 0.17581329405383833
560000000.0 -0.12295659207767 0.2311503820241524
565000000.0 0.027870615761487253 0.21547513291197798
570000000.0 0.18365579857095737 0.04910737129215191
575000000.0 0.18063209363669788 0.05107968140730648
580000000.0 0.1539095668066714 0.13308573449981706
585000000.0 0.14804619467001132 0.22589394695118764
590000000.0 0.13650143084607796 0.33150569432716376
595000000.0 0.08685046264896051 0.4186490400704817
600000000.0 0.1602569681550181 0.5424087159392826
605000000.0 -0.042702300014659675 0.5913856221635391
610000000.0 -0.23582212121813292 0.573567528011771
615000000.0 -0.39739345051282965 0.49851958302028615
620000000.0 -0.512691965067723 0.3900012712663378
625000000.0 -0.5856476360040132 0.27708451857496197
630000000.0 -0.6404106662465037 0.1529217347051688
635000000.0 -0.6745498185662719 0.031928955878727155
640000000.0 -0.6958234285862664 0.0014573313118192634
645000000.0 -0.7125001707045069 0.07991969925165301
650000000.0 -0.7074294577670487 0.2068668503551324
655000000.0 -0.6889875434375552 0.31529768028834343
660000000.0 -0.6621963185013786 0.40674889691257987
665000000.0 -0.6224973998850521 0.4978231804447169
670000000.0 -0.5684581736777331 0.5796802567133863
675000000.0 -0.5015538580919678 0.6491689947289381
680000000.0 -0.4277837186792052 0.7021994484653007
685000000.0 -0.35639783783847895 0.7388891916034332
690000000.0 -0.29050930461680413 0.76719032854656
695000000.0 -0.22679335035599135 0.789362276734977
700000000.0 -0.1645886068904267 0.8075358958579198
705000000.0 -0.10367303967944787 0.8195063117421936
710000000.0 -0.045692430080671816 0.8276355730921401
715000000.0 0.010609342691949243 0.8326543387650208
720000000.0 0.0638893397303586 0.8341223820705762
725000000.0 0.11477236527704936 0.8335304964743938
730000000.0 0.16562146337833078 0.8318764985694209
735000000.0 0.22037253498336723 0.8282208727037248
740000000.0 0.2771100963011525 0.8172771674493022
745000000.0 0.33330908277275995 0.8003299003282252
750000000.0 0.3849395223391872 0.7768168755630144
755000000.0 0.4318795241172593 0.752884878571729
760000000.0 0.47576226035155816 0.7295394757340826
765000000.0 0.5181432207211824 0.7038205640632922
770000000.0 0.5610738305265893 0.6779807921325935
775000000.0 0.6026440352597647 0.6496582188935188
780000000.0 0.6406561298701017 0.6107285534720603
785000000.0 0.6813170241595755 0.5761653087505869
790000000.0 0.7210075643256759 0.5378140862449948
795000000.0 0.756831772611752 0.493748963871263
800000000.0 0.7858426250302127 0.44823671962526057
805000000.0 0.8051548543284943 0.4056552436680196
810000000.0 0.8253157491683046 0.3705653819632237
815000000.0 0.8583872925405744 0.33518909743781355
820000000.0 0.915286133603807 0.2725107942605282
825000000.0 0.9863052157461173 0.15780394549743818
830000000.0 1.0373827837403524 0.017383142090892187
835000000.0 1.0301927646817428 0.019960581056461004
840000000.0 0.9685184870909129 0.1535715421124424
845000000.0 0.8852782343606576 0.25585723129040244
850000000.0 0.8197333001079128 0.3059966071796337
855000000.0 0.778601116872613 0.32905413974030634
860000000.0 0.7520448048160653 0.35308414774584285
865000000.0 0.7293520433486016 0.38373067310342057
870000000.0 0.704502408127873 0.42030109829305184
875000000.0 0.677198291353024 0.4579807766240406
880000000.0 0.6486783388407428 0.492909203728966
885000000.0 0.6221015982809212 0.5246009007980117
890000000.0 0.599161999268328 0.5561913485495749
895000000.0 0.5724944400080818 0.5928353471049254
900000000.0 0.5413219673049037 0.6340306343560582
905000000.0 0.5020143283625861 0.6752239617362521
910000000.0 0.45773524847410624 0.7140920250976395
915000000.0 0.40881592096215696 0.7476466412704722
920000000.0 0.35731232518045913 0.7790004945000027
925000000.0 0.3002591973709396 0.8069415441623244
930000000.0 0.23732204122711997 0.8276403144172658
935000000.0 0.1746204158345836 0.8380526496066111
940000000.0 0.11861308773065099 0.8418436547371317
945000000.0 0.06786854572887663 0.843526686426428
950000000.0 0.019891656506925433 0.8440718880095048
955000000.0 -0.027078246607031762 0.8428999241986073
960000000.0 -0.0746744318174081 0.8400221680920547
965000000.0 -0.12275566917337354 0.8353347088516775
970000000.0 -0.17058515670131497 0.82590206318093
975000000.0 -0.21688364946624356 0.8139651408737307
980000000.0 -0.26070361740249987 0.799987130057346
985000000.0 -0.3029615415081456 0.7839208242099264
990000000.0 -0.34304454676933976 0.766168067658112
995000000.0 -0.3817111279228994 0.7465714531802441
1000000000.0 -0.41825816902769175 0.7256138108260993
1005000000.0 -0.4529889733630922 0.701018904254529
1010000000.0 -0.48439197260173367 0.6773405516396981
1015000000.0 -0.5139132417960536 0.6540062314883608
1020000000.0 -0.5411078471241537 0.6304300925724481
1025000000.0 -0.567032875864416 0.6072178534341459
1030000000.0 -0.5920335697119888 0.5842321655412479
1035000000.0 -0.6168123429965469 0.5608625955756963
1040000000.0 -0.6415029135136251 0.5369506569097424
1045000000.0 -0.662494055513495 0.5124030882315732
1050000000.0 -0.6862696464888083 0.4868056662491348
1055000000.0 -0.710289690931442 0.4600347434372959
1060000000.0 -0.7345119085859718 0.43197015357608637
1065000000.0 -0.7578722453023903 0.4022893949572243
1070000000.0 -0.7803275892245704 0.370860636769443
1075000000.0 -0.8023189478466687 0.33891279255200507
1080000000.0 -0.8229439785097739 0.30605012220049016
1085000000.0 -0.8434452644092261 0.25465113896140834
1090000000.0 -0.8644629077082919 0.20387250627556297
1095000000.0 -0.8826417407244236 0.1564278738479065
1100000000.0 -0.8974773050936763 0.11401436302756865
1105000000.0 -0.9097786924074972 0.07735577199497726
1110000000.0 -0.9191797058986453 0.048333036369304534
1115000000.0 -0.9296601831796955 0.026454916102463612
1120000000.0 -0.9385572749731095 0.012614063701477067
1125000000.0 -0.9473040988090028 0.006613537662359341
1130000000.0 -0.9560486449314838 0.009177690064701845
1135000000.0 -0.9647415575293727 0.01953465238058873
1140000000.0 -0.9720236956121325 0.03751128542619171
1145000000.0 -0.9785853612373971 0.06311076893476615
1150000000.0 -0.9839688588515083 0.09509209097643816
1155000000.0 -0.9865229153321567 0.13268188428459224
1160000000.0 -0.9880014165306714 0.17545617625262128
1165000000.0 -0.9844059122735316 0.22256771539249173
1170000000.0 -0.977591102412407 0.2733162214829384
1175000000.0 -0.9669872279512536 0.3274952371752215
1180000000.0 -0.9549453137171235 0.3709742261425001
1185000000.0 -0.9438937395536462 0.40728628462678707
1190000000.0 -0.9285542346212391 0.44389273315098754
1195000000.0 -0.9105787040535105 0.4796875534152603
1200000000.0 -0.889839334013126 0.5147848762898293
1205000000.0 -0.8666573453132715 0.5485133723418015
1210000000.0 -0.8420053143491985 0.5815114776671283
1215000000.0 -0.8146345247616088 0.6134254289605927
1220000000.0 -0.7848355226729965 0.6437540856508954
1225000000.0 -0.7539453533101883 0.6726855788030952
1230000000.0 -0.7208306418773545 0.6997542938827641
1235000000.0 -0.6864235820946146 0.7256188598478897
1240000000.0 -0.650531697311296 0.7488789064691422
1245000000.0 -0.6135360455516795 0.770768115618632
1250000000.0 -0.5753435710700794 0.7913114725082487
