# Hz S RI R 50
50000 0.00013641821452770806 0.0007783577521868084
941900 0.0001551583391635293 7.414224032220082e-05
1833800 -0.0001420898055951149 -5.224879788555488e-05
2725700 0.00016785036994560745 4.451919584136224e-05
3617600 -7.472347528065311e-05 -0.00013424939421903005
4509600 2.396939377234668e-05 0.00019097752890397503
5401500 0.000151654967686243 -0.0001035322586143683
6293400 2.6339402875398986e-05 -2.990600769699806e-05
7185300 -5.144659590875937e-05 0.00010690971082644704
8077200 -2.683875015216989e-05 3.203001796637918e-05
8969200 -0.00030999746015052717 -1.1349053299408341e-05
9861100 8.463416882359401e-05 -0.00022621710634639707
10753000 -9.743920747257856e-05 1.6939202032917222e-05
11644900 0.00010046029296040036 -0.0001250129748955737
12536900 0.00012274316309396149 9.213384648796212e-05
13428800 2.4066533139361675e-05 -0.00021993432189024859
14320700 -5.1788319211496814e-05 -0.00011182190858877518
15212600 7.745542862559922e-05 -4.544978142799314e-05
16104500 0.0002615882473342937 -0.00013303236850280414
16996500 -0.0003000928904095605 -4.1926757313490975e-05
17888400 -0.00011587283691583993 3.366540234837582e-05
18780300 -0.00019888308503174856 -6.376467996350944e-05
19672200 -0.0002866915294392499 6.42859928804678e-05
20564200 5.119812412809223e-05 1.399243487157162e-06
21456100 -9.749865287570147e-05 -0.00011855267045819901
22348000 -6.227344866720741e-05 -1.2907328855481967e-06
23239900 -0.0001404707027571996 5.11839381132067e-05
24131800 0.00016017331022825983 1.1985007244962083e-05
25023800 -3.893574216094275e-05 1.0993419942195448e-05
25915700 2.249621500817117e-05 -8.780124899920104e-05
26807600 -8.054428713603284e-05 -0.00019893913048350475
27699500 -0.0001501987624847422 8.387996751943562e-05
28591500 -7.522027229446833e-05 4.549853688244469e-05
29483400 -6.938203817985895e-05 -0.00012185260176901403
30375300 -6.317578253599952e-05 -2.2023080661293254e-07
31267200 -4.212213483177761e-05 -4.3121389668960445e-05
32159100 -2.1598393503070188e-05 -0.00016158632288215308
33051100 -0.00012978993578486816 0.00013005525664575176
33943000 -2.6826955034288384e-05 6.555537547701765e-06
34834900 -9.209824605124978e-05 -9.776036747367421e-05
35726800 -4.645174219768151e-05 -0.00020125324659204833
36618800 0.0001445942009047818 -5.499418429036673e-05
37510700 -3.176166623958265e-05 6.23327588003469e-06
38402600 0.00024175873063945742 -2.3192791393685584e-05
39294500 3.2426564540662994e-05 -0.0001759039801730789
40186400 9.178737200348973e-05 -0.00011796762186149075
41078400 -0.0001769633829314201 -5.816914398277379e-05
41970300 -0.00011213653814340793 -7.655107023329002e-05
42862200 -5.550786273968147e-05 -0.00010390314448456735
43754100 0.00014775185265977032 -0.00011711066304870957
44646100 6.20732538833281e-05 0.00014809481992849157
45538000 0.00015987157476257495 2.728971220385093e-05
46429900 -8.098581973356739e-05 4.403788583126839e-06
47321800 2.326034364066077e-05 3.695603591823902e-05
48213700 -8.033390836255266e-05 4.777135556260926e-05
49105700 0.00016385873918489349 0.00018428023759276704
49997600 -1.868045339393028e-05 6.095050073858668e-05
50889500 0.0001349182736338603 -0.00010376755179159841
51781400 0.00015893371465236554 -0.00015255092431690047
52673300 -8.612232100323995e-05 -4.5440173338623334e-05
53565300 7.842706446799176e-05 -0.00014163635065741228
54457200 0.0001839188806140103 -5.516672557141519e-05
55349100 5.111185154486466e-05 -0.00018343080778984448
56241000 3.872205620149781e-05 0.00011600357464454966
57133000 -0.00018495443766573664 -0.00018915286380234315
58024900 -7.531281084625817e-05 -2.154912205133186e-05
58916800 8.723696620946808e-05 -5.3761061476553756e-05
59808700 0.00011015565061645548 -0.00011139898453792671
60700600 -0.0002318787304928901 -0.00010217000744448828
61592600 1.3629046908002504e-05 -0.00028666876894652225
62484500 3.854621062193591e-05 8.158326978501133e-06
63376400 0.00011608138959145674 -2.8173732035732883e-05
64268300 1.2305247289173173e-05 -0.00020377629794317883
65160300 4.190341359824374e-06 -0.00023894768299888077
66052200 -4.762470300479052e-05 6.461784467343356e-05
66944100 -0.0001312960582961682 -9.948789146809794e-05
67836000 7.900557772407568e-06 -0.0001071551048014879
68727900 6.263263128838508e-05 6.126883299376352e-05
69619900 0.00011129132714068961 -0.00025560879263177217
70511800 0.0002315031338709797 -0.00019632515960451948
71403700 -5.000376511656209e-05 -0.00011699741172734419
72295600 -4.5708792345056926e-05 -7.832717404778699e-05
73187600 -1.0240963357686514e-05 -0.00012119066869153369
74079500 4.0807954210979624e-05 -3.342589512410206e-05
74971400 -8.576259082183991e-05 -0.00012775915356878182
75863300 5.916699274786194e-05 -0.0003094137067254545
76755200 -3.677890514352966e-05 -0.0001682321394483981
77647200 -7.371519494412425e-05 -0.00011846355644167382
78539100 -8.172760767911627e-05 -6.509678365593687e-05
79431000 7.070785494522953e-05 -6.7526005854568e-05
80322900 -0.00015117071865761763 1.4022363455677403e-06
81214900 -5.3912729529693086e-05 -0.000252382436348227
82106800 -0.00012929362399444587 -0.0003691702528100616
82998700 0.00010783790266098481 -0.0002532955041195361
83890600 9.990176692686936e-05 -0.00011799455155462669
84782500 -0.0001378206043027905 -6.520456073626321e-07
85674500 0.00016092669264595056 -7.069701036884554e-06
86566400 4.836414229925492e-05 -0.0001709241940415235
87458300 -0.0002168315160857169 -0.0003569675386416506
88350200 -2.2291269189153617e-05 -1.9053720218659483e-05
89242200 0.00018922093191583295 -0.00030025265671711595
90134120 0.0006733422662567709 6.52300487037795e-05
91026020 -0.00010300418381579648 -0.0003679873417628246
91917920 9.52508100142421e-05 -0.00021553489697588262
92809820 1.4293117858175732e-06 -0.0003279130225309294
93701720 -8.686903659716993e-05 -5.476504922988004e-05
94593720 -0.00012796982216381985 -0.0002656811499157556
95485620 7.441300586118767e-05 -0.00018718122157810672
96377520 -0.00014838549367558257 -0.00043332959038417073
97269420 -5.461896367003592e-05 -0.00012900001337868647
98161320 -9.325526253109893e-05 -0.00012221042567611134
99053320 -0.0002074262492803204 -0.0003726705893459757
99945220 -0.0002536529352411984 -0.00018964991090285573
100837120 -0.00012160490891551342 -0.0003373409759199405
101729020 -0.00010940469823420923 -7.430041121835919e-07
102621020 3.565286788309828e-05 -0.00014899556226026425
103512920 -0.00018227098079584125 -0.00017617199164616663
104404820 -0.00018855579922680458 -0.0003810209786910631
105296720 -0.00010617896752057742 5.6546600986837854e-05
106188620 3.6606863848520746e-05 -0.00016723460130814037
107080620 -7.829345166864304e-05 -0.00022657163713203757
107972520 -0.00015230071976034013 -0.00016659992458758444
108864420 -0.00016473370269623935 -0.00011578465189912604
109756320 -3.208173100314557e-05 6.730276299691729e-05
110648320 -0.00041402352673260064 -6.396391410634647e-05
111540220 -0.00010527775416394824 -0.00012180001742785954
112432120 1.2238062767158967e-05 -0.0001271005267588211
113324020 -0.00031467664848112075 -0.00016183999017484638
114215920 -0.00011245271448353883 5.580168123693107e-06
115107920 -0.0001311062234360628 -0.00028675791686695715
115999820 -0.00012295693647110676 -0.00010873583677211885
116891720 -0.00024740994780189044 -8.85150311522874e-05
117783620 -8.62349697633411e-05 -0.00022643688547441522
118675620 5.055592921935312e-05 -0.00016957088846315306
119567520 -0.00011317167209147708 -0.00020672345530645808
120459420 -0.0003160078171470238 -0.00033348881403846115
121351320 7.092462171064717e-05 -8.093484211448244e-05
122243220 -3.932945553680608e-05 -0.0001638320667632904
123135220 -0.00017204084965873891 -0.00012145126079604527
124027120 0.0002446826365562974 -0.00013724661612347572
124919020 -0.0002454907825906561 -0.0002574808131752978
125810920 1.3944193947787396e-05 -0.0001965549245784526
126702920 5.374275516871658e-05 -0.00023525714312048646
127594820 -0.00015305931684720184 -0.00023168682766688044
128486720 -1.375389648338672e-05 0.0001169941985917363
129378620 -0.00025358297485839033 -0.00010262741991322609
130270520 -0.0004280175882388034 -0.00013257691774700553
131162520 -0.00020094321320433706 -0.0002548863610149023
132054420 -0.00022086339349513322 -0.0001018661039227321
132946320 -0.00013096993722643726 0.000135717556697376
133838220 2.4752288041187198e-05 -0.00016134840716812283
134730220 0.0002730472489582188 -0.0005962715448767065
135622120 -3.103336649625195e-05 0.00024290338203463848
136514020 -6.264346998334532e-05 -0.00013772636699091754
137405920 -2.011680167939121e-05 -0.00017241936160730748
138297820 5.009297277679881e-05 -0.00016690721245639625
139189820 -0.00016133390823723823 -0.00041316046415756897
140081720 -0.0001011580232637149 -3.422564437017609e-05
140973620 -0.00010247620469545748 -0.00022850783792093554
141865520 -0.0001982689908958542 -0.00020333836501903
142757420 -2.65491785437601e-06 -0.00039649324297731344
143649420 9.458542071940876e-06 -0.00019657817528906892
144541320 5.709156193222133e-05 -0.00026182258615672037
145433220 -0.0002679550097802852 -0.00011496871056549029
146325120 -0.00017632333191544233 -0.00013890672188024764
147217120 -0.0002003322164704697 -1.4138790703749274e-05
148109020 -6.947023206679418e-05 -0.0002849081282198611
149000920 -9.740821295566806e-05 -0.00013558578353118486
149892820 -4.779050477629537e-06 -0.0001682189093744171
150784720 -0.00017153892782958491 -0.0005323478177457532
151676720 -0.0003466385392416298 -0.000393526283760652
152568620 -0.00019015798315352836 -0.0002189841837125703
153460520 5.189868623092466e-05 -0.00042355345191385954
154352420 -8.390328900177202e-05 -0.0001340146271212824
155244420 -0.00013819784060493113 -6.283491931134976e-05
156136320 -8.003357746918382e-05 -0.00046113624206194754
157028220 0.00016791283722936539 -0.00033631211839778877
157920120 -0.00010137917145705411 -0.00032373858181535003
158812020 -0.00017556762652685186 -0.00013354242082623787
159704020 8.32061668945511e-05 -0.0003424133007290209
160595920 -0.00015383404430014555 4.2618491836808915e-05
161487820 7.693357775788242e-05 -0.00016681163755602265
162379720 -0.00017769214202707044 -0.0003312789815081291
163271720 -0.00035448855720612556 -0.00021967368409161976
164163620 -0.00031945068219340977 -0.00043370621989041595
165055520 6.6594067870101766e-06 -0.0004151913318754517
165947420 -0.00025759826423153595 -0.000619789969799493
166839320 1.8119507915209325e-05 -0.0002897487324472076
167731320 -0.0002488038727081815 -0.0004763542759638195
168623220 0.0001385613582507726 -0.0003210982315667102
169515120 -6.317943565102785e-05 -0.000227839987568994
170407020 7.04247615704705e-05 -0.0005234462985578872
171299020 0.0003738640607185833 -0.00024114246981102688
172190920 -0.0002477168483003282 -0.0002158782256739158
173082820 -6.843231969672112e-05 -0.000480289802956399
173974720 -0.00010630240999089697 -0.0002484279543417964
174866620 -5.455549462260472e-05 -0.0003823653201930503
175758620 -0.00011833087395197814 -0.0007604358647642427
176650520 -0.00021504777724804276 -0.00034608869772181087
177542420 -0.0002793122588672031 -0.0003700997146562097
178434320 0.00010807642692275935 -0.00018692256744579132
179326320 8.829672380719274e-05 -0.00032760279051901583
180218240 0.0004623906817552233 -9.299077891621277e-05
181110140 2.939463194141661e-05 -0.0001763575619603065
182002040 -4.4132248700051645e-06 -0.00014917074714751856
182893940 -0.00014079423504771767 -0.0004795618128491482
183785840 2.9938007967672e-05 -0.0002911367028340471
184677840 9.358106141620696e-05 -0.00025510670455666454
185569740 0.00020197719644663486 -0.0003793855210708248
186461640 -0.00017039782347546588 -0.0005244534696347184
187353540 2.7695659195108074e-05 -0.00022997121322758976
188245440 -1.8632121337842145e-05 -0.00033144510409544665
189137440 4.8957409814362335e-05 1.804195992993573e-05
190029340 1.0064429175071028e-05 1.9387049661892707e-05
190921240 -2.442118168872898e-05 -0.00029271196925554954
191813140 -0.000109466333561534 -0.00040123666119971
192705040 0.0001829509750882133 -0.0004756274132144622
193597040 0.00031809096307383096 -0.0004369627911195812
194488940 -3.194751477512993e-06 -0.0002959781802911167
195380840 -0.000344494540653532 -0.00030687110038627016
196272740 -6.782408859956758e-05 -0.0006656113471127666
197164640 -0.00014689820066797693 -0.0006816756268463766
198056640 9.889331540401134e-05 -0.0005348197545453466
198948540 -0.00028792839066852115 -0.00014494711643309473
199840440 4.5243777063941466e-05 -0.0004801998515861394
200732340 -0.0001925525152348404 -0.00046215967995124805
201624340 -0.00014220169253708847 -0.00041145987094722507
202516240 -0.00036222411940929047 -0.000387697582583087
203408140 0.00010809098104696916 -0.0005604082968129056
204300040 0.000310185912713039 0.00010384999035580965
205191940 0.00021107723759936458 -0.00025317108428813084
206083940 0.0002776817683861703 -0.0007163635373521132
206975840 -0.00040281327934327726 -0.0002933427176748154
207867740 0.00047004110690461876 -0.0005308464990498101
208759640 -0.00023014817327699568 -0.0006800683235013106
209651540 -0.00016892056721672094 -0.00032187060658658
210543540 -0.0001413659160971139 -0.000566174042093371
211435440 -0.00017833274278109145 -0.0004074192298636594
212327340 -0.00020640915683262887 -0.0005531526972830599
213219240 4.217175057889482e-05 -0.000519142284216196
214111140 0.00020450525475193443 -0.00046883157138670614
215003140 -0.00012943169072434746 -0.0004499958068320321
215895040 -7.577600919739709e-05 -0.0006362003914153528
216786940 0.00013639804885936342 -0.0005774256670210874
217678840 0.000153553651352058 -0.00016246720862983494
218570840 -7.978973236084759e-05 -0.0006145498152818356
219462740 0.0001930966010416885 -0.0003695709669874611
220354640 -0.000577560418198809 -0.0003910985879378001
221246540 6.5337710457342885e-06 -0.0005173983082867739
222138440 0.00010045431553720175 -0.0004127317536399646
223030440 4.149370474135757e-05 -0.0007115925611083503
223922340 0.0003500523864973835 -0.0006063649682642118
224814240 -0.0001328567430882442 -0.00045951332711958206
225706140 0.000126903069189808 -0.0007108870675804116
226598040 -9.890250282965763e-05 -0.001043366921171184
227490040 -0.00020270084738285775 -0.0008098925864720732
228381940 3.4605525213847556e-05 -0.000613598329011068
229273840 6.400530758782548e-05 -0.0005013414173455886
230165740 8.380165356838838e-05 -0.0004652891999697208
231057640 -0.0003175704584282993 -0.0004472844840465788
231949640 -0.00020348349678099188 -0.0008553382384681459
232841540 -0.00028753157478313265 -0.0003721975568956602
233733440 0.00013479423181211213 -0.0008130348893558764
234625340 -9.666451589028845e-05 -0.00045586041714274357
235517340 -4.355009044447562e-06 -0.0003852643335880439
236409240 -0.00021582148209941705 -0.000748455283050566
237301140 0.000555099343537385 -0.0008401511165357969
238193040 0.0002894822530409222 -0.0010226037861598765
239084940 -0.00014707861307881596 -0.0007186226687418507
239976940 -6.193902732430133e-05 -0.0011392299781184687
240868840 -0.00021717549705788596 -0.0007402079906689733
241760740 0.0001079541558993971 -0.0012863730961448787
242652640 0.0004120182708889803 -0.00140615600442667
243544540 0.00021976055747447885 -0.0007437077053657806
244436540 0.00044496560066589514 -0.0008125048276256114
245328440 -5.295492074500029e-05 -0.0008773126442607889
246220340 8.068624698268037e-05 -0.0008053460574427941
247112240 0.00022702759649505925 -0.0008630860009721712
248004140 0.00017800566953005424 -0.0009119981281640449
248896140 -9.121491896486643e-05 -0.0008818154764703319
249788040 7.57811281918086e-05 -0.0008010541890276964
250679940 0.0002816377905847161 -0.0009070379094258998
251571840 0.0002517648668884636 -0.0010203482921624725
252463840 0.0006302950299710561 -0.0014151123637768028
253355740 -0.0001431791558736093 -0.0008320086047654843
254247640 -0.0001274125731734974 -0.0009639502324260866
255139540 0.00022590149799844977 -0.0009119477702292903
256031440 5.804437770696016e-05 -0.0008456774049520814
256923440 0.00029961547760645426 -0.0007710633887428579
257815340 0.0008293856973931007 -0.00114856833804625
258707240 5.810248694705054e-05 -0.0014639342126172073
259599140 3.2862370446965426e-05 -0.0014964599302944345
260491040 -0.0006184330539838525 -0.00031253780216117987
261383040 0.00025354394963997853 -0.0013504805778169612
262274940 -0.00010966157534903748 -0.0010349711595357247
263166840 -0.00040297953849630617 -0.0009951493213077806
264058740 -0.0004923491113065217 -0.0007646610639150493
264950640 0.00013387286643356847 -0.0015327079935396179
265842640 0.0006447240258130688 -0.0012231000409222263
266734540 -1.4478326660126087e-05 -0.0017639302888621425
267626440 4.515641732769621e-05 -0.0013905169870489173
268518340 -0.0003469252061844977 -0.0012725352225804937
269410340 -0.00023602381728800702 -0.0015368335360930346
270302368 -0.0012107962756125865 0.00016133929305449574
271194268 5.8786592907617225e-05 -0.0015773485722289562
272086168 0.00038196229237793785 -0.000817734802570605
272978068 0.00030966528580988307 -0.0021189554679866764
273869968 1.8669614494628532e-05 -0.0021113477124813673
274761968 0.00016448649007051725 -0.0014981313865037931
275653868 0.00017924686013375422 -0.0009963866159405266
276545768 -0.00043441367513644466 -0.00226828218285327
277437668 -2.8656036293822123e-05 -0.001969728086976459
278329568 -0.00036534253537230546 -0.0014229931975123416
279221568 7.870784586261619e-06 -0.002161414437322073
280113468 -0.0006013250849387886 -0.00220320010091801
281005368 -0.00054091665076186 -0.0013055322045290231
281897268 -0.0003708302111983299 -0.0014941309573659907
282789168 -0.0007063511831667567 -0.002149605263726338
283681168 -0.00037755719250793596 -0.0017669089837458552
284573068 -0.00074385791788318 -0.0013842077511867913
285464968 -0.0003600781108599139 -0.0018682979123914164
286356868 -0.00034639866449246126 -0.0020555617903572896
287248768 -0.00032446142282648705 -0.0025830662321037747
288140768 -0.0012816698980165195 -0.002078693157354229
289032668 0.00043498661934113925 -0.0022035546107989946
289924568 -0.0012575073890138554 -0.0023092334389249497
290816468 -0.0016222884882532286 -0.0017036156530467967
291708468 -0.0008432702822922729 -0.0016299837361122402
292600368 2.628709799887762e-05 -0.001233087768372692
293492268 -0.0007266630876723145 -0.003472274349584647
294384168 -0.0005158889129857712 -0.003015749992189286
295276068 -0.00044354761600903277 -0.002785333969995578
296168068 -0.0009026370461804317 -0.002546438526048424
297059968 -0.0010382643138460222 -0.002493300419183254
297951868 -0.0009220466013206437 -0.0024804518475982323
298843768 -0.001988442992778319 -0.002175104601614446
299735668 -0.001297417123004212 -0.002483123700978314
300627668 0.008823640287753896 0.035283124413390037
301519568 0.01112672148921599 -0.001096296880422555
302411468 -0.003947837304268856 -0.0038718901437917704
303303368 -0.002701902739175811 -0.0011814185040142145
304195268 -0.0016531735460002625 -0.0018756626725058465
305087268 -0.0016505691639388314 -0.0011399304505456868
305979168 -0.002760526838055214 -0.0007611291484338727
306871068 -0.0018223459501165882 -0.002344474846803944
307762968 -0.0022873725825455675 -0.0013644602467964798
308654968 -0.000993910817893433 -0.001436329494629112
309546868 -0.002487421644818023 -0.0015140989423707077
310438768 -0.0022694326784138963 -0.0012911746453990326
311330668 -0.0016861940428515407 -0.0008921205756047475
312222568 -0.0019152139223981223 -0.0018712057153112951
313114568 -0.0018690467692106926 -0.0020750785924545704
314006468 -0.0019575276316096167 -0.0022982581907466794
314898368 -0.0014030587566562576 -0.0031466161264417044
315790268 -0.002048427967386301 -0.002764394425948874
316682168 -0.002539837601737818 -0.0011497517126921521
317574168 -0.0014677404921424255 -0.001871850193332956
318466068 -0.001276953170481826 -0.0015302968215397692
319357968 -0.0020086949537706407 -0.0019497363424933747
