!Created with skrf (http://scikit-rf.org).
# Hz S RI R 50.0 
!freq ReS11 ImS11
25000000.0 0.07695469109643024 0.023439319011840543
30000000.0 0.07303562272544716 0.019843339511393707
35000000.0 0.07501328050507863 0.01889771675281402
40000000.0 0.07373297223746426 0.020281756493808336
45000000.0 0.07502952354913937 0.016510039300606835
50000000.0 0.07406215005502315 0.02264307160661579
55000000.0 0.08124222775080686 0.015453701915732641
60000000.0 0.08103296704768913 0.022289768820643797
65000000.0 0.08109687974357957 0.020535726329451418
70000000.0 0.07457823853371312 0.03040445152754734
75000000.0 0.08477321175910749 0.006418769669276351
80000000.0 0.09094569875420791 0.019962430605791108
85000000.0 0.08074453701911666 -0.011534786672752597
90000000.0 0.08243528593651264 -0.011776319150358268
95000000.0 0.08467764719027868 -0.016643791796900644
100000000.0 0.07811303675905885 -0.01586388372358284
105000000.0 0.0659335697700575 -0.04364047782888979
110000000.0 0.033176002697611735 -0.06244756356158214
115000000.0 0.07602570988269583 -0.04631527546756991
120000000.0 0.07767697958973278 -0.028379628514667504
125000000.0 0.09437058495336093 -0.016012420078816657
130000000.0 0.09207122379599958 -0.01711426189303262
135000000.0 0.09209552061708948 -0.01756816013634017
140000000.0 0.08198654541977558 -0.01757639237640674
145000000.0 0.08061442809898826 -0.01801945958373195
150000000.0 0.07954124849519073 -0.01968446893075455
155000000.0 0.07954124849519073 -0.01968446893075455
160000000.0 0.08293900679018419 -0.017765442091171795
165000000.0 0.08882505521228454 -0.01205698089866533
170000000.0 0.07753776933898357 -0.04701404923430115
175000000.0 0.04182233327932607 -0.08597688557848251
180000000.0 0.05264710743432698 -0.09233764793152582
185000000.0 0.016948156462904318 -0.06915682956336243
190000000.0 -0.008292149684182924 -0.11828658205778983
195000000.0 0.036259189133061795 -0.10307837914934238
200000000.0 0.057134070786032894 -0.04763611075196996
205000000.0 0.06600298606610018 -0.03844550523917763
210000000.0 0.07059874256609236 -0.03739588760802595
215000000.0 0.06808378949571439 -0.03364910462145703
220000000.0 0.0713965912484544 -0.015358245764973636
225000000.0 0.08788656256148956 -0.017641239836858343
230000000.0 0.08420023645823428 -0.020230231676923317
235000000.0 0.0802552616119536 -0.022211507012415473
240000000.0 0.07766973984766985 -0.024593540127732235
245000000.0 0.07500156108739477 -0.027520913799495825
250000000.0 0.07234870077187376 -0.031443096989855646
255000000.0 0.07226009625097053 -0.03320537612439695
260000000.0 0.07291309801958006 -0.03592512515306062
265000000.0 0.07444659341301518 -0.036229642473033306
270000000.0 0.07919733825180787 -0.03575896937109726
275000000.0 0.08000304045207031 -0.03417371019708198
280000000.0 0.0781779725648981 -0.036073633288750066
285000000.0 0.07119430071189291 -0.039414928430255826
290000000.0 0.07245544747816883 -0.04006357941154201
295000000.0 0.07639615714132957 -0.040774615477792514
300000000.0 0.07841418185327294 -0.041711116749223835
305000000.0 0.08072236265256835 -0.04221857225121976
310000000.0 0.08099584924374646 -0.043502423574867596
315000000.0 0.08164123287396612 -0.043647308589677414
320000000.0 0.08282019128405227 -0.04394361255042461
325000000.0 0.0827748695662547 -0.04494308721782617
330000000.0 0.08278285779255311 -0.046057425033380006
335000000.0 0.08447636001349938 -0.046864566645169664
340000000.0 0.08693457078358585 -0.04729989700581485
345000000.0 0.0897544023009224 -0.04766299744265098
350000000.0 0.0929938467297828 -0.048657348528375687
355000000.0 0.09797419085753538 -0.04951178980333072
360000000.0 0.10793297756749344 -0.04843909143595842
365000000.0 0.1292301511401564 -0.03975638562193202
370000000.0 0.1581647937698552 -0.02942833945825154
375000000.0 0.16064645793391355 -0.037679286538713386
380000000.0 0.14678491865329896 -0.053744703765897885
385000000.0 0.11567844113396637 -0.04146444016813629
390000000.0 0.09472416180513232 -0.027878836910620503
395000000.0 0.0802143406402876 -0.022713492279521356
400000000.0 0.07309530597898746 -0.02028486177448032
405000000.0 0.06517762186492464 -0.020976449401306076
410000000.0 0.06121881498918731 -0.020044877591626334
415000000.0 0.05982093401479367 -0.017913004224951696
420000000.0 0.05927091571964593 -0.016995661592307663
425000000.0 0.05888288967535578 -0.017564942719349826
430000000.0 0.05901110449034419 -0.018120369222712054
435000000.0 0.060748325034334485 -0.018098317988483117
440000000.0 0.06223170769824835 -0.018552077814778585
445000000.0 0.06267692690906057 -0.020413355308522736
450000000.0 0.062196709203972016 -0.024462323800206975
455000000.0 0.06033997419741542 -0.031010534495051836
460000000.0 0.05619165986855315 -0.040631156096204275
465000000.0 0.054843519407388915 -0.04809647566796655
470000000.0 0.06285301014231814 -0.051097473314036856
475000000.0 0.0741511563958554 -0.05273544957882446
480000000.0 0.08184073360177131 -0.05153786050079514
485000000.0 0.08800421348561646 -0.04724678874805745
490000000.0 0.09576550229613902 -0.03929582194514138
495000000.0 0.1063652901073942 -0.025026108467210793
500000000.0 0.12086531834531199 -0.012191806840880387
505000000.0 0.14403414435056996 -0.018451199433426033
510000000.0 0.16798210586874873 -0.04680664872283946
515000000.0 0.1830461185977289 -0.08723010132264206
520000000.0 0.1822676984181895 -0.14224950633669378
525000000.0 0.14833660000493484 -0.21028053516469894
530000000.0 0.08224664775100485 -0.2658602428231307
535000000.0 0.008059516759960072 -0.26996443324084896
540000000.0 -0.06421793119591405 -0.2331417288418461
545000000.0 -0.09397736604939563 -0.17315684008863963
550000000.0 -0.07550026404013555 -0.14080739737841294
555000000.0 0.02783439352826161 -0.11470315848470304
560000000.0 0.051844531910428954 -0.08443710050202079
565000000.0 0.024898513131557744 -0.17920416717175267
570000000.0 -0.08500520285570858 -0.2666778576561635
575000000.0 -0.14654268865405856 -0.27046063768803574
580000000.0 -0.17294582850059387 -0.23287175562691734
585000000.0 -0.16290524085486596 -0.17796686286807795
590000000.0 -0.16406613694023356 -0.12034230424701688
595000000.0 0.1292300147426121 -0.10290471863673052
600000000.0 0.09787787453369735 -0.12095541386861348
605000000.0 0.05046785138592193 -0.11486002185769723
610000000.0 0.00773337009162499 -0.10004754707409874
615000000.0 -0.02377170641102867 -0.07502877264806933
620000000.0 -0.039446719797570515 -0.0438100206761423
625000000.0 -0.02368800335890657 -0.020067573856657445
630000000.0 -0.01345457119169422 -0.01671020908393992
635000000.0 -0.01015884101624759 -0.018229367045845955
640000000.0 -0.00957743502645168 -0.01983837791948267
645000000.0 -0.009706400592702061 -0.0214274566094469
650000000.0 -0.011174053327198322 -0.023511317271722638
655000000.0 -0.01358018229565329 -0.026087287470960237
660000000.0 -0.016840008662910366 -0.029583635077323242
665000000.0 -0.02079585144967065 -0.03437864336051841
670000000.0 -0.02475131910018387 -0.041030730567627405
675000000.0 -0.02734067555761369 -0.048108740305104446
680000000.0 -0.027392575332316257 -0.05250871885876725
685000000.0 -0.0268871169395574 -0.0560424188737358
690000000.0 -0.026274449360577518 -0.05849060199590758
695000000.0 -0.025788862449937663 -0.06016992419400735
700000000.0 -0.025869567924788773 -0.06154127021243365
705000000.0 -0.026180719554675567 -0.06258702468893203
710000000.0 -0.02663942134433647 -0.06359004237981733
715000000.0 -0.026728432577141848 -0.06459190727480896
720000000.0 -0.02733415665528706 -0.06521647974027737
725000000.0 -0.028689328966260013 -0.06507817624593404
730000000.0 -0.030714830122688438 -0.06451084567953246
735000000.0 -0.03288048317777142 -0.0643648639863978
740000000.0 -0.034949146067728566 -0.06498910460654755
745000000.0 -0.036365296231982445 -0.06617558426464881
750000000.0 -0.03785719153798989 -0.06746072190140827
755000000.0 -0.03887808121475162 -0.06874476820735792
760000000.0 -0.03965873192458253 -0.07009657136848055
765000000.0 -0.04002931317495696 -0.07138977644527598
770000000.0 -0.039968715377042295 -0.07294389282385705
775000000.0 -0.03922855455958554 -0.07443506130182873
780000000.0 -0.03740882175756752 -0.07612535605662242
785000000.0 -0.03463536524702751 -0.07731968951643957
790000000.0 -0.031265482750024734 -0.07676688080513777
795000000.0 -0.029819099876331065 -0.07303303454093214
800000000.0 -0.032950422611926385 -0.06367657469996096
805000000.0 -0.04164102974699821 -0.0470169933360524
810000000.0 -0.04907243944819277 -0.02954401153761359
815000000.0 -0.057453881468065106 -0.021184464277114942
820000000.0 -0.0730032256483839 -0.0196294526579275
825000000.0 -0.08715255933584834 -0.028267141107749277
830000000.0 -0.09480586862405485 -0.04155767470413274
835000000.0 -0.09627942762179477 -0.05033366838744094
840000000.0 -0.09575270614533293 -0.053164013179399
845000000.0 -0.09535956481324548 -0.05231604874108979
850000000.0 -0.09603168388371085 -0.050268193123030824
855000000.0 -0.09773870421911407 -0.04800867816593297
860000000.0 -0.10032503594293406 -0.04639917849162539
865000000.0 -0.10340749886377751 -0.04647317267170391
870000000.0 -0.10652125644062639 -0.048275357919634304
875000000.0 -0.10913603377031142 -0.05010468688789639
880000000.0 -0.11183186732065382 -0.052624082262367325
885000000.0 -0.1142894543506958 -0.055175873133127044
890000000.0 -0.11639600516880118 -0.056921087146768475
895000000.0 -0.11833772320215971 -0.05774273326463176
900000000.0 -0.12054804927201011 -0.05879521211800248
905000000.0 -0.1227416848443457 -0.06034318689984239
910000000.0 -0.12487868589087545 -0.062480075286034324
915000000.0 -0.12688673636280162 -0.06498712368276569
920000000.0 -0.1282970384572274 -0.06801581744298597
925000000.0 -0.12920270003191905 -0.072001934307055
930000000.0 -0.12935276925968725 -0.0762250169325951
935000000.0 -0.12901088552492918 -0.07915091878020969
940000000.0 -0.1284772498197726 -0.08100042077636653
945000000.0 -0.1277941617312573 -0.08207389423322096
950000000.0 -0.12760761318784658 -0.0823636384802275
955000000.0 -0.12759057414787797 -0.08109644518947269
960000000.0 -0.1284833949889657 -0.0790126035505104
965000000.0 -0.12995372854576642 -0.07725293826649927
970000000.0 -0.13203223282896284 -0.07647484600081675
975000000.0 -0.1340845713020954 -0.0764494763377762
980000000.0 -0.13607630581869162 -0.0769255778117891
985000000.0 -0.13804110889445667 -0.07749674048313178
990000000.0 -0.13960411971482986 -0.07770265623040132
995000000.0 -0.1411959387867098 -0.07788005201457184
1000000000.0 -0.142775908079775 -0.07810276216666506
1005000000.0 -0.14443956535822872 -0.07819594799972171
1010000000.0 -0.14604630304598357 -0.078014223612618
1015000000.0 -0.14768458132289383 -0.07737181086852263
1020000000.0 -0.14956922879968818 -0.07624221343134699
1025000000.0 -0.15170721997222789 -0.0750113265271577
1030000000.0 -0.1543794787296542 -0.07399938513030668
1035000000.0 -0.15703354387892018 -0.07349305493112634
1040000000.0 -0.1599312601314866 -0.07345873007968882
1045000000.0 -0.16285411813132614 -0.07394245941664414
1050000000.0 -0.16590037049072037 -0.07476750109038575
1055000000.0 -0.16876368610546597 -0.07612881784673124
1060000000.0 -0.17175204647550452 -0.07787404181352514
1065000000.0 -0.17442439934202394 -0.07993138481489802
1070000000.0 -0.17702016270817963 -0.08228270981285744
1075000000.0 -0.17961858746631532 -0.08475195127036003
1080000000.0 -0.18217152680137177 -0.08743839806473071
1085000000.0 -0.1844752362217016 -0.09021384352639915
1090000000.0 -0.18666174509557165 -0.09278154630654198
1095000000.0 -0.18864703444121897 -0.09529247405556142
1100000000.0 -0.1907458246886845 -0.09765158292378315
1105000000.0 -0.1926738017369519 -0.09987261268198122
1110000000.0 -0.19496390408366188 -0.10201133693304204
1115000000.0 -0.19705052803056894 -0.10406883081839438
1120000000.0 -0.1994222351627493 -0.10621333306244439
1125000000.0 -0.20176254783013395 -0.10850170652146521
1130000000.0 -0.2038912108752739 -0.11070389505091247
1135000000.0 -0.20625564160312249 -0.11310889102302235
1140000000.0 -0.2084630665772477 -0.1153152653123805
1145000000.0 -0.21071093430425142 -0.11752116380344688
1150000000.0 -0.213042317133436 -0.11965157654122316
1155000000.0 -0.2154182584914091 -0.12177854113515148
1160000000.0 -0.21754621756606318 -0.12383468694163466
1165000000.0 -0.2196926364291254 -0.12592101952150905
1170000000.0 -0.22176819674422998 -0.128192798327765
1175000000.0 -0.22357902111378133 -0.13038743137072675
1180000000.0 -0.22502514758521397 -0.13265576643485816
1185000000.0 -0.22614265255673316 -0.13491508920895978
1190000000.0 -0.22692398455771357 -0.13715953200865735
1195000000.0 -0.22746000964460997 -0.13922390375868227
1200000000.0 -0.2278482770700701 -0.14094180275325263
1205000000.0 -0.22768043797299917 -0.14238105942404436
1210000000.0 -0.22736866808015307 -0.1434589458196114
1215000000.0 -0.2270269797803127 -0.14457643811952378
1220000000.0 -0.2264193894828224 -0.14552613536311945
1225000000.0 -0.22585894150655642 -0.14639444849118058
1230000000.0 -0.2251923013967659 -0.1474178530542591
1235000000.0 -0.2243914018437967 -0.14863409698341346
1240000000.0 -0.22342689261408902 -0.15008004419079618
1245000000.0 -0.22224128781005548 -0.15183018803922715
