!Created with skrf (http://scikit-rf.org).
# Hz S RI R 50.0 
!freq ReS11 ImS11
25000000.0 0.08008623417517279 0.02316113709486987
30000000.0 0.07605319187997632 0.019541290220513235
35000000.0 0.07820605023581967 0.018847807936157503
40000000.0 0.07703282234578124 0.01975000747355566
45000000.0 0.0786794850765493 0.015850277071421528
50000000.0 0.07762721432949525 0.022479348787661287
55000000.0 0.08503602275960603 0.01470355645031679
60000000.0 0.08489598926981985 0.02239878783646411
65000000.0 0.08427977500264504 0.020747895383404505
70000000.0 0.07896354189301331 0.029334906363310903
75000000.0 0.08752318527114852 0.006980453469260356
80000000.0 0.09599725843695618 0.02056250492590702
85000000.0 0.08504900010352431 -0.012756187987526037
90000000.0 0.08757104395750694 -0.01286890391037663
95000000.0 0.09055470765864834 -0.017077753693617616
100000000.0 0.0849286300381118 -0.015311679819974798
105000000.0 0.0730917189321531 -0.04128596993186183
110000000.0 0.03832452999078769 -0.06305756837533004
115000000.0 0.07824667234021083 -0.043945906290283096
120000000.0 0.08303077003601057 -0.029467989302190956
125000000.0 0.09935605747906061 -0.01705464074451779
130000000.0 0.09661712687895943 -0.01741898475499533
135000000.0 0.09697954994093251 -0.01795659018365758
140000000.0 0.08795794199920291 -0.018824437071229428
145000000.0 0.08715872512588015 -0.01957813849963877
150000000.0 0.08611493253731205 -0.022158625275328993
155000000.0 0.08625109029487449 -0.022450651887823227
160000000.0 0.09059376529362063 -0.02006756616459468
165000000.0 0.09816215789327339 -0.010681157938628802
170000000.0 0.09021519954818609 -0.04260600830864396
175000000.0 0.04847896719633704 -0.08628261466635945
180000000.0 0.06538883513091677 -0.08255936284181094
185000000.0 0.017791780660771417 -0.06894461272402685
190000000.0 -0.0016768364199829812 -0.12160703968645355
195000000.0 0.05427969444339858 -0.09167236730800858
200000000.0 0.06275225015118718 -0.045843662536130564
205000000.0 0.07623729054928594 -0.04293997669790145
210000000.0 0.08014594512851973 -0.04060760743930484
215000000.0 0.07740619353898617 -0.03609510083585723
220000000.0 0.08073052997181945 -0.01657159789039684
225000000.0 0.09936285029785655 -0.01897245117251052
230000000.0 0.09520441062935048 -0.021542558737404856
235000000.0 0.09118470163258603 -0.023598947191683615
240000000.0 0.08873941885373071 -0.02599966673534442
245000000.0 0.08636842870760833 -0.02896553465280771
250000000.0 0.08374685800625742 -0.03310701364693233
255000000.0 0.08378654265103508 -0.03494562090901093
260000000.0 0.08489166014543431 -0.037725210608050695
265000000.0 0.08675641263624709 -0.038318411785844865
270000000.0 0.09170545883868163 -0.03811697358787786
275000000.0 0.09366450918352819 -0.035355510181409665
280000000.0 0.0929168366699525 -0.03633889977372247
285000000.0 0.08624941129717048 -0.03865351068434115
290000000.0 0.0875583615846149 -0.03894687768555581
295000000.0 0.09082381781852725 -0.039604463726539904
300000000.0 0.092172300977024 -0.04082589694431537
305000000.0 0.09364099259160871 -0.041554648271661575
310000000.0 0.0936060854418455 -0.04335125085273871
315000000.0 0.09423968875229634 -0.043684645885809774
320000000.0 0.09572005907498915 -0.043925145911022256
325000000.0 0.09600964369421083 -0.04503551995236594
330000000.0 0.09632405826175358 -0.04608875866844306
335000000.0 0.09808205808009765 -0.04701409831129379
340000000.0 0.10098938128465569 -0.04709212188537004
345000000.0 0.10449273371130546 -0.04693897731875116
350000000.0 0.10820204594830599 -0.047497377434549584
355000000.0 0.11296513033762967 -0.048370247771164235
360000000.0 0.12241399776384133 -0.04767800406242158
365000000.0 0.14349898017706886 -0.0392299602879938
370000000.0 0.17340229773366791 -0.02631750915439124
375000000.0 0.17598192390556996 -0.03522854483694341
380000000.0 0.16258225183583322 -0.04973741259499188
385000000.0 0.1327750825900505 -0.03890162841599468
390000000.0 0.11278257878159706 -0.027743805602141066
395000000.0 0.09903755929541525 -0.02330200668613212
400000000.0 0.09230868993120164 -0.0197892684180778
405000000.0 0.08451820196829608 -0.019310682956031715
410000000.0 0.08013067383551122 -0.017573891814566922
415000000.0 0.07825643755139815 -0.01514065058977186
420000000.0 0.0778157983542855 -0.014015293583869028
425000000.0 0.07779849483787751 -0.013592003376431964
430000000.0 0.07841842496579926 -0.01375673429461296
435000000.0 0.08023234789113635 -0.013599095149799139
440000000.0 0.08200265083577736 -0.013340288389236591
445000000.0 0.08299219240823756 -0.014424759232235488
450000000.0 0.08293710292706073 -0.018234904713080494
455000000.0 0.08136863139376137 -0.024970090625708534
460000000.0 0.07722288978716474 -0.03532279837085956
465000000.0 0.0751943284677169 -0.04315138359857264
470000000.0 0.08274347320315201 -0.045000864021248234
475000000.0 0.09468467963515707 -0.04471681343543518
480000000.0 0.10256815530719281 -0.04154437999934598
485000000.0 0.1090826181850759 -0.0354009990227866
490000000.0 0.11677911487347509 -0.02552602425915049
495000000.0 0.12760046983858167 -0.015418757383893221
500000000.0 0.14507504753107267 -0.011697945817194766
505000000.0 0.1690294515177781 -0.025895333518463355
510000000.0 0.1905883348320354 -0.05826870148626953
515000000.0 0.20355622954065436 -0.1022001238164052
520000000.0 0.19912019363996916 -0.16066974167997122
525000000.0 0.16091306284756948 -0.229807669964525
530000000.0 0.092097747912266 -0.2836161430794862
535000000.0 0.018885084648532956 -0.2828355808528684
540000000.0 -0.04481832221150106 -0.24686420615363788
545000000.0 -0.0679189082986254 -0.1910549502263031
550000000.0 -0.03639421650745568 -0.1565185704993321
555000000.0 0.0510189891166515 -0.10886441317976354
560000000.0 0.06624923835631136 -0.10739239120030965
565000000.0 0.026176886817466338 -0.2144311279361614
570000000.0 -0.08723277149040982 -0.2905777017484636
575000000.0 -0.13944168784936725 -0.2846358985046671
580000000.0 -0.1588195780845105 -0.24833925292971357
585000000.0 -0.1461109116210252 -0.19760178248920465
590000000.0 -0.14674844575568108 -0.14736443523385412
595000000.0 0.12461845243216454 -0.11075817798702371
600000000.0 0.1058681292652101 -0.13907246434157944
605000000.0 0.06236030398414038 -0.1331855011789039
610000000.0 0.024716954636323608 -0.1205183995822547
615000000.0 -0.0036553362843135284 -0.10016384786654581
620000000.0 -0.015880901420783897 -0.07516520319790125
625000000.0 -0.013329272443057255 -0.05157760681323157
630000000.0 -0.003914952085205031 -0.02558432644388113
635000000.0 -0.0009278335823992953 -0.019747911804435785
640000000.0 -0.0006193801519523701 -0.01886975096957064
645000000.0 -0.0011590478585845755 -0.019508994820378545
650000000.0 -0.0021602762610391773 -0.019789169783784005
655000000.0 -0.003152313163596953 -0.020315795233862153
660000000.0 -0.004025617202510192 -0.021325377664552777
665000000.0 -0.004752090615779188 -0.0232327131426739
670000000.0 -0.004912796130549503 -0.02577822202022347
675000000.0 -0.004578194061518854 -0.028710955823437218
680000000.0 -0.004803076131690562 -0.030671802739603602
685000000.0 -0.006270066345503296 -0.03022387189038888
690000000.0 -0.008213802692628398 -0.028701644264054218
695000000.0 -0.01006070928547839 -0.027492180231903366
700000000.0 -0.011902857636812106 -0.02715408803308754
705000000.0 -0.01339005583374575 -0.027224179997244042
710000000.0 -0.014867601406168399 -0.02778615620859123
715000000.0 -0.016716458463985603 -0.028583880292308624
720000000.0 -0.018614566965656863 -0.028828872163195775
725000000.0 -0.021034261297131682 -0.028929935289272825
730000000.0 -0.02382600731977531 -0.029234400324289762
735000000.0 -0.02650548898646621 -0.030011738441455868
740000000.0 -0.028829598028732573 -0.031308055993965855
745000000.0 -0.03126743065156355 -0.03305282331724032
750000000.0 -0.033055347804917395 -0.0341581579087181
755000000.0 -0.03463728725794673 -0.035345743354118726
760000000.0 -0.03613842184358307 -0.03655712275299006
765000000.0 -0.037397712626265206 -0.03759404102676677
770000000.0 -0.0379421977646521 -0.038355009410175285
775000000.0 -0.03771247040905079 -0.039189055132753774
780000000.0 -0.03684801408274568 -0.0399178291597146
785000000.0 -0.03493046505964169 -0.04014043605289472
790000000.0 -0.03182351151166229 -0.037898909706109554
795000000.0 -0.029142141373729266 -0.0329044664623285
800000000.0 -0.027320331177321053 -0.025998620953510576
805000000.0 -0.0292157676388456 -0.022466694635841212
810000000.0 -0.03949241498575956 -0.02704102090085225
815000000.0 -0.05808384017266092 -0.028870985342402504
820000000.0 -0.07796764347077689 -0.024897643779664913
825000000.0 -0.09578079974866426 -0.0156503790604153
830000000.0 -0.10604886902019524 -0.012495409363008433
835000000.0 -0.1098795162427909 -0.014173363109520706
840000000.0 -0.11044487618690461 -0.015718633584798636
845000000.0 -0.10983264509382788 -0.01547506962236539
850000000.0 -0.10971564640986987 -0.014444338874274968
855000000.0 -0.11070238287927021 -0.013788710692639417
860000000.0 -0.11293161248297795 -0.01372622732196879
865000000.0 -0.11546643046859971 -0.014812074748339357
870000000.0 -0.11759250392789518 -0.01627547247199601
875000000.0 -0.11995553025335513 -0.018270078980770394
880000000.0 -0.12180537150273862 -0.02009922911588235
885000000.0 -0.12327140394946129 -0.02087192839050307
890000000.0 -0.12477897054511516 -0.020634650368929662
895000000.0 -0.12692867043134534 -0.02021708695190947
900000000.0 -0.13006721460626613 -0.020507551343563437
905000000.0 -0.13341859487063099 -0.02191987007657373
910000000.0 -0.1365981074516077 -0.023913894073124557
915000000.0 -0.13909932316104032 -0.026383679989570905
920000000.0 -0.14148422428365606 -0.02958336673525336
925000000.0 -0.14325272999888022 -0.0339955349430607
930000000.0 -0.1442265290330901 -0.03851051565183544
935000000.0 -0.14442601976414624 -0.04165912285797924
940000000.0 -0.14427595385331318 -0.04339467315875136
945000000.0 -0.14412506699258978 -0.0432944354428153
950000000.0 -0.14451295360165167 -0.04135654656202131
955000000.0 -0.14572256827355476 -0.038256785209912596
960000000.0 -0.14804856235433778 -0.03543401874609381
965000000.0 -0.1513869194272169 -0.034366479499699946
970000000.0 -0.15502893990798694 -0.03465307368490583
975000000.0 -0.15807452511022232 -0.03542075585051958
980000000.0 -0.1609310742847998 -0.03644451138812779
985000000.0 -0.16368245946843782 -0.03730793179751125
990000000.0 -0.1661308355480137 -0.03795750287839468
995000000.0 -0.16842177161144636 -0.03857373505951161
1000000000.0 -0.17075108935219035 -0.03916995492659987
1005000000.0 -0.1729549212546596 -0.039548430497399645
1010000000.0 -0.17490162151798463 -0.039319564809174
1015000000.0 -0.1770030778403269 -0.03846348588418725
1020000000.0 -0.17915943673179544 -0.03739572362889296
1025000000.0 -0.181569859387078 -0.03618238268552452
1030000000.0 -0.1845349470261444 -0.03556923256486956
1035000000.0 -0.1874114993270744 -0.03561507451485524
1040000000.0 -0.1907453045156508 0.035869328173560054
1045000000.0 -0.1937935806327987 0.03672278046318134
1050000000.0 -0.19726470009670338 0.038094322313412636
1055000000.0 -0.20070530654954327 0.039959184609369994
1060000000.0 -0.20409594119396524 0.04237769702693444
1065000000.0 -0.20747431525498056 0.04512293168249313
1070000000.0 -0.21032855170250853 0.04817166896653142
1075000000.0 -0.21343154746855014 0.051397999063122715
1080000000.0 -0.21648472374297734 0.05498011578678236
1085000000.0 -0.2192930689664079 0.05859534419618946
1090000000.0 -0.22183487944812777 0.06227142750357879
1095000000.0 -0.22414426561897585 0.06584173675759984
1100000000.0 -0.22671500513855783 0.06953012990106225
1105000000.0 -0.22914352088836418 0.07282068095984555
1110000000.0 -0.2315985000797182 0.07610092392594216
1115000000.0 -0.23404113609685243 0.07949181784971207
1120000000.0 -0.23652682977832454 0.08283051778388982
1125000000.0 -0.23893973823744122 0.08644781312727716
1130000000.0 -0.24161470677469618 0.0894239370100002
1135000000.0 -0.24440138677605175 0.09220537704553747
1140000000.0 -0.2469577352256178 0.0948476494830577
1145000000.0 -0.24956477111265468 0.0974518042245729
1150000000.0 -0.2522251896790316 0.1000158159535288
1155000000.0 -0.2549237893409694 0.10258208612903341
1160000000.0 -0.25760685679387213 0.10528479051141879
1165000000.0 -0.259990912282686 0.10795767030861604
1170000000.0 -0.2623294500397887 0.11081229817671898
1175000000.0 -0.264617805921766 0.11385294700003526
1180000000.0 -0.2665438940102708 0.11694910850408893
1185000000.0 -0.2677873770569265 0.11995539132290621
1190000000.0 -0.26899614087782825 0.12304248744063635
1195000000.0 -0.2696127076418078 0.12577976332119825
1200000000.0 -0.2699236448518664 0.12834241046206452
1205000000.0 -0.2699746504126253 0.13062712692080566
1210000000.0 -0.26969954411854324 0.13276710162717292
1215000000.0 -0.26905216516792696 0.13484877644335735
1220000000.0 -0.26805645220014535 0.1368173911594985
1225000000.0 -0.2674024433228576 0.13884518833140924
1230000000.0 -0.26637747971153825 0.14080160269097647
1235000000.0 -0.2652135282136375 0.1429819480574128
1240000000.0 -0.26398104667499867 0.14524482783972287
1245000000.0 -0.262497246125928 0.1479095966937999
