!Created with skrf (http://scikit-rf.org).
# Hz S RI R 50.0 
!freq ReS11 ImS11
25000000.0 -0.0014545379201209296 0.002081270699028392
30000000.0 -0.0003422588681413763 -0.0014830442543366032
35000000.0 6.271068899421639e-05 -0.002759402186048813
40000000.0 -0.0011344233691212013 0.0025855250484532154
45000000.0 0.0006981006801543982 -0.007947373150855818
50000000.0 -0.002825216469807018 0.007287752240012515
55000000.0 -7.149047610574555e-05 -0.006118501796358609
60000000.0 -0.0014711977737308646 -0.0008223552407451255
65000000.0 0.0010239403131423186 -0.006149258660397283
70000000.0 -0.010388928259619887 0.02563700993247304
75000000.0 0.0013792580001029675 -0.012876795413282141
80000000.0 -0.009995511506624644 0.035156528623319735
85000000.0 -0.0029317753301281585 0.0026767443160301994
90000000.0 -0.0029421582226037274 0.004105632394025169
95000000.0 -0.0020457771059584073 0.01914575091072323
100000000.0 0.00167187259825069 0.033178242941074965
105000000.0 0.008300057754389231 0.02351470019912383
110000000.0 -0.019293984537495965 -0.019718797801133357
115000000.0 -0.007527837874885035 -0.009337655028087859
120000000.0 -0.004832388041986935 -0.012384344217498556
125000000.0 -0.003803641769489982 0.004740167534295084
130000000.0 -0.0038697528011229637 0.005493737763459902
135000000.0 -0.004105919231218169 0.005550431282734111
140000000.0 -0.003940655263899612 0.006213545659501414
145000000.0 -0.0038264535599512872 0.006135175042864316
150000000.0 -0.0036722136066900113 0.006013010435092582
155000000.0 -0.0035753841697296757 0.004802159260670903
160000000.0 -0.0029988354435024484 -0.00020304555115161198
165000000.0 -0.004391214656058726 0.027889610373456712
170000000.0 0.015894901072304304 0.05231751294530542
175000000.0 -0.003660121813938072 0.006885132700261962
180000000.0 0.00391810241422004 0.016019959109012945
185000000.0 0.018054068906144326 0.018447168104473638
190000000.0 -0.030214804391223184 0.0019930016684006485
195000000.0 -0.03630321823831738 -0.03146377226277443
200000000.0 -0.006269457356841687 -0.002722673110891933
205000000.0 -0.001966882835774425 0.00527203017168033
210000000.0 -0.0020925274092334772 0.0052978311052350084
215000000.0 -0.0019565236804468256 0.0059484013224563445
220000000.0 -0.0013600322724414832 0.007742574843529557
225000000.0 0.015457904380766288 0.01709525107140073
230000000.0 -0.0025281136060065768 0.013274392853260219
235000000.0 -0.0018186169311256578 0.012945831674633002
240000000.0 -0.0016836781026894482 0.014204652856119394
245000000.0 -0.0017122392428507716 0.016268632213564425
250000000.0 -0.0014005553948335109 0.015074350854477732
255000000.0 -0.0011506518912641484 0.01513479674979932
260000000.0 -0.0007333487847374642 0.014776891817972322
265000000.0 -7.839446445798148e-05 0.013166286895384911
270000000.0 0.0002289874789230678 0.013087541087701944
275000000.0 0.0001576571025694723 0.014313420939702465
280000000.0 -0.00026577854103126963 0.01990252003292887
285000000.0 0.000659829073209453 0.015589064192246977
290000000.0 0.0011873777146414882 0.014832646047420198
295000000.0 0.00084128317388317 0.01626151036855783
300000000.0 0.0008499346500313032 0.016227785580378216
305000000.0 0.0010498241509431933 0.018037427378228204
310000000.0 0.0014372201595436035 0.017602272329646902
315000000.0 0.0016020189636351961 0.01762003104042681
320000000.0 0.0016852777447337736 0.018208979991764712
325000000.0 0.0019356763815883277 0.01885028463971404
330000000.0 0.002498737403108117 0.018597385703718546
335000000.0 0.00282569720988865 0.018345711702841425
340000000.0 0.003359342100349036 0.018393366030027284
345000000.0 0.003674554069754296 0.019202659748327862
350000000.0 0.004152828398577418 0.0198161945227587
355000000.0 0.004462680723782947 0.018213498196993458
360000000.0 0.006041518654388817 0.010616191347778043
365000000.0 0.007064651204950145 0.011511864586405716
370000000.0 0.007191039672079846 0.03028882712112433
375000000.0 -0.0027498094829176145 0.040585691570928
380000000.0 0.0027562029176572134 0.024984427917600423
385000000.0 0.005389705546088544 0.01854310064211488
390000000.0 0.005506017934750529 0.021466339199643157
395000000.0 0.006519148889398738 0.02110316846355565
400000000.0 0.005608272619624197 0.024453900716164257
405000000.0 0.006601229901872639 0.02404629513177299
410000000.0 0.0076027795077592 0.0228162841052112
415000000.0 0.008195307228021642 0.023873835293775264
420000000.0 0.008164660265235817 0.024709762768610734
425000000.0 0.008373990571153504 0.024897760408256635
430000000.0 0.008576935158602458 0.025549675889726915
435000000.0 0.008993636787102098 0.025665165854125552
440000000.0 0.008539539879734409 0.02768431501733109
445000000.0 0.00873195331849519 0.02841096801173146
450000000.0 0.008658332526029926 0.030253908281765003
455000000.0 0.009532517967192233 0.032796492124923526
460000000.0 0.01084262124194154 0.031088810864151054
465000000.0 0.011376637115747955 0.025267599969338403
470000000.0 0.012085531330428001 0.023281483894791143
475000000.0 0.012485741608839425 0.023463352749868487
480000000.0 0.013302656793743928 0.023121712639801947
485000000.0 0.0141979009573764 0.021955103591630134
490000000.0 0.016496702195660518 0.01974626533274928
495000000.0 0.01667488690874619 0.021939450640558713
500000000.0 0.012928925557047097 0.03105323149123357
505000000.0 0.009985022603994448 0.039342145043891455
510000000.0 0.010399503828416118 0.04517765463074431
515000000.0 0.009490807923164396 0.05433015172418718
520000000.0 0.012988041713240306 0.06983665242510437
525000000.0 0.022880515489040854 0.07778811330414491
530000000.0 0.03332665522135883 0.07183751762180532
535000000.0 0.03951933544744696 0.06202422059932153
540000000.0 0.05332209130781017 0.03228947652250147
545000000.0 0.044140662265574504 -0.020937681368308148
550000000.0 -0.012206866733962055 -0.07908622670494166
555000000.0 0.04654068623429804 -0.034908162059034416
560000000.0 0.04736739903092056 0.04782232427913709
565000000.0 0.06252941696858759 0.06813034002016141
570000000.0 0.08450709889341305 0.019125390844358187
575000000.0 0.07735051393179336 -0.005575882042957864
580000000.0 0.07186648291724836 -0.0006740974055460813
585000000.0 0.07873230362374474 -0.0036545772330474346
590000000.0 0.05384966465573234 -0.004967652757069424
595000000.0 0.03755897703350233 0.07280034478221745
600000000.0 0.030037099099881615 0.06651084869122201
605000000.0 0.016547709125555088 0.06626897594012955
610000000.0 0.028171206390840142 0.060711107324393415
615000000.0 0.037696355573186416 0.05327320554133807
620000000.0 0.03351750859226109 0.04113886032804755
625000000.0 0.01830249531855746 0.04008016772712439
630000000.0 0.01893408466405471 0.03422307009792041
635000000.0 0.021142009997906427 0.03229975004655361
640000000.0 0.022411440521176534 0.032131214058023785
645000000.0 0.023648564031591882 0.032218216236352584
650000000.0 0.02436592054344537 0.03281505458877759
655000000.0 0.024301123196922483 0.032558111562613054
660000000.0 0.02356052314601714 0.03350104487451347
665000000.0 0.023241253670307827 0.034212338300402274
670000000.0 0.023097666860780103 0.03189335073776009
675000000.0 0.023176020320468813 0.031087561990753368
680000000.0 0.02311436473365924 0.031056101216253178
685000000.0 0.023294508110896842 0.031166290975421868
690000000.0 0.023892936013767966 0.03155617523621197
695000000.0 0.02444799909936918 0.032121313858311976
700000000.0 0.024614249558564876 0.032133186130308196
705000000.0 0.025229253421754687 0.03209472594579081
710000000.0 0.02662205852938105 0.032894915313662024
715000000.0 0.026506695900972238 0.03227308589767135
720000000.0 0.027352619098245615 0.03258181140626131
725000000.0 0.028439198073109358 0.03289485113718218
730000000.0 0.02877800207929786 0.032756410506579466
735000000.0 0.02907718051210415 0.03237442769124407
740000000.0 0.029203869133838697 0.03221839075840697
745000000.0 0.029148145310356637 0.032042173684821165
750000000.0 0.029416585527972938 0.03212914966553891
755000000.0 0.029675894839151278 0.0322611592799909
760000000.0 0.029692651635194876 0.03215859887928274
765000000.0 0.02972771598425871 0.03172317315864889
770000000.0 0.029950355774823027 0.03142615571837257
775000000.0 0.02956336570459086 0.03063657676552737
780000000.0 0.029453714869504728 0.02997256788429227
785000000.0 0.02943004583040806 0.029822864381643215
790000000.0 0.03099552314018824 0.03127046802532663
795000000.0 0.03437370242944013 0.03441918626932675
800000000.0 0.04085495985215465 0.03735382256629637
805000000.0 0.044306429059602165 0.03519713423192724
810000000.0 0.042246956172502084 0.030858284063821538
815000000.0 0.038334095976142325 0.027902714108835366
820000000.0 0.03259241719587484 0.027040229481556335
825000000.0 0.02886507520635398 0.024974750230334214
830000000.0 0.03136370259080983 0.025261835258788737
835000000.0 0.033987296069363966 0.026686293189459018
840000000.0 0.035520566408201386 0.027711834502337093
845000000.0 0.036193926632300144 0.028220321596974157
850000000.0 0.036455620750128766 0.028085811730416965
855000000.0 0.0372663215379416 0.0280535583374769
860000000.0 0.037516549719956875 0.02753085179266687
865000000.0 0.037217155471783614 0.02717496430533574
870000000.0 0.036686056336283496 0.027124117324770658
875000000.0 0.03679288240273994 0.02727880543148234
880000000.0 0.03707458599430483 0.02714367522640046
885000000.0 0.0371998551036643 0.027145262130982187
890000000.0 0.038040736031763 0.027469780179799674
895000000.0 0.03825515832181959 0.026985248757902286
900000000.0 0.03815033249607737 0.02625556761754283
905000000.0 0.03854441179706904 0.02609884073979618
910000000.0 0.03945351020035544 0.02608686446645911
915000000.0 0.040157682802362885 0.026091795453723032
920000000.0 0.03894647031557807 0.02494685724401581
925000000.0 0.038553698997235535 0.024394080568010318
930000000.0 0.03909664339021203 0.02407263781233647
935000000.0 0.040190560934135006 0.024178569678273795
940000000.0 0.040404384372602145 0.023796884754869685
945000000.0 0.04086796908783122 0.02367924778984712
950000000.0 0.04188299373873902 0.024216350657595115
955000000.0 0.042321430695958326 0.024183524279699664
960000000.0 0.042729820099845245 0.023572308183586438
965000000.0 0.043225068734613944 0.022908580515898558
970000000.0 0.04323804612271996 0.02196450825826242
975000000.0 0.043402890173534506 0.021191888715025323
980000000.0 0.04393674737660472 0.020879698219089568
985000000.0 0.044132304302345854 0.02050289509636395
990000000.0 0.04483421117724745 0.02027692563068599
995000000.0 0.04504530957120381 0.019636304487051837
1000000000.0 0.04594243754056762 0.019112559350638533
1005000000.0 0.0459983794900829 0.018741642367594513
1010000000.0 0.048097660047145996 0.019214013481434727
1015000000.0 0.047875278516372397 0.018810937989085577
1020000000.0 0.04895112203398427 0.018894830593119555
1025000000.0 0.04924088132848489 0.018393946687359053
1030000000.0 0.04874309174050248 0.01751709683651695
1035000000.0 0.04921936249016545 0.017288515659626302
1040000000.0 0.04938639065260768 0.01677125235790794
1045000000.0 0.049402601678029234 0.016033007999591398
1050000000.0 0.04935344201638009 0.01549712971387604
1055000000.0 0.04920512224176951 0.015168470031331982
1060000000.0 0.0492048583263881 0.01459665833670315
1065000000.0 0.049038644890430805 0.01413519221550491
1070000000.0 0.049469770623082526 0.012958716277293059
1075000000.0 0.0496739262677823 0.0119419075532409
1080000000.0 0.050478171052747545 0.0116232374519179
1085000000.0 0.05064788733781245 0.011074148864904432
1090000000.0 0.05084726606454629 0.0105569373708429
1095000000.0 0.05165716011427038 0.010192725008947967
1100000000.0 0.05241240027843175 0.010198812433004745
1105000000.0 0.052826540782275805 0.009623043648495255
1110000000.0 0.05294997398994589 0.00925003395401594
1115000000.0 0.051772400636638016 0.008451864128258213
1120000000.0 0.05344918154591127 0.008420762846331864
1125000000.0 0.05399415369552099 0.008437424590991352
1130000000.0 0.05440411691329561 0.008066113241154318
1135000000.0 0.054610495623182764 0.007903018870847947
1140000000.0 0.054606527341146266 0.007709988184449165
1145000000.0 0.05445726731507983 0.006923183855698137
1150000000.0 0.0547091450515918 0.0063948298281044785
1155000000.0 0.05473685710875886 0.005946223946122445
1160000000.0 0.05548482097166538 0.005702797357681089
1165000000.0 0.055377552049687695 0.005342902237051819
1170000000.0 0.05558175589174513 0.004666752083693285
1175000000.0 0.05613396493462672 0.003981855223064046
1180000000.0 0.05706956064472349 0.0033518477152535836
1185000000.0 0.05735899120233198 0.002575661040970373
1190000000.0 0.05757707609192611 0.002196754785522989
1195000000.0 0.05846462667177482 0.0022840285039694708
1200000000.0 0.058616481814433574 0.0021555857453933736
1205000000.0 0.058815963268152 0.0014970430064940171
1210000000.0 0.05832785056184028 0.0007113885452695173
1215000000.0 0.05997704330854811 0.0004602446012946515
1220000000.0 0.06015759696300574 -0.0002115547321900127
1225000000.0 0.06107837406659286 -0.0008011264300293933
1230000000.0 0.0612582816072777 -0.0012373405055496889
1235000000.0 0.06146432343266445 -0.001691510000584949
1240000000.0 0.06204107523573535 -0.0023512820221652173
