!Created with skrf (http://scikit-rf.org).
# Hz S RI R 50.0 
!freq ReS11 ImS11
25000000.0 -0.002098092501585061 0.0021427255473587363
30000000.0 -0.0006648529811634496 -0.000578058476791321
35000000.0 -0.0004957560618964324 -0.000436867295286171
40000000.0 -0.0019591264312258244 0.0032604095557798515
45000000.0 0.0019221773911691775 -0.006465846523694658
50000000.0 -0.004340493317318686 0.006846120346124918
55000000.0 0.0006910739395083465 -0.0050615685783671135
60000000.0 -0.0007663194913725135 -0.0017923905199265164
65000000.0 0.0011660684733322546 -0.004700149735848626
70000000.0 -0.012144911513730247 0.021806437408421822
75000000.0 0.00260088444940558 -0.011388333769717159
80000000.0 -0.014089567238185663 0.03723281505935275
85000000.0 -0.003024603404559456 0.001987631932067621
90000000.0 -0.0034527190352040826 0.0045379867577998514
95000000.0 -0.004569932320514086 0.016812773697288806
100000000.0 -0.001883561968967551 0.03463133983890457
105000000.0 -0.0008285553951559027 0.017254393498529867
110000000.0 -0.015994763877734963 -0.02367183430980198
115000000.0 -0.003844973357406592 -0.008874879453394843
120000000.0 -0.0028408884650156785 -0.009839259878856296
125000000.0 -0.003697535049894979 0.003358479987797258
130000000.0 -0.00397950765974342 0.0047137627387346115
135000000.0 -0.0044996557618776495 0.006520036468125285
140000000.0 -0.0043959011373365525 0.006548401616489338
145000000.0 -0.004747508724676441 0.007336792148780361
150000000.0 -0.00444166843851658 0.006054937329669484
155000000.0 -0.00376182476553108 0.003764630195014558
160000000.0 -0.001816151869938304 -0.001466091332435148
165000000.0 -0.010882398038065622 0.03018819159062393
170000000.0 0.005539786983575629 0.05669858207588698
175000000.0 -0.0018022718338773919 0.011542522496044677
180000000.0 -0.004706596965174378 0.004607560757126462
185000000.0 0.012699578701491986 0.023904710657623576
190000000.0 -0.035210554596938004 -0.02719635675119758
195000000.0 -0.012439012919936293 -0.02839384001412901
200000000.0 -0.0026644703583004747 0.0002403471859890084
205000000.0 -0.002310696443845142 0.005616601011524834
210000000.0 -0.0022449697273891067 0.006105854974294375
215000000.0 -0.002186851505747836 0.00668969017987615
220000000.0 -0.0025245890247780067 0.008837950734080821
225000000.0 0.010962852540687795 0.02167792412147162
230000000.0 -0.004055778179173353 0.013131261498700676
235000000.0 -0.003438721271959863 0.013545063527383001
240000000.0 -0.0035557460674129765 0.014243188086332806
245000000.0 -0.003960794164953915 0.015786726028567757
250000000.0 -0.0029367396828121894 0.013876488063603226
255000000.0 -0.002819764835104835 0.014477867751560503
260000000.0 -0.0017870279207148898 0.013422116424891203
265000000.0 -0.0009584144885489698 0.012994500052665295
270000000.0 -0.00014274567515761005 0.011988622301146758
275000000.0 -0.0018532146353571477 0.015588602682570049
280000000.0 -0.0028020707153268015 0.01833720275641585
285000000.0 -0.0004343545870799659 0.01482022746484822
290000000.0 -0.000171848806542238 0.01473855203502692
295000000.0 -0.0007310663763801101 0.015959025240446206
300000000.0 -0.0006226551952019238 0.01606019206815059
305000000.0 -0.000820658329290555 0.01759845010592226
310000000.0 0.00012567093120648132 0.016794554913155457
315000000.0 0.000629063270425459 0.017230153654459415
320000000.0 0.0003627748702899891 0.017797333523789476
325000000.0 0.0004903927790040064 0.018220930877772788
330000000.0 0.0011052856033021141 0.0180717914108893
335000000.0 0.0020651730588955863 0.01785430624774951
340000000.0 0.002582840865154451 0.018028461982558253
345000000.0 0.002791844293344961 0.018790247846149313
350000000.0 0.003212331977101024 0.01931519829442028
355000000.0 0.004612535842331969 0.01768278477901783
360000000.0 0.010390137427074023 0.011278912511047304
365000000.0 0.015153921791245986 0.009593855178746058
370000000.0 0.003103550521898618 0.02783297487346323
375000000.0 -0.00288154586374631 0.032820568352667515
380000000.0 0.01042188688417836 0.025092418532846508
385000000.0 0.008474773237351713 0.01989882125090077
390000000.0 0.0076071904159749695 0.023925622661717674
395000000.0 0.004616074566064977 0.021860029375001942
400000000.0 0.004094215876673225 0.0224400927580758
405000000.0 0.005868334790646593 0.02210287493971258
410000000.0 0.007137702557926652 0.021783796815929346
415000000.0 0.007138886889238971 0.02277332147819839
420000000.0 0.006747149750982777 0.023021539633075218
425000000.0 0.0069269177259074985 0.023031016422338138
430000000.0 0.007716470674452181 0.023058405643251824
435000000.0 0.0077451035433358795 0.02340389600499012
440000000.0 0.006749542387761404 0.024296316374762636
445000000.0 0.005639661862823733 0.02518887073244698
450000000.0 0.0036542845493896838 0.026823433309984095
455000000.0 0.0023280511939605397 0.029221912306323546
460000000.0 0.005518346162501728 0.02797826666806427
465000000.0 0.010646168413946666 0.023742459516008563
470000000.0 0.012229622396209873 0.02283356668513429
475000000.0 0.01301976169421993 0.022687669631282756
480000000.0 0.014927711135954987 0.022114696700282745
485000000.0 0.01702988896012147 0.021866131165377313
490000000.0 0.017405244830526197 0.02255321723607094
495000000.0 0.013236262592737798 0.024419856533310302
500000000.0 0.002827850325042673 0.027767213952102465
505000000.0 -0.0044333712251415774 0.031432849953779
510000000.0 -0.00778498290150928 0.03664460414702711
515000000.0 -0.01727802177357647 0.04429544070919719
520000000.0 -0.024228536591874378 0.05813055418449026
525000000.0 -0.022163531774649498 0.07151346464860876
530000000.0 -0.004685170613735357 0.06447991408244548
535000000.0 0.007815034732339604 0.047558694564213924
540000000.0 0.04551570707481534 0.05595370002514963
545000000.0 0.07529423690233064 0.0019490513872675655
550000000.0 0.057512515444438195 -0.055262268853304146
555000000.0 0.07770526945240713 0.01236002517567679
560000000.0 0.02713357099250177 0.06238150412263448
565000000.0 0.0411604865356128 0.08045977845603103
570000000.0 0.08584468615673413 0.055080628646493934
575000000.0 0.08997638405416442 0.043286689859364
580000000.0 0.07467062168612701 0.03514800337456558
585000000.0 0.04425881465701764 0.04585125917384429
590000000.0 0.050090798763054334 0.03078874589677702
595000000.0 0.010426103723622016 0.07995979372305091
600000000.0 0.011596649920467869 0.07182315020004382
605000000.0 -0.00013373798154986405 0.04672740951856452
610000000.0 0.007065069877536037 0.04651491925048497
615000000.0 0.01576999649831219 0.04039053651576026
620000000.0 0.02046072379180927 0.03074280418709746
625000000.0 0.022842302574960026 0.025741882928782704
630000000.0 0.022583695019118284 0.02759770088265585
635000000.0 0.022398478863497422 0.029272418083375776
640000000.0 0.02262314720602521 0.03004461210390478
645000000.0 0.02314008809224532 0.03021037584833599
650000000.0 0.024605780255625417 0.030526312698874125
655000000.0 0.02399982249288536 0.029809436213276162
660000000.0 0.024575894674590433 0.029731282866703037
665000000.0 0.025228246793488993 0.02926571980142302
670000000.0 0.025748299291999278 0.028784422252023774
675000000.0 0.02606458256964781 0.02955881915740647
680000000.0 0.025844797149839577 0.030416814791475736
685000000.0 0.02595476652398773 0.03063454361382895
690000000.0 0.026672142512046658 0.030719557145537653
695000000.0 0.02738991061723364 0.03076033968385573
700000000.0 0.02729299398062931 0.0303235025822925
705000000.0 0.027959300877411344 0.03030621963686479
710000000.0 0.02928826715556533 0.031126360755471025
715000000.0 0.028747757380358115 0.030497797736561433
720000000.0 0.029037142037884517 0.03064715739451455
725000000.0 0.02975140975967007 0.030615085658444265
730000000.0 0.030234323636923875 0.030352714613610582
735000000.0 0.030763489658318446 0.030045710236616265
740000000.0 0.031184652740015608 0.03000289045918413
745000000.0 0.031221551961343415 0.029696536313549245
750000000.0 0.031632619539867665 0.029798824338496663
755000000.0 0.03226917849014363 0.029830771982552944
760000000.0 0.032330716746538916 0.029568396178003754
765000000.0 0.032785163629563366 0.029052176338501958
770000000.0 0.03358801798222026 0.02878023656455149
775000000.0 0.03397145757131355 0.02804822712399417
780000000.0 0.034218682397470265 0.02794229128252607
785000000.0 0.0341501464114582 0.028522708040917902
790000000.0 0.03473248900074686 0.029966455728641518
795000000.0 0.035033419796816914 0.03061785973387809
800000000.0 0.03564033042117549 0.03017964698499555
805000000.0 0.036270304376279136 0.030899032934059757
810000000.0 0.03674602757608443 0.033168905327195915
815000000.0 0.03839856927504636 0.035702585674808246
820000000.0 0.03943724893383464 0.034334509589996384
825000000.0 0.038179456314290254 0.028489526635366292
830000000.0 0.03832282470881601 0.026173703112486058
835000000.0 0.03916835939466634 0.02646649730541553
840000000.0 0.039526329604838525 0.027426771673470535
845000000.0 0.039758896207916394 0.028176680680295864
850000000.0 0.03936795208552632 0.027995766012325975
855000000.0 0.03953385348478629 0.027402316522858877
860000000.0 0.039367617915503056 0.025860372197746208
865000000.0 0.03946401482030118 0.02503235514965041
870000000.0 0.039557794047913625 0.02433893225651563
875000000.0 0.04025573775186757 0.024631383489010217
880000000.0 0.041202367679041604 0.025430241401706057
885000000.0 0.04171051376342845 0.025873953433078772
890000000.0 0.04249117205267236 0.025882381020488614
895000000.0 0.042686620272600784 0.024924712166953605
900000000.0 0.04288895843176703 0.02393066776142154
905000000.0 0.04369403795656558 0.023710074212249705
910000000.0 0.04481530076508704 0.023681586045894584
915000000.0 0.0458461368710576 0.02354231891672851
920000000.0 0.04561925158247836 0.022361259005693968
925000000.0 0.04570664176410824 0.022400118524786617
930000000.0 0.045950928860524445 0.023111020521797802
935000000.0 0.0467396804368137 0.024081513027373394
940000000.0 0.04681222771190263 0.02490786268001308
945000000.0 0.046817770454324614 0.025874314688149217
950000000.0 0.04748524270640131 0.026578119953576774
955000000.0 0.04770007701488492 0.025750871508494918
960000000.0 0.04788436342004475 0.024405254649988134
965000000.0 0.048771952542588454 0.02347612994649136
970000000.0 0.04882701215754713 0.022740084738136476
975000000.0 0.049192809048207234 0.022170663042167128
980000000.0 0.04961413583241764 0.02241935767721965
985000000.0 0.0498256130342493 0.02236735410590279
990000000.0 0.05064779703331951 0.022114018862420926
995000000.0 0.05082627408990073 0.021621881108360615
1000000000.0 0.0514398579930167 0.021415911389427996
1005000000.0 0.05160193043566008 0.021540124929289563
1010000000.0 0.053178603133680724 0.022374388589622693
1015000000.0 0.05284982789756498 0.021981875690668833
1020000000.0 0.05354702572753545 0.02201029988002108
1025000000.0 0.053826486458858736 0.02130555364262396
1030000000.0 0.05344507474261784 0.02036206503941488
1035000000.0 0.041343119098318115 0.0947397391025795
1040000000.0 0.05395615378313193 0.020890496380523017
1045000000.0 0.054038473373567264 0.020952468848462066
1050000000.0 0.05437316239674664 0.021115224968932603
1055000000.0 0.05436917432429375 0.021460006213619803
1060000000.0 0.054356045692844746 0.02164428740508756
1065000000.0 0.05445450021184181 0.02162303618684599
1070000000.0 0.054701221408856304 0.020768539016083006
1075000000.0 0.05490963492949824 0.02027558604622267
1080000000.0 0.05565692899416902 0.020148723717096476
1085000000.0 0.05574989266174424 0.019703292512190614
1090000000.0 0.0555507588350731 0.019184347659709444
1095000000.0 0.056545544689575095 0.019040973895620747
1100000000.0 0.05732072314489231 0.018555032605342355
1105000000.0 0.057387117870538046 0.018360779937256655
1110000000.0 0.057475508797117436 0.01782042951277472
1115000000.0 0.056492570738337106 0.017483777722735166
1120000000.0 0.0575499561328483 0.017609647354563045
1125000000.0 0.05820289654704633 0.01765661672812718
1130000000.0 0.05858301143844394 0.016895905525800746
1135000000.0 0.05870900548195815 0.01615997341423836
1140000000.0 0.05876510780958333 0.01590609635306018
1145000000.0 0.05787640867834806 0.015002233397803752
1150000000.0 0.05829964459589404 0.014613491512787482
1155000000.0 0.05831265936862984 0.014415371296631015
1160000000.0 0.05898580161895614 0.01452302765194953
1165000000.0 0.05900303203278953 0.0143016612733314
1170000000.0 0.058724301472933754 0.013782091170239846
1175000000.0 0.0594384803966331 0.013589191699872952
1180000000.0 0.059504505412603964 0.013077672382747776
1185000000.0 0.059609132411601706 0.012357652364035465
1190000000.0 0.05961099425890454 0.01200363367384133
1195000000.0 0.060276761230817044 0.012150602724121953
1200000000.0 0.06056042226076308 0.012326872687769913
1205000000.0 0.06055660309585065 0.012018312423049862
1210000000.0 0.059887199832521 0.011425623386246711
1215000000.0 0.06134205983821256 0.01118168760819327
1220000000.0 0.061417262782792637 0.010624356508734084
1225000000.0 0.0625032105030765 0.010517171443551382
1230000000.0 0.0624554154409489 0.010429244370576948
1235000000.0 0.06235582596842676 0.010465275114240155
1240000000.0 0.06223980910218185 0.010447820783977907
