!Created with skrf (http://scikit-rf.org).
# Hz S RI R 50.0 
!freq ReS11 ImS11
25000180.0 -0.0021072854507548228 0.0018556162204516058
30000180.0 -0.0005277089378324107 -0.000643928094936061
35000180.0 -0.0006356752214900507 -8.480686264666915e-05
40000180.0 -0.0015294852526329533 0.0020882094945930685
45000180.0 0.0021489603068707425 -0.0067292067370794545
50000180.0 -0.004404502770790172 0.006685059622387246
55000180.0 0.0007617585299268675 -0.004554297651919809
60000180.0 -0.0013650155693340216 -0.0005455104837835817
65000180.0 0.0012334346780811939 -0.0045216012713499565
70000180.0 -0.012456185247137999 0.022317871292688328
75000180.0 0.0030510822420576483 -0.012136107594456755
80000180.0 -0.01481380867388972 0.03945974857946241
85000180.0 -0.0028008187341488633 0.00201307456441901
90000180.0 -0.0034710823615441005 0.004051440905038447
95000180.0 -0.0045685772398534885 0.01666229836330184
100000180.0 -0.001700571461972042 0.037376655990029095
105000180.0 -0.0021815552503321456 0.0102772443034744
110000180.0 -0.015893389033893437 -0.0224550390516252
115000180.0 -0.003834624092215133 -0.00951569926490337
120000180.0 -0.002856589585057495 -0.010085311075673205
125000180.0 -0.003931115755286679 0.004468972939081169
130000180.0 -0.00393612143775067 0.004600388297055006
135000180.0 -0.0044034762366093605 0.006795402559271708
140000180.0 -0.00421217154401872 0.005806764441828658
145000180.0 -0.004698939930726356 0.0075291892827659655
150000180.0 -0.004392697712326893 0.0063293394622204735
155000180.0 -0.0038165799084258073 0.004365652874405115
160000180.0 -0.00170640079582636 -0.0016373533094355304
165000180.0 -0.009872795321731409 0.025691928611671477
170000180.0 0.0044541423593387475 0.059714854491296085
175000180.0 0.0013799333285138687 0.016142119885726364
180000180.0 -0.011043434856055856 -0.011812793496686513
185000180.0 0.01702208247519811 0.02842281010341413
190000180.0 -0.03376816486334369 -0.023929476358769908
195000180.0 -0.013688790523979949 -0.031448404236511414
200000180.0 -0.0026098981404051452 9.647972432792013e-05
205000180.0 -0.0023427559490604433 0.0054684797395376
210000180.0 -0.00216719441309908 0.006231773275645933
215000180.0 -0.002247999096157277 0.006972779143440274
220000180.0 -0.0020439857880786283 0.008227505236460583
225000180.0 0.010992855255299444 0.021713002361634065
230000180.0 -0.003947154300728853 0.013148385734486734
235000180.0 -0.003573634937413084 0.013616650485396127
240000180.0 -0.0035972778463417426 0.014383804454853245
245000180.0 -0.003980882921544748 0.01611517317598058
250000180.0 -0.0029403161942577333 0.014142021073514387
255000180.0 -0.0026745912008674794 0.01464431747157294
260000180.0 -0.0018616000940167854 0.013749259224687616
265000180.0 -0.0006282139387315117 0.012818959375534428
270000180.0 -9.060112953966637e-05 0.012584148617330919
275000180.0 -0.0010268389817407741 0.014311349844026412
280000180.0 -0.0030710932751386727 0.019174289330822283
285000180.0 -0.0005207381857442461 0.015039289589242149
290000180.0 -2.9969297163770503e-05 0.01464838858855963
295000180.0 -0.0006507617651265729 0.016016948379343768
300000180.0 -0.00011734476345347244 0.01583774861885698
305000180.0 -0.0005228185419125508 0.017697642070445975
310000180.0 0.00025935747087021954 0.01686168292322527
315000180.0 0.000850449891927077 0.017092545949184065
320000180.0 0.00045924529244258105 0.017824084174608894
325000180.0 0.0005502326922232903 0.01842517332099266
330000180.0 0.0012231049752292472 0.01812310722036281
335000180.0 0.0021076086967132257 0.01784828663981649
340000180.0 0.002742619310038441 0.017965707889074492
345000180.0 0.002825593983305147 0.018809096686531475
350000180.0 0.003129460677942439 0.019509007355744436
355000180.0 0.004361784117604434 0.018218704603003885
360000180.0 0.009935895906735992 0.011503474937444483
365000180.0 0.015154989595076523 0.009366183450035398
370000180.0 0.0026990575158443997 0.028461910230905663
375000180.0 -0.006865345632672423 0.027951510082681777
380000180.0 0.005514399047285623 0.02061436593398179
385000180.0 0.00834429969714736 0.018898272720088136
390000180.0 0.005711748973307416 0.021804367901677627
395000180.0 0.006196898182368793 0.020778332333891925
400000180.0 0.0038099386943656957 0.022483823216824447
405000180.0 0.0054659426163606445 0.022305673111814778
410000180.0 0.007125864957628451 0.021810457949337045
415000180.0 0.007277431335268491 0.02275115508308985
420000180.0 0.00636299993291441 0.023272698050702048
425000180.0 0.0070052450707969935 0.022996520390835926
430000180.0 0.008170669418555147 0.022906470957892416
435000180.0 0.0075676106370726505 0.023472820750384177
440000180.0 0.007192554189717763 0.024126878441496698
445000180.0 0.01216133787012626 0.022445935051404416
450000180.0 0.004661680981510891 0.02732079437703936
455000180.0 0.0016011642875929516 0.029276204680599806
460000180.0 0.0038615749772727623 0.02948722315694888
465000180.0 0.009983149058845772 0.024217572691119984
470000180.0 0.01241090904832444 0.022326203400621664
475000180.0 0.013188190283380974 0.022247718298027602
480000180.0 0.01473951494499199 0.022073501715226013
485000180.0 0.01672647812765487 0.021734057672446273
490000180.0 0.018208983805878036 0.02228917047203155
495000180.0 0.015542948187148728 0.023763960573606774
500000180.0 0.005352958345450652 0.027049367644564004
505000180.0 -0.004306765513500135 0.030872764648680495
510000180.0 -0.00836242609651787 0.03553842064133661
515000180.0 -0.016343947078380036 0.04229917519455201
520000180.0 -0.026379791887142248 0.055930693006839616
525000180.0 -0.0262281847685438 0.06952402438545782
530000180.0 -0.004409725109875556 0.07056098993739296
535000180.0 0.00476614109233392 0.053028382839708246
540000180.0 0.046127581816905794 0.04483032818221888
545000180.0 0.06893049630541581 0.0157413029743271
550000180.0 0.07539184872416846 -0.04022502526759965
555000180.0 0.08479249275195556 -0.0026951621668512282
560000180.0 0.029763585126959126 0.05827034996625567
565000180.0 0.02909114052154417 0.08439344775224887
570000180.0 0.0804797884013902 0.0636884947040014
575000180.0 0.08899150100016098 0.04169929500756313
580000180.0 0.0937443924997517 0.03350541617093836
585000180.0 0.07926720529950276 0.0361218164977747
590000180.0 0.061020297675346946 0.021341643131145824
595000180.0 0.004589413524053142 0.06812002308079412
600000180.0 0.007731016897554552 0.06856643622525078
605000180.0 -0.0012470960322259333 0.04598405069787742
610000180.0 0.005035233140105677 0.04716723488807052
615000180.0 0.014212421496235222 0.04244690202973701
620000180.0 0.020096342473741473 0.03274906811091866
625000180.0 0.024122144763608883 0.02550411361470134
630000180.0 0.023076911935039954 0.026720251059690364
635000180.0 0.02276164263406246 0.028494801894163712
640000180.0 0.022789106952490555 0.029524202951790972
645000180.0 0.023419982138295475 0.030297941284032466
650000180.0 0.02368976759080778 0.030230460880812625
655000180.0 0.02392781922904926 0.02994024992844125
660000180.0 0.024374157230324923 0.029785928451511224
665000180.0 0.025261139460931246 0.029451964798801213
670000180.0 0.025789168308841575 0.02878422840127518
675000180.0 0.026421011844618533 0.02925804999502942
680000180.0 0.02585497856817078 0.03006596550209043
685000180.0 0.025423768539830402 0.03031954573527839
690000180.0 0.02642260175622335 0.030687084093650528
695000180.0 0.02701455169297166 0.030782274856322914
700000180.0 0.027149021835749767 0.030393870206149504
705000180.0 0.02790086512292394 0.03026384767339231
710000180.0 0.029150558158927364 0.031091610503104834
715000180.0 0.028699418214967513 0.030450535434821836
720000180.0 0.029017195350400246 0.030597651740189826
725000180.0 0.029659517322294514 0.03066796005727389
730000180.0 0.030264633005009478 0.03040759650119962
735000180.0 0.030770722843339822 0.030188990642207217
740000180.0 0.03160113394052302 0.0300275665375724
745000180.0 0.03138254433418797 0.029689833351451828
750000180.0 0.031686180510013186 0.02982839535925321
755000180.0 0.032352050248514716 0.029901083759999243
760000180.0 0.032612244204709706 0.029743067187030018
765000180.0 0.032971909087911214 0.029096003417875514
770000180.0 0.0335241984391907 0.02883456636859151
775000180.0 0.033837020094271794 0.02804898054488329
780000180.0 0.03422103794687721 0.027659497578500072
785000180.0 0.03441153753909196 0.027763397891438335
790000180.0 0.03472052212139035 0.02934930214435492
795000180.0 0.03521761945428656 0.03030297658133992
800000180.0 0.03524784460836129 0.030419392573824942
805000180.0 0.03581833005234424 0.02967018335907692
810000180.0 0.03594201741512589 0.03302144662123814
815000180.0 0.037096115855422995 0.03447038530271393
820000180.0 0.039761952765600586 0.03700345006855281
825000180.0 0.03901264545343566 0.031075278346881993
830000180.0 0.03856500916634541 0.026920853729996808
835000180.0 0.039225666414347854 0.026203253701185536
840000180.0 0.03936282833304443 0.026538587429456213
845000180.0 0.03962165636335738 0.027283544773800284
850000180.0 0.03979261637988954 0.027267101042763323
855000180.0 0.04042182295943646 0.026988481872224943
860000180.0 0.04043614786303264 0.026318059694192694
865000180.0 0.0403597980962232 0.025521785589878603
870000180.0 0.03994423671672878 0.02486189847524127
875000180.0 0.040808356901388815 0.025077065626397384
880000180.0 0.04160492756317084 0.02564876096434338
885000180.0 0.04188366653693819 0.02639062803001307
890000180.0 0.04261940914254783 0.026603535277489373
895000180.0 0.0426635057462553 0.025685632589318254
900000180.0 0.04288003579621574 0.024624541015960687
905000180.0 0.04346233028720367 0.024194790659452185
910000180.0 0.04459410586528617 0.024404086412041153
915000180.0 0.04569462030160715 0.024245757526769683
920000180.0 0.045442407095725446 0.02288780747847977
925000180.0 0.04568615685407647 0.022402037314025375
930000180.0 0.046142769977133194 0.02290261010396212
935000180.0 0.0467890732170734 0.023752329945846702
940000180.0 0.04686073002809363 0.024541680820438377
945000180.0 0.046795294537482865 0.02583647157083022
950000180.0 0.04731457319390149 0.02712419929369014
955000180.0 0.04755061082720126 0.026567843479207747
960000180.0 0.04773176008559796 0.025060721351467072
965000180.0 0.04869973955156226 0.02392656369486246
970000180.0 0.04882741923473856 0.022800394490273553
975000180.0 0.04919835084211467 0.022197967413527524
980000180.0 0.04994708036034225 0.022585036831570624
985000180.0 0.049885376044141616 0.02235382332613043
990000180.0 0.0505116008853914 0.022469975896849716
995000180.0 0.050795220217858345 0.021920776587589633
1000000180.0 0.05172550236817805 0.02181544962026559
1005000180.0 0.05152895517456596 0.02175966392343434
1010000180.0 0.05330071219463833 0.022687085722922953
1015000180.0 0.05289581240624347 0.02250325866555418
1020000180.0 0.053672960832525596 0.02245084125417838
1025000180.0 0.053810148940631825 0.021912382458069014
1030000180.0 0.053254479990158504 0.020906764718561344
1035000180.0 0.04288052422270583 0.08151362810361512
1040000180.0 0.05422529999478681 0.02037901865826832
1045000180.0 0.054576458862608174 0.020362625590786363
1050000180.0 0.05438077332722324 0.02061394572913061
1055000180.0 0.05442231587105675 0.020912438305246094
1060000180.0 0.05435394098887514 0.021270349575343905
1065000180.0 0.054495874814864814 0.021213699722190588
1070000180.0 0.0546953060251297 0.020455388361938654
1075000180.0 0.05519795206493544 0.01986996348183865
1080000180.0 0.05592906691373456 0.020052200676041926
1085000180.0 0.056277882447110184 0.0196802277703413
1090000180.0 0.05612411979735929 0.019265395879843706
1095000180.0 0.056587745393513106 0.01875132152034867
1100000180.0 0.05766031480226866 0.01845435520950089
1105000180.0 0.057726144749384284 0.01787522906774257
1110000180.0 0.05781332218683463 0.017424013672459746
1115000180.0 0.05655994437027764 0.016987280658187172
1120000180.0 0.05790204949563482 0.017168486238995914
1125000180.0 0.058548286371878505 0.01732134216086794
1130000180.0 0.05862725615281367 0.0166749753856072
1135000180.0 0.05873851361730981 0.016106374374934715
1140000180.0 0.0588300757732311 0.015602426010990402
1145000180.0 0.05821889407184613 0.014937400526808479
1150000180.0 0.05833939999853732 0.014300942852245216
1155000180.0 0.058358735658584016 0.014093632246265163
1160000180.0 0.05902598845335877 0.014254217630086045
1165000180.0 0.059026012406173306 0.01413483488757665
1170000180.0 0.059064019082718466 0.013840907765795454
1175000180.0 0.05910279510725677 0.013502113757254797
1180000180.0 0.060181869957496914 0.013212437296682672
1185000180.0 0.05988354061785803 0.012627658519010695
1190000180.0 0.060275434019427476 0.012327810532492711
1195000180.0 0.06094972176750116 0.012375258873298212
1200000180.0 0.06099721802336394 0.01215238816428181
1205000180.0 0.06103681813985973 0.011677468083889558
1210000180.0 0.06039664492640895 0.011021240395315574
1215000180.0 0.06196562022962793 0.010462395409285882
1220000180.0 0.06195959821245578 0.010187233538979379
1225000180.0 0.06265148241336171 0.010060424375679
1230000180.0 0.062210028442671705 0.00994265888052119
1235000180.0 0.06213067818313467 0.009911986156826869
1240000180.0 0.06195141065551246 0.010053159620024718
