!Created with skrf (http://scikit-rf.org).
# Hz S RI R 50.0 
!freq ReS11 ImS11 ReS21 ImS21 ReS12 ImS12 ReS22 ImS22
25000000.0 0.035986688819975715 0.030886126635261916 0.9057714951113294 0.46189259182936204 -0.0 0.0 -0.6649509242337331 -0.24466318803743742
30000000.0 0.05344221530768606 0.029643099825300084 0.8427952498973165 0.5729924193166064 0.0 0.0 -0.9808140414232042 -0.06814409895296732
35000000.0 0.07347914245616417 0.023374883320997845 0.7580961442945268 0.6828043086076394 0.0 0.0 -1.1480855556122347 0.3809552156360202
40000000.0 0.08192442475530609 0.026295177833548337 0.6730144415899496 0.7780374244226497 0.0 0.0 -0.9138137258682086 0.6893853839204259
45000000.0 0.0731022899575235 0.032591666382172736 0.6769441999825315 0.8024125646478077 0.0 0.0 -1.1861144208616488 0.4917074996710182
50000000.0 0.06133573362146025 0.015586890436576612 0.5917564627266264 0.8603669660286692 0.0 0.0 -1.2189841215210482 0.15005057138928113
55000000.0 0.03631470909076218 0.004341205952113914 0.5121350961210791 0.9023791631147772 -0.0 -0.0 -0.7417533660869592 -0.13076944466310014
60000000.0 0.01170212432307264 0.0008537423700424679 0.4793761319217339 0.9309660069561414 -0.0 -0.0 -0.2664223905946821 -0.045849549024121077
65000000.0 -0.016792192056685716 -0.007271405651721383 0.45878447270284695 0.9351103695305882 -0.0 -0.0 0.2659836424289805 0.24722978276277935
70000000.0 -0.04100230886178738 -0.001582416135562639 0.2930433633184856 0.9716119721374314 -0.0 -0.0 0.7520947167557314 0.2059821816048582
75000000.0 -0.07258164394398468 0.002231715135360389 0.19017154710149617 1.0075057813982542 0.0 0.0 1.1581730869152724 -1.1779436739144937
80000000.0 -0.10299954421420487 -0.005220199364825521 0.14583347325180543 1.0158992710776582 0.0 0.0 0.8025941132451966 -2.0484270426085422
85000000.0 -0.09548063973522747 -0.0042106280449455465 0.05811557715580163 1.0391795568882036 0.0 0.0 0.13029963414379508 -1.4009919687188699
90000000.0 -0.09704744255137768 -0.009839544880126313 -0.0672480653777431 1.0181191804870369 0.0 0.0 0.025684731425354802 -1.4347354418764604
95000000.0 -0.08360942620715449 -0.024012538684888486 -0.12673826169819816 1.0205691124712322 0.0 0.0 -0.01980795835410381 -2.172578338187876
100000000.0 -0.058122485361797906 -0.027781178729419025 -0.15191031070723476 1.0067375305822648 0.0 0.0 -1.2695441114079702 -3.5447874351142956
105000000.0 -0.03394021175848465 -0.01572819040912839 -0.27750895091945804 1.0897853275325837 0.0 -0.0 -3.373535402511846 2.0920866550206383
110000000.0 -0.009578663373275073 -0.004332740103604476 -0.29256313340307 1.0619021062024638 0.0 -0.0 -0.5671910995851549 0.2867772574828214
115000000.0 0.01366931865142272 0.0031636708702215467 -0.37648817015723446 1.0788002007922814 0.0 -0.0 0.3613609488129876 -0.7705031525138705
120000000.0 0.042006557604147204 0.011963994551511887 -0.4318571755938033 1.0131210109775473 0.0 0.0 1.666593355318826 -0.5700970904184064
125000000.0 0.08455002288984284 0.0050972263615013565 -0.5118467142082382 0.9230506299211579 0.0 0.0 1.7546852360758405 0.16417851668438363
130000000.0 0.12460920109739666 0.004367371791074268 -0.6208486118296426 0.8456684013645621 0.0 0.0 1.4488170782582717 0.9948941197625523
135000000.0 0.14327904265892802 0.01201623778803768 -0.6715645078917151 0.7754630922445211 0.0 0.0 0.9549696964237373 0.8608534039961043
140000000.0 0.13643604601162196 0.005473341189874253 -0.7346474081101619 0.714645290571032 0.0 0.0 1.1928299363923351 0.7398238785925354
145000000.0 0.12068870166441843 0.003096972404166574 -0.7179973570996746 0.7238407993396129 0.0 0.0 1.4438219596415427 0.07448673913425553
150000000.0 0.0881974367087182 -0.001090305589948939 -0.7471311998311159 0.6880879647817023 0.0 0.0 0.9294195986879134 -0.37372892673728264
155000000.0 0.048313973445090044 -0.001974634952465993 -0.801040087731717 0.5983546965577625 0.0 0.0 0.42245030464933464 -0.2430401063122297
160000000.0 0.004386470661655794 0.011029186631932019 -0.8571850644605885 0.541644213485717 0.0 -0.0 0.07792195887603932 0.004165146856633275
165000000.0 -0.04429567269320199 0.025864400820851747 -0.905462722085046 0.4505953728901702 0.0 0.0 -0.24222885462804197 0.2604386394582185
170000000.0 -0.08378317960986502 0.0780117655575624 -0.9431523443400711 0.28820157914304495 0.0 0.0 -0.6825055019615354 0.46860894165526606
175000000.0 -0.10268726523248246 0.10608450718242828 -1.0018445536857452 0.29970907396751095 0.0 0.0 -0.959435436341958 0.4372800598850599
180000000.0 -0.09901958379027741 0.11664736386865662 -1.0807820747039245 0.13034219245134238 0.0 0.0 -1.1699934083448178 0.20933660122482048
185000000.0 -0.00835139832904603 0.14587823814722958 -1.0747050896117072 0.10316611917669474 0.0 0.0 -1.1882060689175282 -0.17318086410761388
190000000.0 -0.01933398056795232 0.12999314713206941 -1.1341785334347496 0.06693118569053605 0.0 0.0 -1.1936230047541627 0.09793607562515884
195000000.0 -0.018438908030067647 0.12331757708262185 -1.084264428434687 -0.02316845364540654 0.0 0.0 -0.8926769524359778 0.4686594600736932
200000000.0 -0.02763096988625728 0.07001451401481808 -1.0541831811578286 -0.017156513195884 0.0 0.0 -0.4547706993190534 0.4423341856037508
205000000.0 -0.01656561765283413 0.029398337504162878 -1.024971103356969 -0.11660842341008244 0.0 0.0 -0.18202077202487335 0.22354012223095915
210000000.0 -0.0034949913237787658 0.007586680540981568 -0.9912655508876039 -0.23166009881051877 0.0 0.0 -0.013701398777036324 -0.010198775575014505
215000000.0 0.002961078220180964 -0.0001816673084534248 -0.9722942211461334 -0.3017795496933221 0.0 0.0 0.1116790083538325 -0.2148902151560627
220000000.0 0.012769277878769547 -0.0024650464441110785 -0.9489493117203802 -0.39285366499175767 0.0 0.0 0.27035111694964625 -0.4779475163427691
225000000.0 0.018606015981237675 -0.0051071380041846325 -1.042213841326186 -0.4870213555430094 0.0 0.0 0.499743957356124 -0.7281556425008185
230000000.0 0.029060871686734588 -0.011422888475884834 -0.9121157308503672 -0.5160418266799236 0.0 0.0 0.8412976488250397 -0.7165706577144555
235000000.0 0.03252450678222868 -0.023471165523303323 -0.8643469668451866 -0.5863481314800114 0.0 0.0 0.7897108924806955 -0.8810503175729354
240000000.0 0.03541769179135528 -0.03047200097687733 -0.8020954080100814 -0.6366765672995666 0.0 0.0 0.3664193431524446 -0.7646166107887601
245000000.0 0.031171800311567438 -0.026330533142791906 -0.7454647172834254 -0.6775915408301814 0.0 0.0 0.16749681259667482 -0.5256428318398584
250000000.0 0.020634398431919457 -0.01361395273781381 -0.6820081896599948 -0.7183278286939503 0.0 -0.0 0.0664754652820691 -0.28263401713879244
255000000.0 0.0049083857299107745 0.004505443663219481 -0.6248008349299251 -0.7579196094838643 0.0 -0.0 0.009396384351588176 -0.06864957266770448
260000000.0 -0.015495566085604059 0.025123872205382553 -0.564995912868673 -0.8020211629010833 0.0 -0.0 -0.03248346254075976 0.13487753035073533
265000000.0 -0.037294409629672565 0.04249937113102003 -0.5151621615815408 -0.8474303739941226 0.0 -0.0 -0.06797263584101082 0.3257493572050909
270000000.0 -0.058960272756955937 0.05651392576222062 -0.426451984069635 -0.9069291781448294 0.0 0.0 -0.11877482980129944 0.532613351099794
275000000.0 -0.07480191134548914 0.06565038144964686 -0.30914853232446776 -0.9705373605954727 0.0 0.0 -0.22420451604010644 0.8085503682341241
280000000.0 -0.0780081819199105 0.0703163291220296 -0.24009910394977832 -1.0140572360419926 0.0 0.0 -0.4167493618526489 1.1148622770928411
285000000.0 -0.06777450907650849 0.08500424950139392 -0.16615216198345703 -1.0399743593290949 0.0 0.0 -0.11692248840426342 1.1628455389084622
290000000.0 -0.06867507769504788 0.08247144293002526 -0.1187466080929734 -1.021516261429624 0.0 0.0 -0.013143464819331135 0.8101093696111996
295000000.0 -0.0608960939521952 0.07209467333164764 -0.058509236638084945 -1.002726131049983 0.0 0.0 0.013604610385895582 0.5387560306299068
300000000.0 -0.04180417903539187 0.052179538264682336 -0.056012343870838026 -0.9930907546033411 0.0 0.0 0.01773335029947411 0.3027336106161906
305000000.0 -0.01245974615409733 0.029512984672271154 0.01554820915146305 -0.991919253593367 0.0 0.0 0.017621072084623022 0.09751876764239503
310000000.0 0.02328735763790516 0.004399684905083393 0.09524253697732962 -0.9912366878976174 0.0 0.0 0.006427967608933033 -0.0973294000834137
315000000.0 0.06222695651207017 -0.018046489366523432 0.17937854249263468 -0.9869111873052423 0.0 0.0 -0.019938111862436037 -0.2965424529517074
320000000.0 0.0993260551193437 -0.03379656738122454 0.27656078912290866 -0.97232296292637 0.0 0.0 -0.061873522605836694 -0.5077723684928881
325000000.0 0.12900728403849612 -0.04036287702583971 0.39394938136932844 -0.9378225468472066 0.0 0.0 -0.13829315401318512 -0.7522446190955161
330000000.0 0.147295559878139 -0.0365193523083705 0.5228784614492856 -0.8848579976423402 0.0 0.0 -0.3265772130728888 -1.0703356685360117
335000000.0 0.15143240735150978 -0.03403991688411112 0.5821047229300128 -0.8440563390430447 0.0 0.0 -0.3430159988370697 -0.9065276055823578
340000000.0 0.1429746329536412 -0.017858956926625903 0.6051801579531968 -0.821755538218631 0.0 0.0 -0.19233548908424003 -0.611556873968603
345000000.0 0.11537803032230971 -0.007149967636348426 0.6358384758121198 -0.7963055816529188 0.0 0.0 -0.12497738148718703 -0.39675633860003034
350000000.0 0.07333465401320476 -0.0019205851722418569 0.6725821397206769 -0.7580229998689932 0.0 0.0 -0.08269010904141143 -0.2169514947610521
355000000.0 0.025773332157293372 0.006745177422690332 0.7089565183212109 -0.7088846648507946 0.0 0.0 -0.039298554233275274 -0.0576889885475135
360000000.0 -0.02133511016068385 0.034519263138469265 0.7547419830406241 -0.6192136985366652 0.0 0.0 0.03180351880959094 0.1140580571977106
365000000.0 -0.0580935044866627 0.08605369030130676 0.8098717828453231 -0.5145261393452172 0.0 0.0 0.1525161065099682 0.3285183767477044
370000000.0 -0.06917007922649501 0.16450567933252447 0.8902393211804269 -0.4089864142169688 0.0 0.0 0.4688059935189076 0.6032226991398307
375000000.0 -0.025457443975302686 0.22746653805419845 0.9875618412240196 -0.34215146278080494 0.0 0.0 1.1284757441066662 0.477819764169253
380000000.0 -0.010738044515182356 0.22693525134236447 1.0405541626690766 -0.29276330810375084 0.0 0.0 1.2755153426322654 0.36188479220857495
385000000.0 -0.010933091860563952 0.20820808859740947 1.0355794597294683 -0.2251201161738275 0.0 0.0 1.0563497520821015 0.6279730164833391
390000000.0 0.02006051252008561 0.16819283245969105 0.9906546054519868 -0.1405789003208331 0.0 0.0 0.6666814933995465 0.5481369045277847
395000000.0 0.03554555133492681 0.11758631209805531 0.9324593510158616 -0.07256977792497096 0.0 0.0 0.402578686896432 0.3708726643852366
400000000.0 0.03242141355171905 0.056350495066456424 0.9156856869191304 -0.0716085860102707 -0.0 0.0 0.20421167728487066 0.1732271625560301
405000000.0 0.005365992162040339 0.017563410893123656 0.9218893304479668 0.04560311807578842 0.0 0.0 0.008915627841502792 -0.009324264310748703
410000000.0 -0.027434937151474145 0.009748615334768585 0.9280904965733251 0.21453976366340755 -0.0 0.0 -0.2166645923682762 -0.16238150131467133
415000000.0 -0.05045728265400597 0.015575613005562601 0.9167029172057728 0.3364793870894336 -0.0 0.0 -0.4799414012941922 -0.2713873538938006
420000000.0 -0.0646459048524438 0.01912037791244005 0.9050594508683075 0.4152234047754668 -0.0 0.0 -0.8132140465138973 -0.2615285489530934
425000000.0 -0.06450225622386326 0.0013128930835706986 0.9091049132728817 0.4737436536311123 0.0 0.0 -1.1229846721667722 0.029393978194658606
430000000.0 -0.05202396884429083 -0.009758104765050877 0.8986807560164581 0.5336359916989302 0.0 0.0 -1.080023263173895 0.4558860332743281
435000000.0 -0.028701561078352783 -0.02269682565496638 0.8575646213561197 0.6009482882634748 0.0 0.0 -1.1668410450715512 0.2651039520681156
440000000.0 -0.0062765129903123084 -0.02060613511876439 0.7911504581261353 0.6418838130066041 -0.0 0.0 -1.0039303294150073 -0.042306495391880354
445000000.0 0.003160120698308002 -0.009883918155990523 0.7445443223118539 0.6530685562636921 -0.0 0.0 -0.6766570386499342 -0.13433426486004188
450000000.0 0.005652038148437941 0.004958420997517563 0.7160191467132595 0.6650444359067319 -0.0 0.0 -0.33519432858687076 -0.053833346106161375
455000000.0 0.003869487711154789 0.023832163517425835 0.699608352592648 0.6762462715255709 -0.0 -0.0 -0.027147960117684777 0.09277259938346466
460000000.0 0.0005998515283477874 0.044484917768600724 0.6692293903793383 0.7118355189661535 0.0 -0.0 0.2591472785835142 0.19398498142126877
465000000.0 -0.012072822829813337 0.06960328307398933 0.5945189605985988 0.7901674818008668 0.0 -0.0 0.5941336342398198 0.24571523288939434
470000000.0 -0.040009764083219754 0.08983063374810414 0.5268187846631704 0.8565658736778253 -0.0 0.0 1.0549572412711345 0.0771783360159564
475000000.0 -0.06430725415309438 0.09657663909945954 0.4298133304845307 0.9285218641358985 0.0 0.0 1.1838521269257407 -0.5783552605854424
480000000.0 -0.05736123690051892 0.11671923599467036 0.3021887062360499 1.0084045136207844 0.0 0.0 0.5941829904429364 -1.112543460132926
485000000.0 -0.058912379995899246 0.11909729911467962 0.20522518384165067 1.0235566426022014 0.0 0.0 0.5582583661078155 -1.4943801706485762
490000000.0 -0.0691499224226698 0.09010831637108403 0.18775602320551948 0.9681315943296642 -0.0 0.0 1.9663876830644653 -1.6237622435379613
495000000.0 -0.05753686042637366 0.05479139333405578 0.22944804949505512 1.0518887001289825 -0.0 -0.0 2.0418428718787296 0.2902172974966656
500000000.0 -0.023635132937885498 0.0381457259434334 0.12821685438675032 1.1204866401363227 -0.0 -0.0 0.6801156350535719 0.44375975415335245
505000000.0 0.029268569521266802 0.02206426379654921 -0.001735432049289583 1.0893538465837276 -0.0 -0.0 -0.11691662599583252 -0.27214473178179693
510000000.0 0.09466449357521345 -0.02709294874655834 0.0014590153330961547 0.9645197250904471 -0.0 -0.0 -0.45149340792435105 -2.800409966337703
515000000.0 0.13401429088877462 -0.1300657347249935 -0.16178749024336744 1.2051308662041489 0.0 0.0 2.7037727508022096 1.7488920793933103
520000000.0 0.08099209083137394 -0.23709913267322572 -0.5242860259576076 1.2285806702354258 0.0 0.0 0.8543613900524886 0.9255956644314052
525000000.0 0.08188802007857766 -0.2691257621110548 -0.6874628137448792 1.275489650774398 0.0 0.0 0.5588962898238455 0.8969625150158014
530000000.0 0.07295729214600159 -0.2694465846837293 -0.669633240096547 1.2856033886317146 0.0 0.0 0.629540807746217 1.1672331969955716
535000000.0 -0.0042141693860213505 -0.270781224659005 -0.44213917545736936 1.1466754034867563 0.0 -0.0 2.2419438470502504 1.2818854655492429
540000000.0 -0.07412999303801045 -0.14541014045493184 -0.6022563279773251 0.7812939658751766 0.0 0.0 0.682738263303369 -1.689997638403304
545000000.0 -0.048067636299982036 -0.005216436804808879 -0.7369771174462372 0.7293232380686882 0.0 0.0 -0.09898369575152934 -0.378428458924234
550000000.0 -0.00026659202658959843 0.08001031674409784 -0.8015813098807899 0.6381444992923794 0.0 0.0 -0.258462873683116 0.15088096156045025
555000000.0 0.027120490916314827 0.150405360054901 -0.8887639396898366 0.5155736160453888 0.0 0.0 -0.5172858023291284 0.48015950335751645
560000000.0 0.0912993326509785 0.18581591217487092 -1.1178974588212744 0.23620762842728077 0.0 0.0 -0.9296270170645533 0.5716842719210913
565000000.0 0.19547417123724195 0.17922629854548977 -1.1946425649359578 0.12941844779189235 0.0 0.0 -1.231792575828945 0.2595411525059514
570000000.0 0.2546360199985147 0.23933358518163603 -1.291242676440148 0.16597976459434013 0.0 0.0 -1.2043053390483884 -0.11780881371729734
575000000.0 0.3310373383334497 0.38469917411895294 -1.4522406700377954 0.1545908920743487 -0.0 0.0 -0.8743958567813426 -0.4982556468601787
580000000.0 0.2784074213658381 0.3563678704947073 -1.3979804955254074 0.09966570076877876 0.0 0.0 -1.0280311011982541 -0.612489727107063
585000000.0 0.28096924283276264 0.2256110630299274 -1.1331846408477984 -0.02014942441766133 0.0 0.0 -1.6526559483894878 0.45416849460091896
590000000.0 0.21670826961560463 0.10973024508934426 -1.0776447782880303 -0.21035365495470876 0.0 0.0 -0.4110488752582852 0.7507756471081478
595000000.0 0.05653537372740995 0.0586721231928061 -0.9342826483649486 -0.1393233566001379 0.0 0.0 0.0028895677293254225 0.16323994086051838
600000000.0 -0.03670921710654082 -0.021857171053986706 -0.8545643003234484 -0.1710991782019185 0.0 0.0 0.13389933862441844 -0.16906977604269713
605000000.0 -0.09809259803298324 -0.007500962383096766 -0.8348157125966404 -0.2035675906131496 0.0 0.0 0.2675971061291666 -0.37912599618710496
610000000.0 -0.14847804496586026 0.042220999728479994 -0.8718549724982287 -0.29465609076997445 0.0 0.0 0.46510100709442054 -0.5838680371966806
615000000.0 -0.1876576168741677 0.014590268087747972 -0.8945284569619942 -0.3326133053362473 0.0 0.0 0.9704383199357097 -0.679296740827444
620000000.0 -0.1947177767807397 -0.02212298616801035 -0.9109780980840604 -0.3141156694451685 0.0 -0.0 1.1725569184876032 -0.6479566943601167
625000000.0 -0.19755019043304933 0.0010269220120415997 -0.8985880023630126 -0.3679062014005137 0.0 -0.0 0.6280179915053148 -1.0923986769897218
630000000.0 -0.17823547641267204 -0.02018605184149032 -0.8388634112277156 -0.44583632139976365 0.0 -0.0 0.17173694909156756 -0.8901266829054417
635000000.0 -0.132813030267524 -0.036879913361892044 -0.7579883597384046 -0.5077641737384523 0.0 0.0 0.026512629142363364 -0.5983667951299674
640000000.0 -0.06621680635450214 -0.0302938297189456 -0.6761340460234411 -0.5452795530125059 0.0 0.0 0.009268526291877516 -0.33323174309861964
645000000.0 0.0016705337040715483 0.004320705445001295 -0.6238156099428361 -0.559849743671244 0.0 0.0 0.027523196004821546 -0.08212387516223003
650000000.0 0.05145299890936775 0.06084163031967866 -0.604964841051494 -0.5719858296890863 0.0 0.0 0.04176980127786612 0.18158155997224978
655000000.0 0.06961135541803243 0.11834310759356038 -0.6153778422895758 -0.6116476000922071 0.0 -0.0 0.015463793471157077 0.47282637948512635
660000000.0 0.06241840608113787 0.15635464978580693 -0.6333224305005039 -0.6854850855347744 0.0 0.0 -0.09862215815565142 0.7920612907362371
665000000.0 0.044795483042567745 0.16763167639488172 -0.6460709320909371 -0.7932807592437524 0.0 0.0 -0.39250580587033596 1.114254525609783
670000000.0 0.04805003534087944 0.1538137768194994 -0.6350218057244063 -0.9017609084963991 -0.0 0.0 -0.594127261623946 1.4151540065956483
675000000.0 0.06585764045930641 0.13355916756427005 -0.5742647014435526 -0.8833061022634036 0.0 0.0 0.053249993825869105 1.2711337511448153
680000000.0 0.05408640737974554 0.11183348200059644 -0.490176162322915 -0.885945840868325 0.0 0.0 0.12373228308198794 0.7952528619514956
685000000.0 0.04361607413047425 0.08470238654169328 -0.41216582926844575 -0.9076653689663858 0.0 0.0 0.10082776945939227 0.4866485167342457
690000000.0 0.03458505905558229 0.05616339399262323 -0.32645079102788205 -0.9352137903494141 0.0 0.0 0.058316721691525436 0.24559428167112243
695000000.0 0.026007185917498486 0.03054077912718866 -0.18445752747546812 -0.9685686778133996 -0.0 -0.0 0.01178016377306138 0.038081072496671316
700000000.0 0.016291643801817853 0.012547107495056102 -0.07805561051463604 -0.9885389836117751 0.0 -0.0 -0.03968300679559208 -0.15176311491895744
705000000.0 0.007565933128994636 0.0054100420011686575 -0.09081804756513565 -1.0038537067909996 0.0 -0.0 -0.09925761739524289 -0.3384412821619769
710000000.0 0.0005776225108834041 0.005986874572100185 -0.008200893900974232 -1.018861864389727 0.0 0.0 -0.17712817900025724 -0.5389611363226734
715000000.0 -0.005857329253384913 0.008061806848739372 0.1223911110523363 -1.0157244235694707 0.0 0.0 -0.29378839776433735 -0.8020853894380802
720000000.0 -0.009502581392407256 0.014952581051616473 0.21830650707273094 -0.9991037656966695 0.0 0.0 -0.5213253436036904 -1.0737111421793681
725000000.0 -0.010973062312079764 0.023670010348675892 0.3251258081390133 -0.9781561860868584 -0.0 0.0 -0.4517875754220164 -0.7794696164284015
