!Created with skrf (http://scikit-rf.org).
# Hz S RI R 50.0 
!freq ReS11 ImS11
25000000.0 -0.006629417798937692 -0.0030956140526801484
30000000.0 -0.007076581006780033 -0.009000668594237572
35000000.0 -0.014349149971516054 -0.003392988189061516
40000000.0 -0.02180447323510576 0.002038135270179507
45000000.0 -0.021311903933319526 -0.007110805317233727
50000000.0 -0.026593038896446215 0.000788295274600441
55000000.0 -0.03199223640892891 -0.0032372152426655004
60000000.0 -0.03686397502726559 0.0031728521701464146
65000000.0 -0.035157582265292135 -0.0029419943579903005
70000000.0 -0.06762545653253678 0.015595120229444641
75000000.0 -0.044958066720545004 -0.0003415438982466365
80000000.0 -0.08505340949853651 0.027611893407243755
85000000.0 -0.06255120684841015 0.02401885326034956
90000000.0 -0.06735292728478898 0.023210111758494734
95000000.0 -0.07882463302313433 0.04439497940843684
100000000.0 -0.07431070631823354 0.06715463802704444
105000000.0 -0.09752771599622292 0.09611067227051107
110000000.0 -0.09544234069658451 0.08043235834314594
115000000.0 -0.09503378695715771 0.09191718064386285
120000000.0 -0.09246330208189357 0.056861495164856155
125000000.0 -0.12528734131982638 0.03454472488782863
130000000.0 -0.09521609762953395 0.0549604547594052
135000000.0 -0.09372843346676747 0.07734597649397454
140000000.0 -0.08082708345374905 0.07413076742975976
145000000.0 -0.08068386203141384 0.07564118983147806
150000000.0 -0.0831594019239616 0.07663473465906155
155000000.0 -0.08007441800875297 0.07525440824731702
160000000.0 -0.07087150858065067 0.06664172502879392
165000000.0 -0.08954304312361487 0.08166364805277372
170000000.0 -0.10265455659938331 0.13388656627991474
175000000.0 -0.11943464927696304 0.15078468911020831
180000000.0 -0.11705774971699119 0.1659733857613704
185000000.0 -0.08581243351596082 0.2056604140187357
190000000.0 -0.10527239903570648 0.1998814071172093
195000000.0 -0.09159399802839935 0.1582952176712313
200000000.0 -0.048844794504555984 0.1573070226006951
205000000.0 -0.05269751388039063 0.14767589750061275
210000000.0 -0.05485069311992034 0.13413557250337627
215000000.0 -0.050849229724942796 0.12641054693997444
220000000.0 -0.015689130199920007 0.10017008120941924
225000000.0 -0.0054211766938468825 0.11742818880587862
230000000.0 -0.016449693863123865 0.11265755445564185
235000000.0 -0.014722964559210613 0.11377213210963616
240000000.0 -0.01582514410161555 0.11572497903748316
245000000.0 -0.01858489537521886 0.11891827349427068
250000000.0 -0.021725585727402 0.11984694657173747
255000000.0 -0.022567376810340253 0.11998251296586843
260000000.0 -0.024547836508103438 0.12047288043236143
265000000.0 -0.022625399597551922 0.11795809777568159
270000000.0 -0.018486701844688785 0.11587419040112132
275000000.0 -0.008921078613666616 0.11266266752246618
280000000.0 -0.0008562825874626201 0.1158345863250608
285000000.0 -0.0010026785290755125 0.11081624591806924
290000000.0 0.0011630203808073447 0.10457845235974433
295000000.0 0.0033709634211638584 0.10111795702519893
300000000.0 0.0032867916618085913 0.0973262102141662
305000000.0 -9.856146068187854e-06 0.09468582320044482
310000000.0 0.0026302447196438206 0.08674274744130239
315000000.0 -0.0006581764761193071 0.08191389733110707
320000000.0 -0.005499303652641882 0.07632111642182024
325000000.0 -0.00999512121819661 0.07222753178352187
330000000.0 -0.013701794488392621 0.06768518062940122
335000000.0 -0.01684654078564546 0.0623322333369508
340000000.0 -0.020407874838930543 0.05658132612798109
345000000.0 -0.023574139652976986 0.053686232152127644
350000000.0 -0.024240058518868374 0.05336845597327706
355000000.0 -0.022785036854382892 0.05156350178111087
360000000.0 -0.017970794727429545 0.040864208869303725
365000000.0 -0.0032721775205567932 0.020979082878997593
370000000.0 0.015416746992208602 0.010003640679144873
375000000.0 0.04123572244674524 0.008144884746431671
380000000.0 0.06617300943338458 -0.0026915316052013166
385000000.0 0.0750543005779726 -0.002071468794117459
390000000.0 0.0700617766105543 0.0037237661538851857
395000000.0 0.05871806636249612 0.006335831944392502
400000000.0 0.05137896171796653 0.012891414093438129
405000000.0 0.05238813044775639 0.018116622212939873
410000000.0 0.0580604971750496 0.0212645800358736
415000000.0 0.06218638757001266 0.023862036017467246
420000000.0 0.06511438689627974 0.025250785650716527
425000000.0 0.0702164687528693 0.027295288874927312
430000000.0 0.07851017079256298 0.029786952114699332
435000000.0 0.09015741904947981 0.03039542311687953
440000000.0 0.10180353126919997 0.031180523617329037
445000000.0 0.11178208422118283 0.032320278614567724
450000000.0 0.1190684334741823 0.035059876186510484
455000000.0 0.12422164666769768 0.04048093804114868
460000000.0 0.1300811229878952 0.052680084556157775
465000000.0 0.14069478706550245 0.05989395879548627
470000000.0 0.15283610753429133 0.04740516530898977
475000000.0 0.16699079230677924 0.025952414376214372
480000000.0 0.18186861615942135 0.0012581210679503546
485000000.0 0.19770832629881935 -0.025944975354630626
490000000.0 0.2148877921670489 -0.05270843491449678
495000000.0 0.228995879145636 -0.08022051280010738
500000000.0 0.23085066598574533 -0.11017018614265713
505000000.0 0.22103845429700097 -0.14816795467738136
510000000.0 0.20102168546947832 -0.18437748287746744
515000000.0 0.16913370389213728 -0.21613871580853428
520000000.0 0.11445247308609441 -0.2581475469849672
525000000.0 0.055295756891558134 -0.2752699875070488
530000000.0 0.0200050116816973 -0.29904321235746867
535000000.0 -0.04803710451551921 -0.34175271576671085
540000000.0 -0.08109549282998677 -0.31999570613571504
545000000.0 0.05419366065125347 -0.28723867654876634
550000000.0 0.1556567900540845 -0.2290795105198899
555000000.0 0.2516665238701542 -0.10203442521403522
560000000.0 0.18787404245062894 0.1006106372310619
565000000.0 -0.1494429027417673 0.19274492812971247
570000000.0 -0.2155476084294422 0.1978736940205414
575000000.0 -0.1689268285662654 0.2434569551518041
580000000.0 -0.09395028247009711 0.267521354656142
585000000.0 -0.01767895897919952 0.3289811590964704
590000000.0 0.16755377233957425 0.3480189069634332
595000000.0 0.2973813448409861 0.22191501057509794
600000000.0 0.4590520735533614 0.17279976292674673
605000000.0 0.5072094624514948 0.04022713103988712
610000000.0 0.5606194288455199 -0.09880753936949484
615000000.0 0.5619388049687437 -0.25251425973641917
620000000.0 0.5235277822964745 -0.38960832545370794
625000000.0 0.4559089426193793 -0.5088136098375496
630000000.0 0.3752817880828962 -0.5930997546012721
635000000.0 0.36028978965009384 -0.6241582357017075
640000000.0 0.29866684097675683 -0.6752007144318575
645000000.0 0.18565911821218373 -0.7300603994642508
650000000.0 0.08715071678275468 -0.7629877519330771
655000000.0 0.003988715162562794 -0.7855019913899335
660000000.0 -0.07889251863854635 -0.7966097961435414
665000000.0 -0.15652149553820824 -0.7973986995990778
670000000.0 -0.23451710428063663 -0.7882683770175473
675000000.0 -0.3097031208414239 -0.7690903740480104
680000000.0 -0.37982698595086367 -0.74399362707312
685000000.0 -0.4377078769691769 -0.7153084673561882
690000000.0 -0.4882273760793577 -0.6862489537304076
695000000.0 -0.5377645837606838 -0.6520740031003994
700000000.0 -0.5864840362146935 -0.616452636983535
705000000.0 -0.6301628586063103 -0.5791575426154564
710000000.0 -0.672418031804508 -0.5401773266950468
715000000.0 -0.715056341424181 -0.49989643297819397
720000000.0 -0.7545141796877161 -0.45760346589723117
725000000.0 -0.788815733341169 -0.4165405293577654
730000000.0 -0.8182102334636545 -0.37395341922444086
735000000.0 -0.843007692422313 -0.32521335559493586
740000000.0 -0.861950661595242 -0.27364200093399416
745000000.0 -0.8774611237854976 -0.2249320958801699
750000000.0 -0.8906519630670698 -0.17742011805832927
755000000.0 -0.9009628960182631 -0.13194684242612564
760000000.0 -0.9068081169690243 -0.08660961363515873
765000000.0 -0.914005825375961 -0.04128210353903171
770000000.0 -0.9159040570786101 0.0028016448710831247
775000000.0 -0.9137755579712261 0.050532524561197806
780000000.0 -0.8988309671370104 0.08357131961972167
785000000.0 -0.8873433648903777 0.12646121180201017
790000000.0 -0.8700086303722864 0.17145075688156164
795000000.0 -0.8506383570576842 0.21987632724812814
800000000.0 -0.8298356359254425 0.2611319292771054
805000000.0 -0.8063958003457576 0.312487450336473
810000000.0 -0.7942129246854165 0.33537462051818123
815000000.0 -0.7865925236652543 0.3636900217799318
820000000.0 -0.788627168976332 0.37786619237783287
825000000.0 -0.8011424135706025 0.37720797314543936
830000000.0 -0.817961298608556 0.35650552568755545
835000000.0 -0.7776133063316463 0.4482924143558207
840000000.0 -0.7302417323294373 0.5251371647708525
845000000.0 -0.6951076739144431 0.5730541126230735
850000000.0 -0.6702760516287495 0.5998421695162334
855000000.0 -0.6462937967420751 0.6250512993124183
860000000.0 -0.6199137323718551 0.6528133899742019
865000000.0 -0.5886528572583151 0.6835095611411546
870000000.0 -0.5530622756904224 0.7120140300457428
875000000.0 -0.5175677479279022 0.7380277868289937
880000000.0 -0.4830595795198446 0.7595433204477074
885000000.0 -0.44718731252245614 0.77929128700382
890000000.0 -0.4061848628892365 0.7970213634549024
895000000.0 -0.36104728676301184 0.8156311182298912
900000000.0 -0.3178396023262337 0.8284617904802293
905000000.0 -0.2748658728000012 0.8344240252956028
910000000.0 -0.2329184616043256 0.8386571679950875
915000000.0 -0.19442522461984563 0.8357087950875826
920000000.0 -0.15969243010334777 0.8242206658924354
925000000.0 -0.12364170543781194 0.8135794743884235
930000000.0 -0.08945830234628895 0.8058184611934703
935000000.0 -0.056057590177069704 0.8023720582309852
940000000.0 -0.026451143787364337 0.7996347494267372
945000000.0 -0.00043425109322013655 0.7996837077584079
950000000.0 0.024446983183646076 0.8045654103226638
955000000.0 0.046791475994415535 0.8068597633692611
960000000.0 0.06884780148566362 0.8063991289241856
965000000.0 0.09577692745040053 0.8004629124935758
970000000.0 0.12103824850942076 0.7905543917073213
975000000.0 0.14783452742207148 0.7817764882699046
980000000.0 0.17457206307071008 0.7714399554194099
985000000.0 0.19964710529273721 0.76066552113082
990000000.0 0.22542526520056044 0.7486480091764209
995000000.0 0.2503666036889407 0.7356444265542322
1000000000.0 0.27798003081643513 0.7216350622342206
1005000000.0 0.3011960906895222 0.7082730106952756
1010000000.0 0.32548102741490914 0.6987257903696525
1015000000.0 0.34836196495524263 0.6870247929061102
1020000000.0 0.37076298547971087 0.675977647532363
1025000000.0 0.39249113816001774 0.6627158989947225
1030000000.0 0.4123633967799042 0.648237127485506
1035000000.0 0.4184676548396581 0.7602221741068853
1040000000.0 0.4397431971814616 0.7453174336892147
1045000000.0 0.4581693747061328 0.7309702414550594
1050000000.0 0.477316655648231 0.7133140197532883
1055000000.0 0.497898852613778 0.6955177704768677
1060000000.0 0.518356110834171 0.678332235874898
1065000000.0 0.5379216970052856 0.6612668358839033
1070000000.0 0.5564396561378906 0.6411949804284256
1075000000.0 0.5761587186479709 0.6204991216275736
1080000000.0 0.6082498927752236 0.5867680906280098
1085000000.0 0.6380178078561927 0.5494981385284419
1090000000.0 0.6577042598382316 0.5140449313689874
1095000000.0 0.6787401808846354 0.48753261884693566
1100000000.0 0.694704652872891 0.4649163544616942
1105000000.0 0.7080097630958139 0.44990314677259324
1110000000.0 0.7152306664126564 0.44016459625305393
1115000000.0 0.7163687728653126 0.44073878493039254
1120000000.0 0.716921375106761 0.44895019920989554
1125000000.0 0.7232878644037997 0.44936332320906924
1130000000.0 0.7246712981617105 0.4540094763839569
1135000000.0 0.7295124088939995 0.4510218565234256
1140000000.0 0.7377920747410177 0.43960957510778204
1145000000.0 0.7465224855319609 0.4191718429517244
1150000000.0 0.7600309484147312 0.3958306135053025
1155000000.0 0.7737215101376443 0.36675466419411684
1160000000.0 0.7892255879965524 0.3339203568195186
1165000000.0 0.8043039726930484 0.296327042421284
1170000000.0 0.8164758090624201 0.2530927740015783
1175000000.0 0.8261268546381028 0.22268721190071256
1180000000.0 0.8323790074910926 0.19817831923181128
1185000000.0 0.8353944230341122 0.17236984045919454
1190000000.0 0.8401998557605742 0.14750410370936684
1195000000.0 0.8422048863609939 0.11922642890287435
1200000000.0 0.8455178687972495 0.09412600063762305
1205000000.0 0.8458763648347697 0.06712962842424325
1210000000.0 0.8460944629332237 0.04140620591759532
1215000000.0 0.8479633996590883 0.014340345883241998
1220000000.0 0.8480207586257538 -0.013201660903580298
1225000000.0 0.8497112292353848 -0.04038277379298447
1230000000.0 0.8497811535185622 -0.06753898931751165
1235000000.0 0.849587418408865 -0.09349760150073014
1240000000.0 0.8477759730532575 -0.1178269534508859
