!Created with skrf (http://scikit-rf.org).
# Hz S RI R 50.0 
!freq ReS11 ImS11 ReS21 ImS21 ReS12 ImS12 ReS22 ImS22
25000000.0 -0.08402933201965387 -0.029188256470914265 0.985502482771173 -0.22654576297013157 0.0 0.0 0.8993986671179423 -0.462997837700711
30000000.0 -0.07861707154522274 -0.03128350604891234 1.0138285095843955 -0.20937894231639134 0.0 0.0 0.9242952734499927 -0.4893542920240205
35000000.0 -0.08016835825261907 -0.031891287738087894 1.0169699876655396 -0.22985255002553417 0.0 0.0 0.921283433806564 -0.5886139228427903
40000000.0 -0.07962108223833665 -0.029538819322188596 0.9976296402847149 -0.2548876512536214 0.0 0.0 0.8048026799192992 -0.62229007634671
45000000.0 -0.07700196907554374 -0.03631095095355377 0.9877566340120509 -0.37069160234314735 0.0 0.0 0.7610479874497296 -0.730347068093308
50000000.0 -0.08053180616720633 -0.030998425313271457 0.9419395807493255 -0.400371129406409 0.0 0.0 0.6816270012154793 -0.7371728053528495
55000000.0 -0.08482439446867682 -0.038409572592878 0.931060242336496 -0.43929519426462593 0.0 0.0 0.583957025030776 -0.8257723379046751
60000000.0 -0.08462807295748359 -0.04206284553197995 0.8852146941196635 -0.50676746689218 0.0 0.0 0.5172518447878905 -0.9113907613120203
65000000.0 -0.07945789051312954 -0.0479448134201363 0.8497285444686155 -0.581273857835288 -0.0 0.0 0.555444813278616 -0.9360152130484775
70000000.0 -0.08559957991363336 -0.025358953125124605 0.84821697534987 -0.5649194632289948 0.0 0.0 0.4276522695862718 -0.891088003410251
75000000.0 -0.0868510414969059 -0.04026453484182149 0.8053339465134683 -0.5502267133082503 0.0 0.0 0.2978855631154936 -0.9368476608090217
80000000.0 -0.1064431220820938 -0.011839868255359312 0.7507747273706654 -0.7066488113010955 0.0 0.0 0.183995973016671 -1.0431909661163163
85000000.0 -0.09404516652528146 -0.015654268032180733 0.7116403439464329 -0.7363204070675503 0.0 0.0 0.17822283122683236 -1.0052215819447388
90000000.0 -0.09414503540548973 -0.01349761083084995 0.6463766099032179 -0.7759020201766934 0.0 0.0 0.0596224886217774 -1.0016096407642665
95000000.0 -0.09768234067257231 0.0017884968847166024 0.545193202782415 -0.8107755180693925 0.0 0.0 -0.08391848984582218 -1.0108715936970836
100000000.0 -0.08912768062556678 0.022264250140488936 0.5858993277877869 -0.763014819285941 0.0 0.0 -0.07574529869031797 -0.9032642650717685
105000000.0 -0.0848305923256019 0.0336931377613402 0.5816844321150073 -0.7955871795349266 0.0 0.0 -0.16463238310390815 -0.8960488673054637
110000000.0 -0.0790062365599544 0.02143792707299527 0.5141595560024419 -0.8488217340877494 0.0 0.0 -0.22509361816646298 -0.9545663900439494
115000000.0 -0.0939577476671039 0.005462472738614407 0.4862825456970522 -0.9022340401067462 0.0 0.0 -0.32548501118457646 -0.9175042516585028
120000000.0 -0.09507389287382113 -0.009493403747860594 0.4260709338492031 -0.8927494612784802 0.0 0.0 -0.41210935029763274 -0.8695180665191999
125000000.0 -0.10295899527539654 -0.027698094462113534 0.47910669705834735 -0.8677770500313945 0.0 0.0 -0.2863874561803529 -0.842719696861535
130000000.0 -0.09161217469884748 -0.020446394559702104 0.3711065571119339 -0.9351127999047113 0.0 0.0 -0.482899909146953 -0.7357896648279301
135000000.0 -0.10139757951751961 -0.019183853975838504 0.2672102982009707 -0.9987435100334427 0.0 0.0 -0.6785948487909226 -0.896969271626993
140000000.0 -0.09269826272685003 -0.014568600460520522 0.23852701193685563 -0.9780250278773 0.0 0.0 -0.7150094527042467 -0.7690299121185471
145000000.0 -0.09376261471267491 -0.013749976025113311 0.14758596346495595 -0.977059029593832 0.0 0.0 -0.7638867058659663 -0.7210097101292395
150000000.0 -0.094285991951848 -0.01464582402427668 0.12163490187441185 -0.9793244476875561 0.0 0.0 -0.7410073074360387 -0.6987496674389623
155000000.0 -0.09375103533919626 -0.017802278721933698 0.12373073631621881 -0.9645942807097111 0.0 0.0 -0.7518077099884906 -0.6298858195727717
160000000.0 -0.0951426879160146 -0.02829820055849388 0.08729006371996008 -0.9634742205330838 0.0 0.0 -0.8207193091495941 -0.5841151130944876
165000000.0 -0.10572377650588945 -0.010744745114561026 0.11529580391514835 -0.9414319340555699 0.0 0.0 -0.8268757854699393 -0.5377027525292049
170000000.0 -0.09758061993892471 0.049497686539910206 0.19152791095004756 -0.8890244682621194 -0.0 0.0 -0.8146875804043073 -0.46551680948625923
175000000.0 -0.09041985236744338 0.06057099110785401 0.0365227730809791 -0.922968025054758 0.0 0.0 -0.9384081798546058 -0.37690647711795605
180000000.0 -0.1046225446234977 0.04702381800955967 0.0008074395688199492 -0.9984877618872261 0.0 0.0 -1.004491085668879 -0.37866521653301266
185000000.0 -0.04746228777974546 0.07290761124238593 -0.0787493841288914 -1.0025367168729797 -0.0 0.0 -1.0225392754550373 -0.23635352000905058
190000000.0 -0.10315918750187474 0.07122461725216317 -0.10841178474518642 -0.9737224388286918 0.0 0.0 -1.0456760091429285 -0.14491084277274605
195000000.0 -0.11220848513265952 0.016162350773439454 -0.22009119684320524 -0.9895952654372572 0.0 0.0 -1.0334418905570617 -0.04700065007024501
200000000.0 -0.08435049464923934 0.0015587821772775302 -0.2626345865439084 -0.9661190300378706 0.0 0.0 -0.9889658872663992 0.012266599027718464
205000000.0 -0.09308518346927999 -0.006112561914900295 -0.29342007194774294 -0.9252521924945907 0.0 0.0 -0.9700068180081926 0.06221125864871834
210000000.0 -0.09228718213730588 -0.012231697076721611 -0.3302010838460136 -0.8995614845650821 0.0 0.0 -0.9605909613103385 0.1121399977795637
215000000.0 -0.08602018961270044 -0.015668011694390922 -0.36419957376942796 -0.892956352053544 0.0 0.0 -0.9515132326816048 0.166851879179105
220000000.0 -0.07453192335303097 -0.0345658809181501 -0.37952262520956365 -0.9004733090761988 0.0 0.0 -0.9548590793826478 0.19189108453545475
225000000.0 -0.07767234795095043 -0.032812748530048196 -0.5191555889676642 -0.9643925509959037 0.0 0.0 -1.0752573259317717 0.35071794538496065
230000000.0 -0.0900143617754187 -0.03736181968146647 -0.5121588633225894 -0.8215653741821481 0.0 0.0 -1.0545073644611054 0.44723303617925697
235000000.0 -0.08627726565090829 -0.033965536529049545 -0.5483235858792981 -0.7932116774363782 0.0 0.0 -0.9870084093289171 0.5015454015617128
240000000.0 -0.08428551623442106 -0.031113290998182278 -0.5740082400415597 -0.7710424135385009 0.0 0.0 -0.9369085832728596 0.5383989967431636
245000000.0 -0.08327941611145577 -0.027837704791343138 -0.6009466013002613 -0.7488386754084914 0.0 0.0 -0.9006373879734356 0.5676356954377074
250000000.0 -0.081670614038444 -0.02713853097467125 -0.6229617133017203 -0.7294952580284279 0.0 0.0 -0.8673637126496586 0.6045782383772139
255000000.0 -0.08163136780390132 -0.027671372556929266 -0.6505472295431877 -0.7039911321259099 0.0 0.0 -0.8218861547038394 0.658759616555274
260000000.0 -0.08195076130426869 -0.029957522020107194 -0.6801226232470452 -0.6797550367070704 0.0 0.0 -0.7776528056606801 0.7328459694477164
265000000.0 -0.08242661788418754 -0.03297400666977958 -0.7279905897961342 -0.6359729677194951 0.0 0.0 -0.7107818377760964 0.8167454089125942
270000000.0 -0.08535013831889814 -0.038436811047206615 -0.7452198651365525 -0.6134290976033911 0.0 0.0 -0.6580566770878313 0.8782390291792485
275000000.0 -0.0872022421816602 -0.03852673038409461 -0.7629359194628476 -0.5785352850462914 0.0 0.0 -0.5258437827397727 0.9363278930577634
280000000.0 -0.08941221059110413 -0.032823339725651005 -0.8033201908482817 -0.5163509598691317 0.0 0.0 -0.3986411975505881 1.0255467819369257
285000000.0 -0.0862152069618536 -0.030473053098728112 -0.8202974492969123 -0.4880402592185561 0.0 0.0 -0.28206116590785457 1.0214090744268294
290000000.0 -0.0872443524229793 -0.03171352871769699 -0.8465273981367145 -0.45277599408798075 0.0 0.0 -0.17708562407913125 1.0079045864115017
295000000.0 -0.08919453240844336 -0.03294399969806953 -0.8728691682880073 -0.4266142592587197 0.0 0.0 -0.09034409306147194 1.0040825190536278
300000000.0 -0.08891227417830339 -0.03396010894947906 -0.8945087876072307 -0.3930579616042917 0.0 0.0 -0.003960664978492372 0.9860640315942386
305000000.0 -0.08945626266494565 -0.03335932653360966 -0.9304151462280459 -0.3007180607382732 0.0 0.0 0.0902504654048462 0.9704508506675378
310000000.0 -0.08924486658275173 -0.03381454800262581 -0.9427548318059523 -0.2500583576458 0.0 0.0 0.18509302845252196 0.9483076447076283
315000000.0 -0.08918680247087755 -0.03491739184695263 -0.951616163969797 -0.20677910900448784 0.0 0.0 0.2658255705337187 0.9176540170308959
320000000.0 -0.09018286793777298 -0.03630142434705196 -0.9589152695454314 -0.1628030747619196 0.0 0.0 0.35006071187266197 0.8801543039914347
325000000.0 -0.09064494273845143 -0.03653286777653994 -0.9608320435190667 -0.1375832428102036 0.0 0.0 0.4119970650618613 0.8434410437599097
330000000.0 -0.090889520352599 -0.03767269002598564 -0.9480985869116283 -0.168376856869123 0.0 0.0 0.4126368790383895 0.8331251629202336
335000000.0 -0.09111071277459735 -0.03978421954261544 -0.9421953118609445 -0.16612989679533827 0.0 0.0 0.4467433858897661 0.8071412176493608
340000000.0 -0.0919720717980945 -0.04254531144958158 -0.9446374099198451 -0.1249985032165973 0.0 0.0 0.520482768580138 0.7545292372628901
345000000.0 -0.09322827550556961 -0.04500945326339747 -0.9486568235189033 -0.0721776207518687 0.0 0.0 0.5983096421228071 0.6920910438361735
350000000.0 -0.09528689639151484 -0.04649264164957162 -0.9564152396387892 -0.007288870743330452 0.0 0.0 0.6797305130680763 0.6194315764378487
355000000.0 -0.09765952594715709 -0.05014526514740984 -0.9670219878644237 0.05496945297373642 0.0 0.0 0.7713423825049768 0.5343969936423686
360000000.0 -0.09546748616146189 -0.06387065939176055 -0.9778514519925477 0.08971234370359467 0.0 0.0 0.8433019208559924 0.4533633195809068
365000000.0 -0.0882693756955782 -0.08999173185646966 -0.9778226122837846 0.10889975159935474 0.0 0.0 0.8825150396054614 0.3846765202486208
370000000.0 -0.09111592068390861 -0.10182075358493257 -0.9924312805048254 0.15014344005937302 0.0 0.0 0.9179801846482567 0.31928212375759646
375000000.0 -0.09146420697837357 -0.0935888704772064 -0.9824450825086796 0.21346270349429597 0.0 0.0 0.9550058861163634 0.20798637140188925
380000000.0 -0.07762003102156498 -0.08647001888216038 -0.9713004306067372 0.2759601755837132 0.0 0.0 0.9727117285457196 0.0683852628682945
385000000.0 -0.061403815937938436 -0.07505818145620177 -0.9636080497655454 0.3501449291259905 -0.0 0.0 0.9846905412182745 -0.049685666400842994
390000000.0 -0.04924451772566459 -0.06224075395987703 -0.937884150151072 0.4395727737068545 -0.0 0.0 0.9720420483877898 -0.1479725282318283
395000000.0 -0.04418673600855457 -0.05755523516463695 -0.890010246135119 0.5043783743894654 -0.0 0.0 0.9530580918871181 -0.2342031670073897
400000000.0 -0.04097289396678845 -0.05164487749346502 -0.8533572690868297 0.5645631952328523 -0.0 0.0 0.9292906332590656 -0.31898315164107993
405000000.0 -0.036466684640796464 -0.048131863988411995 -0.8117578854325344 0.5994339727091009 -0.0 0.0 0.8933126699925128 -0.4011617724592259
410000000.0 -0.03149936059609701 -0.046220022267920345 -0.7674771562422531 0.6384802810907118 0.0 0.0 0.8533977089168228 -0.4934590180842018
415000000.0 -0.028301555013434277 -0.04530784879416932 -0.7174598223753624 0.6819498185381492 0.0 0.0 0.7944443826203325 -0.5801268888408729
420000000.0 -0.026816706688336994 -0.045688778682939454 -0.6722893162873009 0.7190144205001421 0.0 0.0 0.7231629362808771 -0.6586893518883964
425000000.0 -0.02491738333114324 -0.046559873823110165 -0.6319205815695668 0.747485805886597 0.0 0.0 0.6511833996497237 -0.7207676534996702
430000000.0 -0.021667458940062875 -0.04765143168114189 -0.5938907336469471 0.7711558429115348 0.0 0.0 0.5851045689722487 -0.7723821389376806
435000000.0 -0.019520567299566752 -0.04874306809289964 -0.5392959195090444 0.8071113204996614 0.0 0.0 0.502818460170834 -0.8315995159305566
440000000.0 -0.019518938848771875 -0.04900926152140291 -0.4740201575774645 0.845383472542319 0.0 0.0 0.4055167450689009 -0.8740302832536981
445000000.0 -0.0220258710886114 -0.04865756220286222 -0.40286538025940954 0.875180213154987 0.0 0.0 0.297563872571944 -0.9012425158051158
450000000.0 -0.029046857907382585 -0.04525019010690331 -0.3115792663425592 0.9073336385953858 0.0 0.0 0.16815348373454062 -0.9073081403674961
455000000.0 -0.040235451158965915 -0.03695366187230109 -0.20646776733997593 0.9302776626720893 0.0 0.0 0.02984183373268352 -0.8819559239062037
460000000.0 -0.0461520331804325 -0.029870026994082637 -0.135631467761746 0.9184839278854512 0.0 0.0 -0.04411148128268619 -0.8402954374958114
465000000.0 -0.043455052095297673 -0.03213415781126994 -0.11017965299480702 0.8888038227320576 0.0 0.0 -0.09165405133662459 -0.8024272089146639
470000000.0 -0.04179362467822156 -0.03845212784100558 -0.03505697851272823 0.86480244468022 0.0 0.0 -0.18185884553628331 -0.7757991993885878
475000000.0 -0.041989030955292404 -0.04565734294140358 0.03655560069317901 0.8506176026221296 0.0 0.0 -0.2715893441210136 -0.7670559373409558
480000000.0 -0.03957714031326276 -0.05197189315164159 0.03445365961282702 0.8384786549910446 0.0 0.0 -0.3160566110287514 -0.7628195428302489
485000000.0 -0.03340030398309408 -0.05932273854249614 0.11814480229920556 0.8176319151034737 0.0 0.0 -0.4105999866484253 -0.7069311768800445
490000000.0 -0.0258059500506961 -0.0689192612263828 0.20895364320895943 0.7873496212462007 0.0 0.0 -0.4904411180105135 -0.6408271212905349
495000000.0 -0.022168951028486768 -0.0814894563409284 0.26992278356074 0.7542979374482576 0.0 0.0 -0.5487676150015449 -0.5949475877182772
500000000.0 -0.030226145587769863 -0.09569575754572104 0.3372279599850343 0.6958801681173695 0.0 0.0 -0.6156330184998858 -0.5293378529007684
505000000.0 -0.050819967600111884 -0.11384804232331838 0.4116218115566501 0.5944088869626125 0.0 0.0 -0.6979298789141684 -0.4504704926561176
510000000.0 -0.07676592294650668 -0.12843113562773084 0.4723639613236926 0.4923490946045045 0.0 0.0 -0.7575332976047775 -0.34639630472186866
515000000.0 -0.11125675838667655 -0.13654362466353132 0.5104443857068282 0.40499059516449665 0.0 0.0 -0.788684085601686 -0.2171205433872039
520000000.0 -0.15473149986429724 -0.12542047244022397 0.5227206929846118 0.3379554181113112 0.0 0.0 -0.7943376703443468 -0.0802173787037306
525000000.0 -0.2008879027567661 -0.09656998050790225 0.555088771788611 0.27150924034734214 0.0 0.0 -0.7917840617578695 0.058962555468204975
530000000.0 -0.2179677975910936 -0.05842236876230924 0.5917721372445858 0.1957624239137343 0.0 0.0 -0.76247861753755 0.1754976076286389
535000000.0 -0.2402032235505286 -0.02845922995968089 0.610373688584726 0.12033194250190697 0.0 0.0 -0.7173505325210969 0.28047264316290194
540000000.0 -0.19860751805059762 0.037698982213673286 0.6199249849736743 0.038164629679729126 -0.0 0.0 -0.6460936888382103 0.38968837762728853
545000000.0 -0.1317650446329995 0.021316941313956474 0.6265725394375733 -0.061871819223943886 0.0 0.0 -0.5160566142355656 0.45820820420147695
550000000.0 -0.1173623515717787 -0.04230420779602637 0.5700737509603623 -0.17486271915097895 0.0 0.0 -0.3886725425949527 0.4820034749027036
555000000.0 -0.04187217996060111 -0.05193024730106168 0.5858746860776085 -0.26180949387034597 0.0 0.0 -0.2364584832214647 0.5872601221727581
560000000.0 -0.04774885051468118 -0.029680877951635192 0.661161510739008 -0.19054406997204473 0.0 0.0 -0.29494177088155427 0.6692258518501663
565000000.0 -0.11494170625841346 -0.017343341416513423 0.5717815696588575 -0.44314958922164827 -0.0 0.0 -0.09287086282895944 0.7506016866583063
570000000.0 -0.1895935918801595 0.020112840698746623 0.41941473193168893 -0.6072453799367373 0.0 0.0 0.07280537080003416 0.7235667836837993
575000000.0 -0.2261783800832375 0.06896649956013973 0.2814561853801448 -0.6835540052782569 0.0 0.0 0.16705636781289504 0.649758089749905
580000000.0 -0.21240712462064226 0.09254907374127469 0.1565955715792332 -0.7262161012692752 0.0 0.0 0.2656748407059615 0.5778252331513324
585000000.0 -0.20669986874671095 0.11584214049417035 0.04515561696971555 -0.711443872972871 0.0 0.0 0.3050712496388193 0.5100137094269681
590000000.0 -0.14570057298326858 0.11661725783436715 -0.08992037937341466 -0.6573527098008815 0.0 0.0 0.4139571382008101 0.3904774617900093
595000000.0 -0.03709881625259887 -0.09882759796402517 -0.001055231460223831 -0.6032739567678596 0.0 0.0 0.398443348657602 0.2286830982129238
600000000.0 -0.06256164021795743 -0.08685332008525291 -0.11674660066322119 -0.5052126038060852 0.0 0.0 0.4031844138131292 0.14497512183293085
605000000.0 -0.08367684995274664 -0.06613801947537121 -0.15778638062664974 -0.35632605817702756 -0.0 0.0 0.3333617691310705 0.04559683174669747
610000000.0 -0.0835360330794944 -0.030836981563352475 -0.1836245902182547 -0.27950722123709554 0.0 0.0 0.28595766155690355 -0.010947914633702243
615000000.0 -0.07147733233555464 -0.004754559046227695 -0.18902499135811612 -0.209853012838584 0.0 0.0 0.234086380329702 -0.04732787483282638
620000000.0 -0.051895677334588684 0.006860442430945294 -0.17360909901739333 -0.1524554788741352 0.0 0.0 0.1868535774932525 -0.06457336975055158
625000000.0 -0.02526075086852056 0.011298103451811323 -0.1434522291830911 -0.1099842703239974 0.0 -0.0 0.15355028271193644 -0.06229783877173748
630000000.0 -0.0026516765961625563 0.017519022997145618 -0.11015866970845796 -0.08175164527163194 0.0 -0.0 0.12993267224099486 -0.04520445623962221
635000000.0 0.002572219855001476 0.019624751745745832 -0.08201367428498671 -0.06547855404395779 0.0 -0.0 0.10378550828091815 -0.028805539600656533
640000000.0 0.0036312186547560093 0.02093623774260443 -0.05690694197114052 -0.05466457768224023 0.0 -0.0 0.08157820343269126 -0.011872034544005849
645000000.0 0.003972235569824362 0.022049513515085262 -0.03183970731733056 -0.049616532553866305 0.0 0.0 0.06594718541068041 0.009123096109686273
650000000.0 0.004163106823764871 0.022708045768599666 -0.011369736912003757 -0.03995785282810639 0.0 0.0 0.04869528470412986 0.025114028743829522
655000000.0 0.002839851497056992 0.022342390847445222 -0.00024005370176529174 -0.03228591225184908 0.0 0.0 0.03599468382391638 0.03223033389821376
660000000.0 0.0023459193658436407 0.021857000310485288 0.00564108049760506 -0.029381365303266557 0.0 0.0 0.031145671487803363 0.03588213380441459
665000000.0 0.0016036349562516357 0.020202635566029477 0.00965066631713644 -0.028701674430470808 0.0 0.0 0.029098113000197753 0.03721591147039314
670000000.0 0.00037279879946625647 0.017478405920747644 0.014705021910773561 -0.030373721726199773 0.0 0.0 0.029031692792568495 0.0392480466566129
675000000.0 -0.0009157479847001048 0.015922336324864634 0.018844122501666696 -0.028749834700544832 0.0 0.0 0.0257916614077553 0.040870045126605886
680000000.0 -0.0023385019195015415 0.016182307998687213 0.021651527296580795 -0.025721481419293896 0.0 0.0 0.021310391033898625 0.042706021695114386
685000000.0 -0.0025426242573310487 0.017954542421958545 0.022018075811223316 -0.021491358868983495 0.0 0.0 0.017267302231944167 0.04357113725580161
690000000.0 -0.0019123432707025022 0.020166183150934734 0.020660870898745673 -0.017082779474329467 0.0 0.0 0.014122016774763275 0.04331759666465567
695000000.0 -0.0019425903941461943 0.02194005760677358 0.019543266507174386 -0.0138820596436379 0.0 0.0 0.011477619711872363 0.04323566681526569
700000000.0 -0.0027965707272951524 0.022906707122268832 0.019059802331283873 -0.011703037014208103 0.0 0.0 0.008986622623965337 0.043232431062602786
705000000.0 -0.003420395905471467 0.023770688215542516 0.018983160234882463 -0.010111741242224425 0.0 0.0 0.007281156610290609 0.04364617095308974
710000000.0 -0.0037543042894952177 0.025426050918091712 0.01916919431667243 -0.008781072609073272 0.0 0.0 0.006127552062102003 0.045208744864371764
715000000.0 -0.005894664708859989 0.025877477011966396 0.0196320588955524 -0.007724400800721694 0.0 0.0 0.003484654437948646 0.04590251118957982
720000000.0 -0.007293313179917205 0.027557431925594702 0.020178659833594195 -0.00677599316512245 0.0 0.0 0.0017244360869945851 0.04793602242343714
