!Created with skrf (http://scikit-rf.org).
# Hz S RI R 50.0 
!freq ReS11 ImS11
25000000.0 -0.975317560359036 -0.26957443553658567
30000000.0 -0.9655411753622419 -0.3200510457868007
35000000.0 -0.9559723479600937 -0.3447701566040039
40000000.0 -0.9538274115244997 -0.3577705733916179
45000000.0 -0.9455368020132396 -0.30300907644489267
50000000.0 -0.9183680257775899 -0.4055311631754145
55000000.0 -0.8759810379592272 -0.49354000127581055
60000000.0 -0.891872613947841 -0.4739887856013211
65000000.0 -0.9493232798630381 -0.4801713685447937
70000000.0 -0.9118794007011669 -0.4593704096763438
75000000.0 -0.9039988213679852 -0.49574725834662725
80000000.0 -0.8488018289134174 -0.5111768173022336
85000000.0 -0.747517965434434 -0.61925716977875
90000000.0 -0.737413140258615 -0.6565832448721404
95000000.0 -0.76933748735279 -0.6190416694743804
100000000.0 -0.6620138145817571 -0.6304110946034188
105000000.0 -0.6365698581812168 -0.6041520735946535
110000000.0 -0.6785298515885378 -0.628335035686785
115000000.0 -0.70219784865048 -0.6011439023080428
120000000.0 -0.6884931290616982 -0.60127413347567
125000000.0 -0.5197059210145913 -0.6663212018187883
130000000.0 -0.518340277895796 -0.7484999963060512
135000000.0 -0.5525148956006278 -0.8316543588239129
140000000.0 -0.596132383647732 -0.7710193505173473
145000000.0 -0.5901053315783094 -0.764312002193959
150000000.0 -0.528385172025982 -0.7872244447514852
155000000.0 -0.48526747349560406 -0.8121084058276131
160000000.0 -0.45971157966831694 -0.8361665483233758
165000000.0 -0.4007471479882072 -0.8085370454432996
170000000.0 -0.28026870309225105 -0.763265400293076
175000000.0 -0.24687002741050748 -0.7777388672686434
180000000.0 -0.22986960891121658 -0.7167257545647501
185000000.0 -0.17891533400593515 -0.7805040499417146
190000000.0 -0.3224713480383968 -0.7131888870196518
195000000.0 -0.40594508741905044 -0.8149146610735218
200000000.0 -0.36507084721256666 -0.8941374050607029
205000000.0 -0.34837245025687397 -0.9350143240645451
210000000.0 -0.26763023672497666 -0.9824191854368294
215000000.0 -0.18009599087850853 -0.9914737737244872
220000000.0 0.049406600212806115 -0.947739074339902
225000000.0 0.06515501772280737 -0.9006938188237265
230000000.0 0.09513070064591038 -0.8991975983036323
235000000.0 0.13414013737409208 -0.8925992963150187
240000000.0 0.17263633975045056 -0.8757072615844863
245000000.0 0.21113949767600093 -0.8643196019947245
250000000.0 0.2641661233806263 -0.8445804564981718
255000000.0 0.32909351069218096 -0.8364122777353141
260000000.0 0.3946596637763748 -0.8109105362797115
265000000.0 0.4282379000853293 -0.7915367149752052
270000000.0 0.43722693747754904 -0.7823632067657905
275000000.0 0.4615288880748707 -0.7959595566315681
280000000.0 0.40590298734163033 -0.7832517748932507
285000000.0 0.38669257878588265 -0.7984294611115592
290000000.0 0.3854683517104171 -0.8329043066168151
295000000.0 0.4027402735043784 -0.8383989182533799
300000000.0 0.4551682962120435 -0.8257752138963528
305000000.0 0.5092741632188171 -0.8057254632114467
310000000.0 0.5241208415386187 -0.7791647162419346
315000000.0 0.5358440795539536 -0.7647051501411875
320000000.0 0.5607628385291014 -0.7579530724284995
325000000.0 0.5938260019312986 -0.7489697443421292
330000000.0 0.6374099925915022 -0.7361953333997667
335000000.0 0.6754379296713938 -0.7245243465968544
340000000.0 0.7087771841882097 -0.7073530625757459
345000000.0 0.7376432579150654 -0.6827326323493593
350000000.0 0.7554205394582197 -0.6666858273408806
355000000.0 0.7536716924495985 -0.6641018474567871
360000000.0 0.7663212536996106 -0.6535325875983667
365000000.0 0.8442312641294603 -0.5824655929243509
370000000.0 0.9191239772282966 -0.39707689694145587
375000000.0 0.9192272449803416 -0.17417151957539015
380000000.0 0.8772387358540062 0.006386862484837913
385000000.0 0.8294583554703883 0.10597148365403834
390000000.0 0.7999089925568097 0.179557167695791
395000000.0 0.7460073414632408 0.23186552052706638
400000000.0 0.6907419775459834 0.2642150416311203
405000000.0 0.6325739639624127 0.28549035477982687
410000000.0 0.5745982726481504 0.2504261944872992
415000000.0 0.522763856349171 0.16325517206821802
420000000.0 0.5032377932469472 0.08769593541085721
425000000.0 0.5127379919897017 0.0678037840175025
430000000.0 0.5473368386692727 0.13241220883136562
435000000.0 0.55415379260804 0.2791957577002368
440000000.0 0.48809405241781956 0.44084746951902437
445000000.0 0.3680220000010927 0.5565657818533776
450000000.0 0.2492531713500834 0.5591989458607624
455000000.0 0.22578149176090093 0.4311696893081349
460000000.0 0.21075158039746067 0.30873971072658424
465000000.0 0.13068879913068288 0.2975404116505617
470000000.0 0.06326359205079737 0.2634055378591313
475000000.0 0.2129311192609909 0.1001442967856957
480000000.0 0.22305140978820573 -0.12535152318850729
485000000.0 0.08854636289060366 -0.30176114704115453
490000000.0 -0.014756557577789783 -0.3735914085509853
495000000.0 -0.10991511083241338 -0.4706259492781129
500000000.0 -0.1624445928878219 -0.5370361734557346
505000000.0 -0.26815095776608033 -0.5555705153925106
510000000.0 -0.3495185033599234 -0.5614241986057846
515000000.0 -0.4259626644379479 -0.5623624023346674
520000000.0 -0.5046796874664994 -0.5456992654358297
525000000.0 -0.5712286521908463 -0.5131843749213938
530000000.0 -0.640760465891622 -0.4608615649376487
535000000.0 -0.6943916006123534 -0.4093939368417542
540000000.0 -0.7034366423720462 -0.36425166224709726
545000000.0 -0.6999851231414751 -0.36619115594993557
550000000.0 -0.7174004382699743 -0.4316503298782458
555000000.0 -0.6415126639660588 -0.4339513313924641
560000000.0 -0.5993574803712738 -0.4001183376652814
565000000.0 -0.6632018443094552 -0.3403026719015286
570000000.0 -0.6673646479335985 -0.30451453643356735
575000000.0 -0.7086593585081973 -0.28255415184671917
580000000.0 -0.7266658197735701 -0.30804349170179957
585000000.0 -0.7392253994467788 -0.30028304458761174
590000000.0 -0.7475066298737942 -0.30734868353919576
595000000.0 -0.8802890440221476 -0.42967829420050274
600000000.0 -0.927635849270065 -0.35806226080972153
605000000.0 -0.8709693570171216 -0.29139152711781585
610000000.0 -0.8721251011105897 -0.2680614597604639
615000000.0 -0.8638422231142491 -0.255665724312203
620000000.0 -0.8601299535647752 -0.25035933295780316
625000000.0 -0.8634835952634686 -0.24736308574862712
630000000.0 -0.8676178617362098 -0.24933920941463378
635000000.0 -0.8792733576569755 -0.24095844647505377
640000000.0 -0.8939211051064534 -0.22001834649239435
645000000.0 -0.9113280543087185 -0.19744421726366074
650000000.0 -0.9138910842512723 -0.18202315848900502
655000000.0 -0.9139820425923793 -0.17333773700279087
660000000.0 -0.9125840448072211 -0.16836574384102543
665000000.0 -0.9120839128096487 -0.16548628761856712
670000000.0 -0.9116873737630694 -0.1597427817101102
675000000.0 -0.9105734509828058 -0.15379627475860072
680000000.0 -0.9095175689979021 -0.1475014909122994
685000000.0 -0.9135480735486062 -0.14089782189977756
690000000.0 -0.9224234196515378 -0.13343050705492426
695000000.0 -0.9297654654518056 -0.12759204544233513
700000000.0 -0.9345964394190062 -0.12062508196934976
705000000.0 -0.9388837606556015 -0.11462571280927895
710000000.0 -0.942097591465537 -0.10921383280010916
715000000.0 -0.9490878902533898 -0.10531342783555069
720000000.0 -0.9539561937551646 -0.10055488757114033
725000000.0 -0.9663067858779626 -0.09329839141235358
730000000.0 -0.979625308989884 -0.08617410556792537
735000000.0 -0.9884377466642698 -0.07883531573323391
740000000.0 -0.9940932935264175 -0.07155048899725444
745000000.0 -0.9975225300446837 -0.06280548697717014
750000000.0 -1.0027374023194842 -0.05395857267895831
755000000.0 -1.0079326561268982 -0.04542866452808826
760000000.0 -1.013189032844348 -0.03614868766259905
765000000.0 -1.0188632075948232 -0.0285874754546675
770000000.0 -1.0211618483392872 -0.02102021336313164
775000000.0 -1.0267143008806987 -0.012356191027840524
780000000.0 -1.0321174791268 0.0017240744515567043
785000000.0 -1.0246601858307198 0.013760881358728395
790000000.0 -1.0168761452567607 0.03133200715660685
795000000.0 -1.0075218436873818 0.05149274973551611
800000000.0 -0.9962501778271838 0.06356093954445079
805000000.0 -0.9896634394817552 0.0641245323275898
810000000.0 -0.9909663492665257 0.05111217697490454
815000000.0 -0.9839730293529567 0.02101919454193039
820000000.0 -0.9588589260580579 -0.01875515087222094
825000000.0 -0.9369172268651036 -0.05010968130721119
830000000.0 -0.9351530905904136 -0.003419973023778923
835000000.0 -0.9363172147003721 0.08428963203017892
840000000.0 -0.926241229489011 0.1522977426683627
845000000.0 -0.9163509568301847 0.17564743274614963
850000000.0 -0.9132089233252159 0.18140132750162857
855000000.0 -0.9198331625850218 0.18640815390979612
860000000.0 -0.9264530111273321 0.19715960287468937
865000000.0 -0.9317591777542955 0.21347954362841354
870000000.0 -0.9293291535066879 0.23102949337917447
875000000.0 -0.9264516268931452 0.24870327436695702
880000000.0 -0.9214912483292714 0.26361399020006926
885000000.0 -0.9206799914725051 0.2813681105094206
890000000.0 -0.9180370806713023 0.3020024720163493
895000000.0 -0.9132799295137456 0.32252952477179564
900000000.0 -0.9059885046257259 0.33695996938195083
905000000.0 -0.8972489259777972 0.3460347750923274
910000000.0 -0.8939695931477949 0.34890409940552464
915000000.0 -0.8936036966227798 0.33992005402341857
920000000.0 -0.8973750189305388 0.31582083128712735
925000000.0 -0.9092221462213443 0.28356991048276897
930000000.0 -0.9133604075375417 0.2558583333876784
935000000.0 -0.9136688740628294 0.2451550267710845
940000000.0 -0.9113149205817279 0.24587702799659092
945000000.0 -0.9068129949095511 0.25333839847312706
950000000.0 -0.8996093695487755 0.26290926587248314
955000000.0 -0.8903395545507135 0.2724586181311783
960000000.0 -0.8771493616084537 0.2816320155213365
965000000.0 -0.8618589209207274 0.2970345584577896
970000000.0 -0.8453395717352273 0.31384914276304954
975000000.0 -0.8321952491838093 0.327986743982722
980000000.0 -0.8196728715886079 0.3391900322063179
985000000.0 -0.8042089628428942 0.349804446703545
990000000.0 -0.7876509226164812 0.36069945817618315
995000000.0 -0.7685654883049713 0.3712455525061159
1000000000.0 -0.7481395294009774 0.3819766968170728
1005000000.0 -0.7271241142624881 0.3917652707660466
1010000000.0 -0.7015065295073032 0.397093848485121
1015000000.0 -0.6802438806064818 0.40123551249813905
1020000000.0 -0.6575358245717731 0.4020192809196053
1025000000.0 -0.6351169781475516 0.4020823497146006
1030000000.0 -0.6119802551844193 0.40112479905132614
1035000000.0 -0.5878789710140407 0.3995338790878197
1040000000.0 -0.5797077567735115 0.4307497261755329
1045000000.0 -0.5581488342889689 0.4386357459694343
1050000000.0 -0.5308588188983845 0.4357815302836872
1055000000.0 -0.5025276218058227 0.42848064683777876
1060000000.0 -0.4751983029470406 0.4145985881794571
1065000000.0 -0.4492361186523923 0.3955631144335602
1070000000.0 -0.4273048693526431 0.369203415500881
1075000000.0 -0.41130541486256417 0.34240733568977305
1080000000.0 -0.3997445189085102 0.31493400169485863
1085000000.0 -0.39185206709855214 0.2877935685224466
1090000000.0 -0.3836312547582601 0.2620696691546678
1095000000.0 -0.37833858282132155 0.2361520554355765
1100000000.0 -0.37512524912371764 0.2026904293415188
1105000000.0 -0.37683377903713855 0.165594826831451
1110000000.0 -0.3798063862785651 0.1331669426502253
1115000000.0 -0.38550152933402543 0.10041453363059022
1120000000.0 -0.3892728125146487 0.07533482562503441
1125000000.0 -0.3946779306993553 0.05265907981100807
1130000000.0 -0.3986988836276527 0.030153208873677666
1135000000.0 -0.40306076496464216 0.011092610595854212
1140000000.0 -0.40715189627846027 -0.006991115371489658
1145000000.0 -0.40924784865486236 -0.02626526949474766
1150000000.0 -0.4075651056709252 -0.050558271205873355
1155000000.0 -0.4014721893882894 -0.08094968492651831
1160000000.0 -0.4005674587146473 -0.10446163086092196
1165000000.0 -0.41014450802505853 -0.12475599229091466
1170000000.0 -0.41628903012729235 -0.1446982598019453
1175000000.0 -0.42487804364533166 -0.16310420027213374
1180000000.0 -0.4377613307718943 -0.18276860856604316
1185000000.0 -0.4564319777138415 -0.20437356267694545
1190000000.0 -0.47875244194198463 -0.22450326094586748
1195000000.0 -0.5020013293218045 -0.23759875914151296
1200000000.0 -0.5270569917830787 -0.24044597678823387
1205000000.0 -0.5498453093537305 -0.2370805891089802
1210000000.0 -0.5701742992586141 -0.2282389645722057
1215000000.0 -0.5809772710838423 -0.2160774516708578
1220000000.0 -0.5907523541941948 -0.20691347409777672
1225000000.0 -0.592067007298198 -0.1969973406704406
1230000000.0 -0.5829759766289606 -0.19715309662392172
1235000000.0 -0.5581052980731639 -0.2169157500531492
1240000000.0 -0.5277543149866752 -0.24801627764785839
