!Created with skrf (http://scikit-rf.org).
# Hz S RI R 50.0 
!freq ReS11 ImS11
25000000.0 -0.8543234140918898 -0.0896422571306531
30000000.0 -0.861782958645975 -0.10337163982982568
35000000.0 -0.8853755808740656 -0.11876349632731176
40000000.0 -0.8895873850695174 0.125973467738315
45000000.0 -0.9133543039179685 0.08472931700254833
50000000.0 -0.8804576056731419 0.11685256621432222
55000000.0 -0.8496469589026915 0.16207882569466764
60000000.0 -0.8413057476399102 0.1582061064780873
65000000.0 -0.8303342644411722 0.15824454294051
70000000.0 -0.834808306479701 0.11257379533391676
75000000.0 -0.8144586684488277 0.1259393108038435
80000000.0 -0.8357742947571222 0.1660942071789073
85000000.0 -0.8249770894710874 0.20538404380570469
90000000.0 -0.8489887003557226 0.2392796224255317
95000000.0 -0.8838104965517121 0.24942687094475524
100000000.0 -0.8648316773330073 0.23578017742591192
105000000.0 -0.8804513024446601 0.22966860415789547
110000000.0 -0.8802756424369238 0.20419883616429707
115000000.0 -0.8782191586708792 0.2084115960407499
120000000.0 -0.8873210991965187 0.2240324731987851
125000000.0 -0.8641282977446748 0.23834514306464877
130000000.0 -0.9992255681969372 0.4636131084497992
135000000.0 -0.915926075974282 0.3439091371935301
140000000.0 -0.9028471360984086 0.3179426661536657
145000000.0 -0.8876680259460679 0.30842402003017505
150000000.0 -0.8726090292166333 0.3091784716955152
155000000.0 -0.8711862473786978 0.36371068242762394
160000000.0 -0.8621294739331259 0.3952598533949871
165000000.0 -0.8420734829583035 0.38464281421708807
170000000.0 -0.821874586095463 0.40494709685316793
175000000.0 -0.8212062343723103 0.3820626453317154
180000000.0 -0.7903123073317613 0.35883425228601734
185000000.0 -0.8144172600531869 0.3492279501092823
190000000.0 -0.7904882690725179 0.3233972892794608
195000000.0 -0.8413599506781505 0.3409568131125443
200000000.0 -0.8482793207456657 0.3572808533015288
205000000.0 -0.8553298269354709 0.37332891277078734
210000000.0 -0.8508466176233592 0.4014668642736592
215000000.0 -0.8454974699925619 0.4296878050005752
220000000.0 -0.7307697431174972 0.6011159190152771
225000000.0 -0.7082500887843831 0.5729158570430181
230000000.0 -0.7153297664215345 0.5657447272171293
235000000.0 -0.7235129992618075 0.5724220279667444
240000000.0 -0.7318041996820713 0.5860760446892257
245000000.0 -0.7366820828339601 0.6094364202291068
250000000.0 -0.731519744949972 0.6428820467622541
255000000.0 -0.7178971132500291 0.6812589230211767
260000000.0 -0.6982082918862347 0.6982082918862348
265000000.0 -0.6730513124043024 0.7147243905834028
270000000.0 -0.6565227834456319 0.7117161244082364
275000000.0 -0.6374719386152574 0.7169930956649979
280000000.0 -0.6511329848519415 0.6775734177610306
285000000.0 -0.6601915424344946 0.6429055936405256
290000000.0 -0.6807017957407661 0.6290139797975021
295000000.0 -0.6934280828966365 0.6197785190098062
300000000.0 -0.6974312869063733 0.6233565394471738
305000000.0 -0.702375189317204 0.6275548625176787
310000000.0 -0.7027036799797541 0.6271870137214832
315000000.0 -0.7008347294707982 0.6341420705968721
320000000.0 -0.7016420599187532 0.6348725740670822
325000000.0 -0.7016470244360596 0.6299941039073079
330000000.0 -0.7033352566033249 0.6297384019991801
335000000.0 -0.7046260248365743 0.6315591268223436
340000000.0 -0.7051804580792894 0.6358393343833334
345000000.0 -0.7080655390288876 0.6375450749695402
350000000.0 -0.7088131527441187 0.6465550914269519
355000000.0 -0.708180706393725 0.6505215300279518
360000000.0 -0.7110116446077445 0.6556432836380942
365000000.0 -0.7161364760051012 0.674852875815347
370000000.0 -0.7146104357441698 0.7340806180371813
375000000.0 -0.6921323835683131 0.8115294507530066
380000000.0 -0.6536350528879765 0.875642234077597
385000000.0 -0.6214729301286677 0.8728831643548699
390000000.0 -0.6069345108961184 0.8562533556282887
395000000.0 -0.5956414000360647 0.8335188967356403
400000000.0 -0.5919422063968655 0.8102691485783073
405000000.0 -0.5913096483635825 0.8064446042674825
410000000.0 -0.5856315202205115 0.8119981284474198
415000000.0 -0.5750565637307186 0.816706809285175
420000000.0 -0.5646056172334549 0.811454076300218
425000000.0 -0.5544396358628227 0.8170595620281839
430000000.0 -0.5363409985711337 0.8344755472827547
435000000.0 -0.5127922537211748 0.858512728224549
440000000.0 -0.49163374569285284 0.8668404169839735
445000000.0 -0.4739695515135709 0.8675195013334485
450000000.0 -0.4640868031856359 0.8676988506216807
455000000.0 -0.468038102322434 0.8681518061672048
460000000.0 -0.492686618693676 0.8715303401707207
465000000.0 -0.5003229710563053 0.9157548896767217
470000000.0 -0.4615549313405465 1.019856960704117
475000000.0 -0.4424292242973632 1.0566249478915575
480000000.0 -0.439798257214088 1.0591517007226534
485000000.0 -0.45109432025104756 1.0673700742362553
490000000.0 -0.4887152272510813 1.0803725981266084
495000000.0 -0.5074230503578276 1.0671879914155216
500000000.0 -0.503322738103155 1.0393207654384988
505000000.0 -0.47890943436031996 1.0004571577499257
510000000.0 -0.4432759272319468 0.9580193035259714
515000000.0 -0.39782505561953857 0.9313362182223553
520000000.0 -0.3448540769659624 0.9203947764898318
525000000.0 -0.29359524016863187 0.904130139234737
530000000.0 -0.2593672971330971 0.8667141358675661
535000000.0 -0.24771287934683942 0.8183992991743795
540000000.0 -0.22912275192183232 0.7896744518747889
545000000.0 -0.21151637587608862 0.7877397913892547
550000000.0 -0.18328719800618243 0.8093565959398357
555000000.0 -0.14728221304434524 0.8412879768398742
560000000.0 -0.09149401037910694 0.8661445728594804
565000000.0 -0.09490742404537475 0.8487933147213402
570000000.0 -0.17818821679920618 0.749115667953834
575000000.0 -0.2324298852872926 0.700342060187561
580000000.0 -0.26797154873693424 0.720938890089169
585000000.0 -0.27579645923316015 0.7419906857547386
590000000.0 -0.2620483785345142 0.7684429338290211
595000000.0 0.022343751461106762 0.8257357028204084
600000000.0 0.005109623568117501 0.8871412973377413
605000000.0 -0.007097910742350535 0.8840686762075801
610000000.0 -0.01265250140372266 0.884006628253747
615000000.0 -0.01714640902460432 0.8849495146186435
620000000.0 -0.02727605481939182 0.8826585564966491
625000000.0 -0.04058145473580236 0.8801137779629504
630000000.0 -0.0526193585711981 0.8804929040846154
635000000.0 -0.06095807675909081 0.8850592650059833
640000000.0 -0.06456538318530412 0.892000877971072
645000000.0 -0.06216289851902169 0.9025522490041802
650000000.0 -0.058420201954502114 0.9132997110097417
655000000.0 -0.05306822714158359 0.923174131002777
660000000.0 -0.04270977618684064 0.9333526897192623
665000000.0 -0.026719880736312027 0.9447706238588985
670000000.0 -0.005667006826205377 0.9549757716243599
675000000.0 0.014751730339233602 0.9603925310032153
680000000.0 0.028294439578757744 0.9589833139539475
685000000.0 0.03586855668731578 0.955419639797832
690000000.0 0.04189265447259973 0.9518747478946088
695000000.0 0.04698802606215388 0.9505391766281822
700000000.0 0.05047161069570704 0.9503605723155718
705000000.0 0.051466798103738956 0.9503071974846603
710000000.0 0.05096921138647198 0.9503340151698461
715000000.0 0.048702996615270465 0.9515506020695267
720000000.0 0.0447047618574069 0.9550469756705806
725000000.0 0.0410592578414626 0.9596278260347975
730000000.0 0.04206685072754266 0.9673636270791595
735000000.0 0.047963357077530126 0.9771865674847857
740000000.0 0.05499225659727392 0.9836085699910454
745000000.0 0.05945314872358115 0.9890466450713212
750000000.0 0.06045527527128161 0.9912742533341034
755000000.0 0.05868703150595771 0.99367387870759
760000000.0 0.05780478151896467 0.9994817883840829
765000000.0 0.059043854609251246 1.0086889049357892
770000000.0 0.0610115492443276 1.017937992555473
775000000.0 0.06408620220518772 1.0272033313147912
780000000.0 0.06938293379010109 1.0364037488973625
785000000.0 0.07750804178182599 1.0454656105734266
790000000.0 0.08604255109676946 1.053309036883915
795000000.0 0.0880003965471692 1.0568164004094882
800000000.0 0.07381882584647963 1.0530172432312668
805000000.0 0.04720947981046167 1.0436530081711939
810000000.0 0.024011145532817614 1.0420408286181821
815000000.0 0.022132316018035995 1.0565857316698153
820000000.0 0.05553569416100958 1.088769036164729
825000000.0 0.13907288584301902 1.1277756895929387
830000000.0 0.26952724416063467 1.1491352694963621
835000000.0 0.38512675370520977 1.1287188182640115
840000000.0 0.43358228192633314 1.0774828478408403
845000000.0 0.4256269400743094 1.021497874274846
850000000.0 0.39640380835716565 0.9796567095163982
855000000.0 0.3705473720451191 0.953846524930167
860000000.0 0.3574041520171677 0.9413679715486228
865000000.0 0.3548613303837559 0.9336881171037918
870000000.0 0.3579304530642705 0.9275984505302631
875000000.0 0.35851937476926143 0.9200290732539081
880000000.0 0.35573238312301503 0.913819867359692
885000000.0 0.34796734334571855 0.9083809164280785
890000000.0 0.34281439795802277 0.9067533287048448
895000000.0 0.3455094216053768 0.9105172721496365
900000000.0 0.35420764487313555 0.9132018264487648
905000000.0 0.3651111315960742 0.9137678686876023
910000000.0 0.37734627440361856 0.9136996279683601
915000000.0 0.3893763227323806 0.9111169092467736
920000000.0 0.40535295430565355 0.907877787531239
925000000.0 0.4285777021890034 0.9009586952451932
930000000.0 0.45591411734090426 0.8913178757812299
935000000.0 0.4766733285070383 0.8764633222454594
940000000.0 0.48813773499345686 0.8596271125501268
945000000.0 0.4937585597313674 0.8446280577786
950000000.0 0.4960900595023753 0.8315387301796653
955000000.0 0.49842804262867524 0.8210608463908815
960000000.0 0.5042439814918738 0.8123122851462194
965000000.0 0.5133387372425507 0.8026854122409408
970000000.0 0.5240702384203013 0.7917837601315434
975000000.0 0.5347290325575917 0.7806597384838134
980000000.0 0.5435178025786287 0.7679218763070461
985000000.0 0.5510303657900972 0.7545441699233671
990000000.0 0.5558324935896541 0.7429966293695468
995000000.0 0.5642001188967397 0.7326287864407104
1000000000.0 0.5696384372044736 0.7189625807400828
1005000000.0 0.5742299406120135 0.7058343566425892
1010000000.0 0.5761988546038445 0.692066425863196
1015000000.0 0.5773535531292961 0.6803103887978602
1020000000.0 0.5764390172020267 0.6689904109704565
1025000000.0 0.5743009115794938 0.6587975762984052
1030000000.0 0.571673747005405 0.6491214273893248
1035000000.0 0.5703369651870828 0.6410326385106491
1040000000.0 0.569183170400439 0.6341423152322038
1045000000.0 0.5686617908932818 0.6280271163328914
1050000000.0 0.5690972741054509 0.6223679026581258
1055000000.0 0.5712474768459399 0.6177556997562106
1060000000.0 0.5743488256950742 0.613547863402401
1065000000.0 0.5787245396184423 0.6094222358155174
1070000000.0 0.5844821780073685 0.6052490131969658
1075000000.0 0.5903161345731706 0.6009198192986974
1080000000.0 0.5983279880581828 0.5970761633005964
1085000000.0 0.6067427353486862 0.5927159784460797
1090000000.0 0.614739308226402 0.5872524044424977
1095000000.0 0.6228956561154076 0.5814696544340991
1100000000.0 0.631529202167488 0.5764633121831028
1105000000.0 0.6391005071273145 0.5710204987097437
1110000000.0 0.6455908885242507 0.5651720995849003
1115000000.0 0.6537278518283661 0.5603125351487216
1120000000.0 0.6610799210477731 0.5547119179298917
1125000000.0 0.6678120649724847 0.5481567333229178
1130000000.0 0.675730380598483 0.5415557792773382
1135000000.0 0.6836823794499292 0.534727938080105
1140000000.0 0.690959166057075 0.5269417980262578
1145000000.0 0.6981485586468765 0.5190582675194214
1150000000.0 0.705160061151548 0.5112013920031213
1155000000.0 0.711440483039683 0.5024241376779648
1160000000.0 0.7170439905348229 0.49262644129083355
1165000000.0 0.7235151635358072 0.48307215108586876
1170000000.0 0.7286746469809382 0.4715811940492565
1175000000.0 0.7346635324383568 0.4603177034651186
1180000000.0 0.739245576874926 0.44717416683091643
1185000000.0 0.7429767883429389 0.4331174979631389
1190000000.0 0.7463901114349973 0.4191972503380195
1195000000.0 0.7479114432271314 0.4042255270168864
1200000000.0 0.748318742342578 0.3888863246658994
1205000000.0 0.7478749158791212 0.37271371624340405
1210000000.0 0.7472261916607673 0.3565687099968361
1215000000.0 0.745747770281172 0.33954250992565377
1220000000.0 0.7439255816102459 0.32285068744123485
1225000000.0 0.7401755655973153 0.3055318456034591
1230000000.0 0.7362162766616943 0.2883717856415178
1235000000.0 0.731015558440061 0.27157182217101145
1240000000.0 0.7275822144883799 0.2520901539929414
1245000000.0 0.7237415166883412 0.23014056664115157
