!Created with skrf (http://scikit-rf.org).
# Hz S RI R 50.0 
!freq ReS11 ImS11 ReS21 ImS21 ReS12 ImS12 ReS22 ImS22
25000000.0 -0.08391896015698522 -0.02995579167175524 1.017131063971608 -0.22576317943789417 0.0 0.0 0.8418603203068747 -0.5995953184058121
30000000.0 -0.07773996673680292 -0.031666144064225535 0.9427001617562571 -0.2508526362465235 0.0 0.0 0.7747786903980415 -0.6597089227038283
35000000.0 -0.07945440721333304 -0.03411383598843575 0.9070111890926394 -0.2993731757096473 0.0 0.0 0.7351477983764482 -0.8056474389617609
40000000.0 -0.0788973419010595 -0.031023931084658472 0.9189904315863433 -0.30809454515799795 0.0 0.0 0.6160948322207324 -0.8441949772849836
45000000.0 -0.07556403292835714 -0.038415599671286896 0.8781635801957446 -0.392160361080868 0.0 0.0 0.521246562139669 -0.9569105547249572
50000000.0 -0.07910786152539925 -0.033449310377196825 0.8899593443054191 -0.4060212719757961 0.0 0.0 0.44467706709032073 -0.9531200699132983
55000000.0 -0.08351376059344448 -0.04207493076168701 0.8868778234996247 -0.40543993441761356 0.0 0.0 0.3333458033644413 -1.0160635585244435
60000000.0 -0.08453889366135255 -0.04190102085831575 0.8909388988630357 -0.45124550364709953 0.0 0.0 0.21574264783663896 -1.1079152168388509
65000000.0 -0.08009319076978719 -0.04867963677247466 0.8616153418706402 -0.5441805824069441 0.0 0.0 0.21736309172738127 -1.2166204420205313
70000000.0 -0.085413348844224 -0.025410127911332094 0.84661312611919 -0.5472746700251757 0.0 0.0 0.047349308068381044 -1.0866691015289454
75000000.0 -0.08620477840755124 -0.04075563975416017 0.8834998259387995 -0.5602852847114818 0.0 0.0 -0.11681861024926576 -1.1200756710850195
80000000.0 -0.10750415570549092 -0.012182906387286498 0.7982852111528326 -0.5599854266680323 0.0 0.0 -0.3048378302841492 -1.061719367474611
85000000.0 -0.0936624582129546 -0.015656198565909017 0.7919674515543222 -0.5892025134889972 0.0 0.0 -0.3026499072222226 -1.0662086752257092
90000000.0 -0.09347612489093361 -0.014262867429280008 0.790330673594346 -0.594045264915058 0.0 0.0 -0.41540834833934875 -0.9834809477180639
95000000.0 -0.09800812445522174 0.0010826060833636088 0.7723361672376711 -0.6329767930169052 0.0 0.0 -0.5628024611074868 -0.9089150852348443
100000000.0 -0.08902203344453108 0.021392649555241863 0.7249814983666245 -0.7036654991191429 0.0 0.0 -0.5581271193154911 -0.7903443988659716
105000000.0 -0.0818962284202302 0.03832463684960274 0.6984803777881008 -0.7793315770932067 0.0 0.0 -0.6453085806890129 -0.7099572580091557
110000000.0 -0.0779196998621289 0.02307339684178425 0.575655565289413 -0.7440206967572137 0.0 0.0 -0.7829926703993919 -0.6422640275051432
115000000.0 -0.097265349364935 0.00579171288251671 0.5570801451548699 -0.7371219563691387 0.0 0.0 -0.8511965596997746 -0.5690570211773546
120000000.0 -0.09443193141390677 -0.00896065174320631 0.512655624401234 -0.7284171011683254 0.0 0.0 -0.833011568493759 -0.46731037750358445
125000000.0 -0.10341739491422462 -0.026620021247132836 0.5667683427447444 -0.6482276637054071 0.0 0.0 -0.681196302923635 -0.5797737924194288
130000000.0 -0.09067018111946865 -0.01967222079512997 0.49393008066371236 -0.7311628271821735 0.0 0.0 -0.7591195353102987 -0.3394370040411313
135000000.0 -0.10323927719954346 -0.019308231690995586 0.493091690452132 -0.8340750105561296 0.0 0.0 -1.093526388218123 -0.3563814909571378
140000000.0 -0.09257066392609518 -0.013952229247545743 0.4502767955356236 -0.8621116907183453 0.0 0.0 -1.0343566008104836 -0.19830115659228983
145000000.0 -0.09373751723580129 -0.012511864961411564 0.36740374467256837 -0.8886512246395448 0.0 0.0 -1.0440786864568539 -0.09192174221586114
150000000.0 -0.09411551684359096 -0.013864047574414591 0.3293393182726153 -0.8865181789057779 0.0 0.0 -1.0367622215039467 -0.07751515063203816
155000000.0 -0.09327062241538414 -0.016703904855978714 0.30242760134892815 -0.8919725577952207 0.0 0.0 -0.9999624619627334 -0.014348442565523917
160000000.0 -0.094475212572435 -0.027243711478647063 0.24091738447517816 -0.9234012292326299 0.0 0.0 -1.0294980522292287 0.08893015210505367
165000000.0 -0.10452562146868022 -0.016498891775833312 0.19330120398913292 -0.9448840843553733 0.0 0.0 -1.0799921487323598 0.16274853556088878
170000000.0 -0.09864647978409467 0.04720934704202854 0.1968056734967479 -0.9474245898778232 0.0 0.0 -1.0943234929878816 0.32467936572728745
175000000.0 -0.0904386213516642 0.05698530604721805 0.057334441578698325 -0.9787503747320925 0.0 0.0 -1.0293601963558625 0.6546027293887288
180000000.0 -0.10362789398264474 0.0514524429366598 0.04149159489133851 -0.9401630864500218 0.0 0.0 -1.0690645601861735 0.6998399554314801
185000000.0 -0.0450637014884662 0.07246961312149523 -0.016526693540437246 -0.9483335340894857 -0.0 0.0 -0.7587822274040686 0.8975716505159397
190000000.0 -0.1074071976512079 0.0803680947627978 -0.027303669328881678 -0.910412320841755 0.0 0.0 -0.785140147999873 0.966944171055469
195000000.0 -0.11640247830403472 0.016499524821242784 -0.07870883962976785 -0.8507165607739374 0.0 0.0 -0.6201796302748677 0.7793346230312191
200000000.0 -0.08403224616464486 0.0029318214430937985 -0.06329958634590677 -0.901405504776647 0.0 0.0 -0.536028948374685 0.7835383563305037
205000000.0 -0.09358329169455094 -0.003862699219348223 -0.05548997818388918 -0.9063750201873259 0.0 0.0 -0.517313317832136 0.7954174526633283
210000000.0 -0.0927615767211354 -0.01085620926086701 -0.08701835242730087 -0.9219617621757863 0.0 0.0 -0.4582513554322865 0.8356574753826137
215000000.0 -0.08740519545651476 -0.01429711084130262 -0.12047871204380158 -0.9347043401404429 0.0 0.0 -0.37329118019598945 0.8856194145072641
220000000.0 -0.07459623570293224 -0.034560523650488166 -0.13827744561167668 -0.9376557638050088 0.0 0.0 -0.25461474922666033 0.9856792412133671
225000000.0 -0.07738519027744162 -0.03293508003800424 -0.22860848383711474 -1.0591428474132267 0.0 0.0 -0.09177403084963923 1.2104641613635794
230000000.0 -0.09019460553761753 -0.037784858613244376 -0.2549470514231259 -0.9288577389729841 0.0 0.0 0.08489776876810509 1.1586800882753614
235000000.0 -0.08696226375078374 -0.03410219943577809 -0.3016949685880726 -0.9151440935489058 0.0 0.0 0.2028835886096051 1.094454072863173
240000000.0 -0.08457799162442234 -0.030897435814705863 -0.3387444897501406 -0.9039306005500877 0.0 0.0 0.2919671801798696 1.0499683170068816
245000000.0 -0.08368917186333073 -0.026985344518789253 -0.3764399794545183 -0.8904331607376822 0.0 0.0 0.3776235291144851 1.0109133776667723
250000000.0 -0.0822325947791066 -0.02596034767142905 -0.40523761132159763 -0.872744206618325 0.0 0.0 0.4742593193519092 0.9655673072899151
255000000.0 -0.08182621038429898 -0.027077864772438207 -0.4347312633978687 -0.8499238961485363 0.0 0.0 0.5673014822670922 0.8917861716525326
260000000.0 -0.08230770875216022 -0.03157060754309655 -0.42508870572133806 -0.854694119664503 0.0 0.0 0.6129132161973438 0.8601538926289235
265000000.0 -0.08327053637997922 -0.03451806496922136 -0.4409912128357428 -0.8495142495975064 0.0 0.0 0.678591093177286 0.7969719997289214
270000000.0 -0.08608336339434694 -0.03941828567373099 -0.45416787792759744 -0.841148406211847 0.0 0.0 0.7706449545213848 0.7091032790686572
275000000.0 -0.08661872958147919 -0.038649094952701635 -0.4837006822048619 -0.8208138911041948 0.0 0.0 0.8492679712023455 0.5867800197547103
280000000.0 -0.08910960286013633 -0.031583000026487056 -0.557294082114104 -0.7768490910410599 0.0 0.0 0.9506609412446613 0.4187046214214423
285000000.0 -0.085688552674701 -0.02911685824218328 -0.5822461093748228 -0.7573831211442944 0.0 0.0 0.9661871393350262 0.27944234071107565
290000000.0 -0.08642372715113135 -0.03145337871488194 -0.6160660257705941 -0.7244563630510898 0.0 0.0 0.9755871301892514 0.15126665640637776
295000000.0 -0.08886737372358959 -0.03338421996326031 -0.6607295060284861 -0.6838452500376122 0.0 0.0 0.9730604650105882 0.020677614130339552
300000000.0 -0.08913844611487662 -0.03422501206406818 -0.6934115617006148 -0.6479608445473373 0.0 0.0 0.9532137785087107 -0.09603700643345994
305000000.0 -0.08885970279883156 -0.033992016204568425 -0.729026645927496 -0.6056188802935353 0.0 0.0 0.9331133206088311 -0.2094465362506529
310000000.0 -0.08948468964922077 -0.032911638320042264 -0.7619002034495771 -0.5708151634804385 0.0 0.0 0.9005883799486439 -0.32437792287246053
315000000.0 -0.08927669857264352 -0.033110947531245376 -0.784513429297757 -0.5415938540830955 0.0 0.0 0.8611288409113954 -0.4345355030141095
320000000.0 -0.09053307519936972 -0.03477741524345617 -0.8081146242820566 -0.49746345229235567 0.0 0.0 0.8046218913714507 -0.5452948724013162
325000000.0 -0.09144715319098627 -0.03576439421966672 -0.8291213384600621 -0.4505594145274809 0.0 0.0 0.7302284582587463 -0.642954227075874
330000000.0 -0.09175925763561324 -0.037384029763773814 -0.8493691109427367 -0.4033556489491169 0.0 0.0 0.6503923873422567 -0.7288196351934301
335000000.0 -0.09273127931849331 -0.038939903089354716 -0.8654142397575538 -0.3554158889914231 0.0 0.0 0.5557770540198596 -0.810001426593391
340000000.0 -0.09310030592731011 -0.041909307375566106 -0.874696605533564 -0.30649729317085694 0.0 0.0 0.448829495550734 -0.8780515154596017
345000000.0 -0.09424039200545126 -0.04448495312449141 -0.8816923076150794 -0.2554927566499306 0.0 0.0 0.33201957688704736 -0.9326151922078096
350000000.0 -0.09628334999573268 -0.04635714319127294 -0.8852999669416416 -0.20299507141888856 0.0 0.0 0.2032933287888829 -0.9688900014343108
355000000.0 -0.0989136976786796 -0.049084928139617 -0.8843686312142304 -0.15187291346776133 0.0 0.0 0.06627772663723742 -0.9752178542826275
360000000.0 -0.09804533983315943 -0.061610359297377265 -0.8754965545781127 -0.13577075890269263 0.0 0.0 -0.027034260958809352 -0.9698826989658289
365000000.0 -0.09295039441168697 -0.08702704458620823 -0.867656191559473 -0.15223749420155877 0.0 0.0 -0.06200826619888165 -0.9966052495255525
370000000.0 -0.09607165310779481 -0.09970922402987775 -0.8518629856087047 -0.16174203774904466 0.0 0.0 -0.1176945045618608 -1.0210642333755655
375000000.0 -0.1005613288390628 -0.09894805347861366 -0.8500723333829217 -0.14421700467655998 0.0 0.0 -0.2206498319293038 -1.0129566518767206
380000000.0 -0.08874943617876263 -0.0929123239138752 -0.8856295954452188 -0.0204294687067805 0.0 0.0 -0.35373310853703305 -0.9845205923612251
385000000.0 -0.06427186538948482 -0.07709139129871645 -0.9130153679667709 0.09170143561699647 0.0 0.0 -0.40054958253037826 -0.9578524013837793
390000000.0 -0.05200828262282526 -0.0654342726355359 -0.8959915915439184 0.2110530523741671 0.0 0.0 -0.5192165272465444 -0.8924033154450659
395000000.0 -0.043826343678237865 -0.05744056384713387 -0.863774241862534 0.32203241597384097 0.0 0.0 -0.644490008647688 -0.7988781902574895
400000000.0 -0.04186508968394054 -0.05344044379102914 -0.829907855540483 0.38738121644411655 0.0 0.0 -0.7354393938145675 -0.7046064932959558
405000000.0 -0.037042097969867356 -0.048536347113742245 -0.7903254206236622 0.4396784861326548 0.0 0.0 -0.7876018857190538 -0.6003613426154503
410000000.0 -0.031447321284698265 -0.04660947881244574 -0.7585366269879681 0.4833616820155777 0.0 0.0 -0.8277467235407777 -0.494630149986529
415000000.0 -0.027720862158952683 -0.04517963795385379 -0.7196081698454295 0.5320634053322115 0.0 0.0 -0.8684041121035627 -0.3914255284375076
420000000.0 -0.02620618303576775 -0.04575778188606232 -0.6772551648409154 0.5789769723524023 -0.0 0.0 -0.9030638775938397 -0.2900162631427192
425000000.0 -0.024821476796361156 -0.046510809598431284 -0.6365421253951031 0.6164281253005383 -0.0 0.0 -0.9200487556949551 -0.19177316222584506
430000000.0 -0.022952804736955195 -0.046889701395624254 -0.5958008190413798 0.6471901445848359 -0.0 0.0 -0.9260004514734037 -0.09179689275931106
435000000.0 -0.02256145714262979 -0.04650870830283809 -0.5368631312674201 0.690056315358603 -0.0 0.0 -0.9298009010218536 0.03668175290659966
440000000.0 -0.02211226126640308 -0.045411533931766584 -0.4681545800771848 0.736951201160529 -0.0 0.0 -0.9250919605566273 0.17684793553453057
445000000.0 -0.024336201391338064 -0.04277493287117331 -0.3984457346622232 0.7734791760735205 -0.0 0.0 -0.9025720791971421 0.30826169280952675
450000000.0 -0.030854253181554728 -0.03906079424139332 -0.31612839484154426 0.8002097864592994 -0.0 0.0 -0.8596355307180661 0.43352895734952274
455000000.0 -0.04008283447473091 -0.03181989936656318 -0.22405411775872808 0.8186283423945651 -0.0 0.0 -0.8037734734087445 0.5445882527898501
460000000.0 -0.04696015765433984 -0.02469718150230674 -0.167495634846613 0.8265321701648825 -0.0 0.0 -0.7693253453858456 0.6070956972830758
465000000.0 -0.044866673185113115 -0.02736679406713548 -0.15471996985005348 0.8283617939963808 -0.0 0.0 -0.7516508195377158 0.6045516338754499
470000000.0 -0.04275208378444714 -0.03430529420658256 -0.10377894032411196 0.8248101539364069 -0.0 0.0 -0.6633696973247885 0.6536824704831216
475000000.0 -0.04445637901120776 -0.04040000399088969 -0.01463029786121663 0.8268410079928388 0.0 0.0 -0.5235628275550073 0.7610165293015022
480000000.0 -0.04256731812396951 -0.046147218494239 0.06249682654255512 0.8289634773729114 0.0 0.0 -0.3715059767855042 0.8327886631089538
485000000.0 -0.03727933978235719 -0.05270135073004742 0.14693470516864823 0.8159298755346733 0.0 0.0 -0.19982406021401136 0.8607084780730028
490000000.0 -0.029438354649619008 -0.061570611105454705 0.2537265192104605 0.7893384318333015 0.0 0.0 -0.0023516641104256823 0.8760580350881566
495000000.0 -0.023427628372198948 -0.07325365564676907 0.30228276858423186 0.7776093395450182 0.0 0.0 0.13273239293190114 0.8716449063742508
500000000.0 -0.025993813618573364 -0.08750061395380969 0.27649579389705825 0.800552507772016 0.0 0.0 0.1674959474730015 0.8800281914450643
505000000.0 -0.04149295819629051 -0.1054391497279219 0.363868912252717 0.7737093955305933 0.0 0.0 0.3328795048297395 0.8338660324697685
510000000.0 -0.06543068435551411 -0.12204815294852951 0.44948120654847523 0.7411009912126397 0.0 0.0 0.46604301336465 0.7484464733070939
515000000.0 -0.09864061619399458 -0.13401940106787527 0.5225272074473661 0.6972981107811296 0.0 0.0 0.5609768645911536 0.6472591294163063
520000000.0 -0.14057285959470647 -0.131442258184442 0.5825785672193257 0.6540528850663 -0.0 0.0 0.6201134368428541 0.5598757135892023
525000000.0 -0.1863298948896358 -0.11053729288701113 0.6336949194926298 0.6093531272674422 -0.0 0.0 0.6846294252438783 0.472422362041579
530000000.0 -0.2279726066577391 -0.0784029268242444 0.6670240790701442 0.52702747858904 -0.0 0.0 0.7263318918454985 0.34647570915037434
535000000.0 -0.2401845752496332 -0.04051612134346142 0.6910332917625255 0.4583633024042767 -0.0 0.0 0.7889467580900485 0.16571990387988764
540000000.0 -0.21390918765609107 0.00870779532032286 0.7334487380387009 0.37073717172125437 -0.0 0.0 0.806069912169661 -0.043684067988123805
545000000.0 -0.1496018364452321 0.012099133772953437 0.7555037903940062 0.2609142994737209 -0.0 0.0 0.7664891863393818 -0.23719310736168853
550000000.0 -0.08928170629970804 -0.05772950129283409 0.7142520182935708 0.18767774264997272 0.0 0.0 0.7108188501361109 -0.39820455466074833
555000000.0 -0.0319546246487961 -0.05611402630674254 0.6881015021104295 0.07373955578258035 0.0 0.0 0.6344441770977571 -0.45661033571981785
560000000.0 -0.05028155732495836 -0.03803964257341917 0.6885245391611217 0.0383928144360393 0.0 0.0 0.5357369260129832 -0.45668389097963
565000000.0 -0.13181375792113523 -0.027099119861610402 0.6701619663037058 0.025689239683340616 0.0 0.0 0.38975752498309013 -0.48424263793391664
570000000.0 -0.20148130402724343 0.01733303175242321 0.6359258760784838 -0.07476310453487665 0.0 0.0 0.1672728853985944 -0.5471597855882381
575000000.0 -0.23702027151866129 0.059155835694369725 0.6005676342704643 -0.14283987473732498 0.0 0.0 -0.020218498094142324 -0.5773934076849364
580000000.0 -0.21512896546307483 0.08599783112873378 0.5469184655069758 -0.18526211994295716 0.0 0.0 -0.0964827107847652 -0.5366981293233615
585000000.0 -0.1852181622539953 0.1102673755712854 0.42400008610699136 -0.29952647678661914 0.0 0.0 -0.22892195171059193 -0.4507867272425104
590000000.0 -0.1391262323199225 0.10999119958152162 0.31919473726386 -0.33207598179521836 0.0 0.0 -0.28811697619335774 -0.3562512450958499
595000000.0 -0.03958858253122452 -0.10912265431906021 -0.03389414445528304 -0.3910661381367946 -0.0 0.0 -0.46965829457248753 -0.22161053132275038
600000000.0 -0.07422370479518217 -0.1082371072382292 -0.114685479067655 -0.2710209198524641 0.0 0.0 -0.3644777149708769 -0.07787039227407985
605000000.0 -0.08939668470424915 -0.0778759054904102 -0.1453589686590543 -0.18885064870524992 0.0 0.0 -0.2958233949399773 0.013517174542068817
610000000.0 -0.08722443590317482 -0.04305185764926465 -0.14376483483183322 -0.13057444036511898 0.0 0.0 -0.2362520383642146 0.07472253539664486
615000000.0 -0.07408820214576649 -0.017641763131957047 -0.13217586423675717 -0.09009278760923481 0.0 0.0 -0.17450405052575693 0.10610087881721042
620000000.0 -0.05622413779117083 -0.0020680216039666217 -0.10940154661945668 -0.07588421880231365 -0.0 0.0 -0.13339787741527478 0.10811020360474347
625000000.0 -0.03679351270884258 0.004959519664630121 -0.09963997250062051 -0.055824913632225345 -0.0 0.0 -0.08640404493012788 0.11013470561274541
630000000.0 -0.01248694756856362 0.012479128698735529 -0.09093083257120808 -0.04387241243231915 -0.0 0.0 -0.04393818725172614 0.11096365416810279
635000000.0 0.00045098580334898244 0.017814045456571833 -0.08605944065536433 -0.03182726351299889 0.0 0.0 -0.013298475864640757 0.11074351576480362
640000000.0 0.0033224235845603673 0.01966916169876824 -0.0804691285047186 -0.020195939901282513 0.0 0.0 0.005717066138197368 0.10447953715435619
645000000.0 0.004127997086852009 0.020920156827504484 -0.07324527944828259 -0.01241438765828716 0.0 0.0 0.017151084997023343 0.09563003373519208
650000000.0 0.004423723715506273 0.02184325908566028 -0.06518297490525819 -0.0064734089974703805 0.0 0.0 0.02462694611996816 0.08550867745825494
655000000.0 0.004307190234805959 0.02179405553626701 -0.057554981723657625 -0.00011898626796650278 0.0 0.0 0.03086185741551774 0.07403019873162435
660000000.0 0.004148242545079879 0.021461753308549422 -0.048221075863345134 0.0013937957065380715 0.0 0.0 0.030594001230481362 0.0628453614093238
665000000.0 0.0037889158519905934 0.020038116505453018 -0.039790390325729424 0.0016511168230272824 0.0 0.0 0.02829246916339242 0.05231482711109808
670000000.0 0.0028476741282851335 0.017526429436715913 -0.0349225178549625 8.726175449133347e-05 0.0 0.0 0.0251217388126381 0.04527088118178765
675000000.0 0.0018202300224982764 0.015351922923365225 -0.03209150772126503 -0.0030571386839778826 0.0 0.0 0.021483714686557645 0.04167600879455107
680000000.0 7.083016518514143e-05 0.01447861939701084 -0.029726166091830212 -0.007394488200420954 0.0 0.0 0.01645194586885399 0.040999678863325346
685000000.0 -0.001242917419683215 0.015760771097203495 -0.026188772349742755 -0.011334090953579602 -0.0 0.0 0.011403964680342186 0.041888307973071456
690000000.0 -0.0009502457635761753 0.017825696845254535 -0.021567611645683105 -0.012949947713932201 -0.0 0.0 0.0086545764320886 0.04158787967654802
695000000.0 -0.0009499703561358278 0.02029513815520108 -0.018171196878867046 -0.013199466130373491 -0.0 0.0 0.007152145723491383 0.04180829647859404
700000000.0 -0.002372746819200547 0.021081644205898583 -0.01651184730019399 -0.014068815666989278 -0.0 0.0 0.005177460049455606 0.04203711948968998
705000000.0 -0.0023358121257918856 0.022012303163540064 -0.014922211526052238 -0.014194082729432789 -0.0 0.0 0.004995871158768838 0.041905615866724935
710000000.0 -0.002617974032492126 0.023551140983794964 -0.014087053674526012 -0.014581560801945675 -0.0 0.0 0.004994652721707239 0.043043083657182506
715000000.0 -0.004839874507599747 0.02367655279840536 -0.013554634538879668 -0.014856992438719973 -0.0 0.0 0.0033564627070506534 0.042796138740053724
720000000.0 -0.006327906675926342 0.024881376133833517 -0.013229486160927366 -0.015072988668134548 -0.0 0.0 0.002647471926651744 0.04363908384403767
