!Created with skrf (http://scikit-rf.org).
# Hz S RI R 50.0 
!freq ReS11 ImS11
25000000.0 -1.0162034983375283 0.12090209822805864
30000000.0 -0.9995975654481424 0.15262039601316885
35000000.0 -0.9948888496577595 0.20389525336353415
40000000.0 -0.9902921594401812 0.19343373054900448
45000000.0 -0.9919066180217775 0.28349942885737917
50000000.0 -0.9946424801984581 0.26138351522617626
55000000.0 -0.9687800694436596 0.30281206100906355
60000000.0 -1.005995494514409 0.2912369460888609
65000000.0 -1.030366994959146 0.45713263462517095
70000000.0 -1.0442908300927884 0.23990563583182486
75000000.0 -0.9653171423810382 0.35721361542022845
80000000.0 -0.9262548747604906 0.2524327936452354
85000000.0 -0.9218749568720658 0.4192465841020882
90000000.0 -0.9564141119254042 0.452271374563327
95000000.0 -0.9789932438696332 0.45825368106956826
100000000.0 -0.997509594453232 0.2970916159124871
105000000.0 -0.956792504972843 0.340224268358963
110000000.0 -0.8030599352695483 0.47031944806816905
115000000.0 -0.8615236163376497 0.48820640782831526
120000000.0 -0.860855548142156 0.4730171025848642
125000000.0 -0.8569605043768844 0.5260156534665582
130000000.0 -0.9202821632252228 0.6128971268938266
135000000.0 -0.8978100378981867 0.549981671150897
140000000.0 -0.8943856610860916 0.5448253421101041
145000000.0 -0.8714569638676795 0.5848429534428524
150000000.0 -0.8395583820548391 0.5736033879075491
155000000.0 -0.8099007862182473 0.596930225998509
160000000.0 -0.8023343082635316 0.620394685111331
165000000.0 -0.844280169178167 0.5354519511136147
170000000.0 -0.8694107742790983 0.46351348335997855
175000000.0 -0.7777238440494672 0.6039333506436089
180000000.0 -0.8069816324368901 0.6145135170251688
185000000.0 -0.9005965081084207 0.5687846048875016
190000000.0 -0.588359844676562 0.6066125743700868
195000000.0 -0.6086896937681718 0.8168409059810492
200000000.0 -0.7725566872804402 0.8067450528990838
205000000.0 -0.7471005120198567 0.8419124476117033
210000000.0 -0.7337673202318684 0.8986432981014665
215000000.0 -0.7822301723181453 0.9258133752386095
220000000.0 -0.8552273416804075 0.9037689153325745
225000000.0 -0.9259682318098881 0.9478591438785524
230000000.0 -0.9216640296119472 0.9560657385481528
235000000.0 -0.9376300357984647 0.9483061267102985
240000000.0 -0.9347490995356067 0.956327713168554
245000000.0 -0.9577039332156049 0.9596538399585299
250000000.0 -0.9614103475026274 0.9797536819962419
255000000.0 -0.994531709685721 1.0218904024401738
260000000.0 -1.0565582075434774 1.1018423479790935
265000000.0 -1.0808924734512493 1.1461558297918009
270000000.0 -1.0684836988317763 1.2255899278882323
275000000.0 -1.0558008747093353 1.3133016649281466
280000000.0 -1.0105285491588014 1.2575113109175535
285000000.0 -0.9731233764084938 1.2496396114244024
290000000.0 -0.9689824669337836 1.3017827116078877
295000000.0 -1.032992164122978 1.3490803283261135
300000000.0 -1.0944184151863756 1.3894114387928944
305000000.0 -1.1636568690204223 1.4282024997265192
310000000.0 -1.1868328259832188 1.4478878696639084
315000000.0 -1.1830690342687475 1.4951087399947474
320000000.0 -1.22884022126757 1.5788768346766158
325000000.0 -1.280166336420748 1.6586368053400258
330000000.0 -1.3359008554500023 1.7480656362520761
335000000.0 -1.360267553624826 1.8388856279400532
340000000.0 -1.4049650774563083 1.9208698544433105
345000000.0 -1.4628550437149832 2.000409719269202
350000000.0 -1.450392018702015 2.028023044377116
355000000.0 -1.310979400710838 1.9571133433715477
360000000.0 -1.3739310564435883 1.9958788058271961
365000000.0 -2.400747912794799 2.030581009993903
370000000.0 -3.1722056014201323 0.22690834523780046
375000000.0 -2.377876449821796 -0.47462231416497036
380000000.0 -1.8736561575197253 -0.5019767628850214
385000000.0 -1.6410401434416932 -0.2613412662555331
390000000.0 -1.6350872777615963 -0.18288738429094709
395000000.0 -1.6589095327776764 -0.1799345978387687
400000000.0 -1.6874539055135118 -0.21092833116518267
405000000.0 -1.7081448290329164 -0.16295498885133425
410000000.0 -1.6677817267332087 -0.17646084800713824
415000000.0 -1.6242036481446167 -0.20396151730946355
420000000.0 -1.6069217874457795 -0.22378569448752167
425000000.0 -1.5410801976201018 -0.25739455845075265
430000000.0 -1.4302195113066005 -0.29494885032547896
435000000.0 -1.2983300274360088 -0.3204865305493422
440000000.0 -1.2499931110207814 -0.3101860917443581
445000000.0 -1.295205681025055 -0.2791380191527877
450000000.0 -1.4517919345645085 -0.18608046004358825
455000000.0 -1.6426743566351056 0.10164612748464924
460000000.0 -1.6501511960921476 0.4282037777033155
465000000.0 -1.5811412509282379 0.414083316346776
470000000.0 -1.4859268984130427 0.2983968317800531
475000000.0 -1.4319127016504973 0.2558037549108553
480000000.0 -1.4348719742230478 0.21064240168675796
485000000.0 -1.3998700446425971 0.14801036645474624
490000000.0 -1.3042336009866884 0.04974431533904258
495000000.0 -1.1457105625951165 -0.04737529597224535
500000000.0 -0.9236329939808366 -0.202132282192403
505000000.0 -0.6249594129543817 -0.4443141386427826
510000000.0 -0.27543390154830005 -0.6747964290495937
515000000.0 0.06628970734441053 -0.8193434309253292
520000000.0 0.3851884934481751 -0.9367955810378448
525000000.0 0.5861052737108201 -1.0786453059655265
530000000.0 0.5772660033544101 -1.0579322509827103
535000000.0 0.728120472192318 -0.8874092199417598
540000000.0 1.184604249672842 -0.7662054882442131
545000000.0 1.9063895552700703 -1.644035844147507
550000000.0 1.2385931213562054 -1.948212505297104
555000000.0 0.7504117303460933 -1.0389303673301202
560000000.0 0.5614775157323347 -0.886938975722272
565000000.0 1.1018051082601774 -1.1040894121294877
570000000.0 1.233731482675113 -1.0086717494622217
575000000.0 1.2857727172537543 -0.39210078851701696
580000000.0 1.1750086206123755 0.09585301130531992
585000000.0 2.1801653687962776 0.0026675470502717236
590000000.0 1.8397086038340564 0.5494844519228792
595000000.0 1.131438100215834 -0.3781836864679917
600000000.0 1.066571291867615 -0.4444004592503312
605000000.0 1.2891942881109446 -0.7309163285036882
610000000.0 1.1358106425029915 -0.9817971950843506
615000000.0 1.0008667584879438 -1.091391195888332
620000000.0 0.8329022553648385 -1.1488771224473338
625000000.0 0.6709139320893771 -1.1568126972455473
630000000.0 0.4507932375859848 -1.0622148276053691
635000000.0 0.32827950219196356 -1.0163500429100198
640000000.0 0.28234626094113047 -1.002793259679803
645000000.0 0.251418634559348 -0.9806718988396581
650000000.0 0.24276681693913926 -0.9694562969804974
655000000.0 0.2726160701620771 -0.9283046373250622
660000000.0 0.33799178938636487 -0.8834083438162557
665000000.0 0.42003378373178063 -0.8310533809778397
670000000.0 0.5018602839859265 -0.7869923362733279
675000000.0 0.5744307930656236 -0.7674559398974267
680000000.0 0.6155308135965215 -0.7665380556451187
685000000.0 0.6257969215382891 -0.790278076792995
690000000.0 0.6290723642441863 -0.8149425820616224
695000000.0 0.642667924302807 -0.8318661557370026
700000000.0 0.6478003954047804 -0.8470779620939934
705000000.0 0.6626273782434493 -0.8598541456682647
710000000.0 0.6752167506407668 -0.9012468442988003
715000000.0 0.6611644458034598 -0.9214400711502181
720000000.0 0.6445883347610322 -0.9304964612971076
725000000.0 0.6348838706146521 -0.9558522528448138
730000000.0 0.6458533198238028 -0.9689906711179828
735000000.0 0.6776701730772393 -0.9647218967901886
740000000.0 0.7237975509551557 -0.9668867298406113
745000000.0 0.770176502399373 -0.9579941635746247
750000000.0 0.8019980082470317 -0.9640252574475949
755000000.0 0.8337962949176166 -0.9687636874107228
760000000.0 0.8576324761265515 -0.9606121719684242
765000000.0 0.8722590443038049 -0.9502766591186576
770000000.0 0.8860172734519507 -0.945523951614139
775000000.0 0.8940008818775458 -0.9263962374580087
780000000.0 0.8850279676012539 -0.9024502580143944
785000000.0 0.8537606690816378 -0.8658534183782711
790000000.0 0.8030814817610463 -0.8415944393120132
795000000.0 0.7304401143029039 -0.8250318976323361
800000000.0 0.6525055843748508 -0.8388142568894472
805000000.0 0.6107323807909768 -0.9066977982700173
810000000.0 0.8011694619692784 -1.00563391199509
815000000.0 1.0109721991226261 -0.968132329432327
820000000.0 1.34228066849165 -0.8052994684673785
825000000.0 1.6344950720638733 -0.5309722404842692
830000000.0 1.7902654091218044 -0.510470748621314
835000000.0 2.3539522221847182 -0.8363976290194548
840000000.0 5.354245151870944 0.27851810759835405
845000000.0 -1.6627915333341279 0.4955417832558733
850000000.0 -0.5057936265387546 -0.5392000514606019
855000000.0 0.21413409882180845 -1.4794572980837377
860000000.0 1.3771134933765727 -1.8728415361143826
865000000.0 2.008108492862324 -1.6983758952049433
870000000.0 2.215421257802555 -1.6493132954872685
875000000.0 1.9435140306342564 -2.0945490530006343
880000000.0 1.2901667678837159 -2.2791049714132585
885000000.0 1.0491908052715984 -2.249451422266892
890000000.0 1.1833472740466822 -2.4455386428144674
895000000.0 1.5521850184460813 -2.264017426154359
900000000.0 1.0038946904249888 -2.5467587360847057
905000000.0 0.2745939633561142 -3.423054898253413
910000000.0 -1.674995092578329 -3.5183274187020066
915000000.0 -2.922373564792121 -0.4323971184663502
920000000.0 -0.5663350981093493 0.6905353345465226
925000000.0 -0.059665851515492564 0.4102686785030068
930000000.0 0.007063733587841181 0.12806792357914007
935000000.0 0.006732676473304937 0.054364669683976394
940000000.0 0.010880384200544456 0.028693113493258156
945000000.0 0.019553939660545826 0.02046833287772449
950000000.0 0.0350661009538506 0.023452321174596395
955000000.0 0.043276062479417426 0.02393759716764904
960000000.0 0.047270383028469046 0.022790319058467786
965000000.0 0.047368809657186504 0.023645553640300375
970000000.0 0.0510026093776096 0.033234303769792
975000000.0 0.058655867421810726 0.04444873281533802
980000000.0 0.06820005818924597 0.033514416938115944
985000000.0 0.06230291821978624 0.029765610660331236
990000000.0 0.06036703203102982 0.03264470758338792
995000000.0 0.052166882861227656 0.03926475562710887
1000000000.0 0.061734238213817336 0.03647211779161705
1005000000.0 0.06898622176410557 0.04479462345911866
1010000000.0 0.0714512682110725 0.04920462772766877
1015000000.0 0.0688174468228441 0.05424959353108567
1020000000.0 0.07069753844408677 0.051931815196128495
1025000000.0 0.06697724020698478 0.04913297997460171
1030000000.0 0.06602526158612788 0.049762561574548676
1035000000.0 0.065760515993811 0.050963690932751056
1040000000.0 0.0638202400428813 -0.006486789416591837
1045000000.0 0.05356145906170422 0.017699851013774477
1050000000.0 0.04859030996985145 0.025432872472623484
1055000000.0 0.03974591375425892 0.033999282852504586
1060000000.0 0.02937867718225187 0.049983454629262784
1065000000.0 -0.005849368685861819 0.03527759902959907
1070000000.0 -0.032837882999689816 0.045697344927447994
1075000000.0 -0.06173034670443485 0.05698506041464832
1080000000.0 -0.004283052479188226 0.0015850260044906195
1085000000.0 -0.06987416449541725 0.04491631488881849
1090000000.0 -0.14164065957206148 -0.10489105219663528
1095000000.0 -0.06489607625839465 0.07480282401336372
1100000000.0 -0.10659957686329344 0.04230409715423679
1105000000.0 -0.11009863694613968 0.07541765777397766
1110000000.0 -0.16745933234841548 0.05197198639088382
1115000000.0 -0.20105711845608726 0.03614710980479782
1120000000.0 -0.24382741272808142 0.024913384300210867
1125000000.0 -0.27812850904443126 0.03441500764625069
1130000000.0 -0.2941980695784199 0.0813057948371019
1135000000.0 -0.3161605624865112 0.07757930852612263
1140000000.0 -0.3516686697332668 0.08518853910426749
1145000000.0 -0.3707668449902438 0.08248458827557659
1150000000.0 -0.40048482250520834 0.08597850747657243
1155000000.0 -0.4875346066074932 0.13597949825804884
1160000000.0 -0.46525773584975344 0.10479112803978158
1165000000.0 -0.5033793062123271 0.04774605174557961
1170000000.0 -0.5162153338451814 0.11932007051779697
1175000000.0 -0.5549576084322809 0.11570010572580153
1180000000.0 -0.5950642776029439 0.11797914586665159
1185000000.0 -0.6381425148845713 0.11054264275272963
1190000000.0 -0.6902119868052574 0.11064295423564852
1195000000.0 -0.7498609956634277 0.12196461615031073
1200000000.0 -0.8213996799914194 0.11570616840461545
1205000000.0 -0.8914177928632798 0.17037530240421478
1210000000.0 -1.0151349801052412 0.1201625806450527
1215000000.0 -1.0325308523262662 0.2726780024390898
1220000000.0 -1.098855213421934 0.3585182302170236
1225000000.0 -1.1556145431626517 0.46761615874612766
1230000000.0 -1.209620828775041 0.5948323313368453
1235000000.0 -1.2358012144494888 0.7641324609024561
1240000000.0 -1.320067943640816 0.9226189864697256
