!Created with skrf (http://scikit-rf.org).
# Hz S RI R 50.0 
!freq ReS11 ImS11 ReS21 ImS21 ReS12 ImS12 ReS22 ImS22
25000000.0 0.0 0.0 0.9536095410125959 0.34444904037639557 0.0 0.0 0.9536095410125959 0.34444904037639557
30000000.0 0.0 0.0 0.9297451183173652 0.4550750709527334 0.0 0.0 0.9297451183173652 0.4550750709527334
35000000.0 0.0 0.0 0.95818455322753 0.4932858966121994 0.0 0.0 0.95818455322753 0.4932858966121994
40000000.0 0.0 0.0 0.8943100648279392 0.5236400674974099 0.0 0.0 0.8943100648279392 0.5236400674974099
45000000.0 0.0 0.0 0.84123548609721 0.5888206461411231 0.0 0.0 0.84123548609721 0.5888206461411231
50000000.0 0.0 0.0 0.7683906754718369 0.6686584970416113 0.0 0.0 0.7683906754718369 0.6686584970416113
55000000.0 0.0 0.0 0.7380184370249137 0.6952302386531941 0.0 0.0 0.7380184370249137 0.6952302386531941
60000000.0 0.0 0.0 0.6951901291248335 0.7605302371149498 0.0 0.0 0.6951901291248335 0.7605302371149498
65000000.0 0.0 0.0 0.6013173496066976 0.8105608139529654 0.0 0.0 0.6013173496066976 0.8105608139529654
70000000.0 0.0 0.0 0.5087175337022096 0.8409859391771984 0.0 0.0 0.5087175337022096 0.8409859391771984
75000000.0 0.0 0.0 0.5203818537848075 0.8046957951518499 0.0 0.0 0.5203818537848075 0.8046957951518499
80000000.0 0.0 0.0 0.45790998292018004 0.9256968017511447 0.0 0.0 0.45790998292018004 0.9256968017511447
85000000.0 0.0 0.0 0.3521316416255276 0.9759449372766611 0.0 0.0 0.3521316416255276 0.9759449372766611
90000000.0 0.0 0.0 0.24841934021866807 0.9591849531895849 0.0 0.0 0.24841934021866807 0.9591849531895849
95000000.0 0.0 0.0 0.17106072218369275 0.9771127545412184 0.0 0.0 0.17106072218369275 0.9771127545412184
100000000.0 0.0 0.0 0.0682062637289491 0.9681102737348564 0.0 0.0 0.0682062637289491 0.9681102737348564
105000000.0 0.0 0.0 0.06726621041750273 1.0632431860154963 0.0 0.0 0.06726621041750273 1.0632431860154963
110000000.0 0.0 0.0 -0.04380902607859363 1.036603098038917 0.0 0.0 -0.04380902607859363 1.036603098038917
115000000.0 0.0 0.0 -0.12140319570108404 1.019631384601721 0.0 0.0 -0.12140319570108404 1.019631384601721
120000000.0 0.0 0.0 -0.19061441770086754 0.97698418035162 0.0 0.0 -0.19061441770086754 0.97698418035162
125000000.0 0.0 0.0 -0.2586993628864789 0.9695392248351452 0.0 0.0 -0.2586993628864789 0.9695392248351452
130000000.0 0.0 0.0 -0.3292608866623159 1.0067798780350694 0.0 0.0 -0.3292608866623159 1.0067798780350694
135000000.0 0.0 0.0 -0.48202794077413774 1.0160636849057225 0.0 0.0 -0.48202794077413774 1.0160636849057225
140000000.0 0.0 0.0 -0.5413717304986773 0.927561268724584 0.0 0.0 -0.5413717304986773 0.927561268724584
145000000.0 0.0 0.0 -0.5823747247086284 0.8906402434519263 0.0 0.0 -0.5823747247086284 0.8906402434519263
150000000.0 0.0 0.0 -0.6375866021323959 0.8291198291280696 0.0 0.0 -0.6375866021323959 0.8291198291280696
155000000.0 0.0 0.0 -0.6545732137975183 0.7957571645781851 0.0 0.0 -0.6545732137975183 0.7957571645781851
160000000.0 0.0 0.0 -0.695022027214836 0.775158884169809 0.0 0.0 -0.695022027214836 0.775158884169809
165000000.0 0.0 0.0 -0.7636969876851388 0.7392988743894061 0.0 0.0 -0.7636969876851388 0.7392988743894061
170000000.0 0.0 0.0 -0.8387949599570519 0.6904662560924882 0.0 0.0 -0.8387949599570519 0.6904662560924882
175000000.0 0.0 0.0 -0.9615288592246115 0.6177646323722806 0.0 0.0 -0.9615288592246115 0.6177646323722806
180000000.0 0.0 0.0 -1.026849857185955 0.43270275985899936 0.0 0.0 -1.026849857185955 0.43270275985899936
185000000.0 0.0 0.0 -0.9778931815377935 0.36076384120218835 0.0 0.0 -0.9778931815377935 0.36076384120218835
190000000.0 0.0 0.0 -1.0257368177884807 0.2968396337996831 0.0 0.0 -1.0257368177884807 0.2968396337996831
195000000.0 0.0 0.0 -1.0060227862974473 0.19354736397751057 0.0 0.0 -1.0060227862974473 0.19354736397751057
200000000.0 0.0 0.0 -0.9795932145190526 0.1327944088583561 0.0 0.0 -0.9795932145190526 0.1327944088583561
205000000.0 0.0 0.0 -0.9741574438466708 0.0775232908199615 0.0 0.0 -0.9741574438466708 0.0775232908199615
210000000.0 0.0 0.0 -0.9839967029565672 0.005323986462650914 0.0 0.0 -0.9839967029565672 0.005323986462650914
215000000.0 0.0 0.0 -0.9912017515166636 0.03911768847250746 0.0 0.0 -0.9912017515166636 0.03911768847250746
220000000.0 0.0 0.0 -0.9852850317497494 0.12447044565319963 0.0 0.0 -0.9852850317497494 0.12447044565319963
225000000.0 0.0 0.0 -1.0845499802325815 0.31652827549659857 0.0 0.0 -1.0845499802325815 0.31652827549659857
230000000.0 0.0 0.0 -1.0298215469008674 0.4322627624277248 0.0 0.0 -1.0298215469008674 0.4322627624277248
235000000.0 0.0 0.0 -0.9760990909605667 0.49114017254774467 0.0 0.0 -0.9760990909605667 0.49114017254774467
240000000.0 0.0 0.0 -0.9320324868860311 0.5435452812779552 0.0 0.0 -0.9320324868860311 0.5435452812779552
245000000.0 0.0 0.0 -0.891881422773632 0.589428420167414 0.0 0.0 -0.891881422773632 0.589428420167414
250000000.0 0.0 0.0 -0.8520455485173712 0.6415961884824153 0.0 0.0 -0.8520455485173712 0.6415961884824153
255000000.0 0.0 0.0 -0.8110553088761824 0.6983568052144232 0.0 0.0 -0.8110553088761824 0.6983568052144232
260000000.0 0.0 0.0 -0.7583898166216878 0.7674444054490293 0.0 0.0 -0.7583898166216878 0.7674444054490293
265000000.0 0.0 0.0 -0.6960640362428101 0.8260172362065641 0.0 0.0 -0.6960640362428101 0.8260172362065641
270000000.0 0.0 0.0 -0.6302946508486578 0.8787650676554227 0.0 0.0 -0.6302946508486578 0.8787650676554227
275000000.0 0.0 0.0 -0.5741481521139841 0.9134987295199642 0.0 0.0 -0.5741481521139841 0.9134987295199642
280000000.0 0.0 0.0 -0.4937515564028788 0.9761915446555448 0.0 0.0 -0.4937515564028788 0.9761915446555448
285000000.0 0.0 0.0 -0.39156537954535126 0.9789832893482382 0.0 0.0 -0.39156537954535126 0.9789832893482382
290000000.0 0.0 0.0 -0.3238843246089269 0.9856795411808315 0.0 0.0 -0.3238843246089269 0.9856795411808315
295000000.0 0.0 0.0 -0.24379105898324335 1.0023517036370742 0.0 0.0 -0.24379105898324335 1.0023517036370742
300000000.0 0.0 0.0 -0.16527190292237287 1.0170451097680684 0.0 0.0 -0.16527190292237287 1.0170451097680684
305000000.0 0.0 0.0 -0.08329321114456151 1.0329819230356707 0.0 0.0 -0.08329321114456151 1.0329819230356707
310000000.0 0.0 0.0 -0.0005432485833484392 1.0375282735958629 0.0 0.0 -0.0005432485833484392 1.0375282735958629
315000000.0 0.0 0.0 0.07183238851877458 1.0350388019729129 0.0 0.0 0.07183238851877458 1.0350388019729129
320000000.0 0.0 0.0 0.146009753408627 1.027203176367454 0.0 0.0 0.146009753408627 1.027203176367454
325000000.0 0.0 0.0 0.22096821345258036 1.0100633286414435 0.0 0.0 0.22096821345258036 1.0100633286414435
330000000.0 0.0 0.0 0.28955189124999153 0.9876302078464602 0.0 0.0 0.28955189124999153 0.9876302078464602
335000000.0 0.0 0.0 0.3597605182654781 0.9642749061728422 0.0 0.0 0.3597605182654781 0.9642749061728422
340000000.0 0.0 0.0 0.4253308760253906 0.9372018838418767 0.0 0.0 0.4253308760253906 0.9372018838418767
345000000.0 0.0 0.0 0.49009605851738874 0.9090665402796311 0.0 0.0 0.49009605851738874 0.9090665402796311
350000000.0 0.0 0.0 0.5544313070729582 0.8783806964905366 0.0 0.0 0.5544313070729582 0.8783806964905366
355000000.0 0.0 0.0 0.614645128027587 0.8522264877918453 0.0 0.0 0.614645128027587 0.8522264877918453
360000000.0 0.0 0.0 0.6756740098255529 0.8284581867759112 0.0 0.0 0.6756740098255529 0.8284581867759112
365000000.0 0.0 0.0 0.7457723294249183 0.8210313048090874 0.0 0.0 0.7457723294249183 0.8210313048090874
370000000.0 0.0 0.0 0.8550572209186021 0.8077397649780141 0.0 0.0 0.8550572209186021 0.8077397649780141
375000000.0 0.0 0.0 0.9904904830375858 0.7297190222600604 0.0 0.0 0.9904904830375858 0.7297190222600604
380000000.0 0.0 0.0 1.0973926249370345 0.5990634936087817 0.0 0.0 1.0973926249370345 0.5990634936087817
385000000.0 0.0 0.0 1.1479911754913386 0.4540583825801542 0.0 0.0 1.1479911754913386 0.4540583825801542
390000000.0 0.0 0.0 1.1407464914578185 0.32861259964972805 0.0 0.0 1.1407464914578185 0.32861259964972805
395000000.0 0.0 0.0 1.125223925050278 0.22157606072562253 0.0 0.0 1.125223925050278 0.22157606072562253
400000000.0 0.0 0.0 1.1090757715414805 0.13166034795113013 0.0 0.0 1.1090757715414805 0.13166034795113013
405000000.0 0.0 0.0 1.0997894033654252 0.06206543893423445 0.0 0.0 1.0997894033654252 0.06206543893423445
410000000.0 0.0 0.0 1.096398686890366 0.013204317570188579 0.0 0.0 1.096398686890366 0.013204317570188579
415000000.0 0.0 0.0 1.0964781794428673 0.0001913715460186826 0.0 0.0 1.0964781794428673 0.0001913715460186826
420000000.0 0.0 0.0 1.092635700151004 0.011633194737396482 0.0 0.0 1.092635700151004 0.011633194737396482
425000000.0 0.0 0.0 1.094397844400082 0.06751142710583838 0.0 0.0 1.094397844400082 0.06751142710583838
430000000.0 0.0 0.0 1.0990434986839084 0.14957325567431962 0.0 0.0 1.0990434986839084 0.14957325567431962
435000000.0 0.0 0.0 1.1000140477045033 0.25193684897096014 0.0 0.0 1.1000140477045033 0.25193684897096014
440000000.0 0.0 0.0 1.0794166177418603 0.36746339052484256 0.0 0.0 1.0794166177418603 0.36746339052484256
445000000.0 0.0 0.0 1.0460037718541217 0.46374349835480977 0.0 0.0 1.0460037718541217 0.46374349835480977
450000000.0 0.0 0.0 1.0157525157298748 0.5437290543259299 0.0 0.0 1.0157525157298748 0.5437290543259299
455000000.0 0.0 0.0 0.9976092883093671 0.6077489979159181 0.0 0.0 0.9976092883093671 0.6077489979159181
460000000.0 0.0 0.0 1.0054287972287528 0.6439879869262559 0.0 0.0 1.0054287972287528 0.6439879869262559
465000000.0 0.0 0.0 1.0504323635567072 0.6404319620606687 0.0 0.0 1.0504323635567072 0.6404319620606687
470000000.0 0.0 0.0 1.1006675249876428 0.6579534350183976 0.0 0.0 1.1006675249876428 0.6579534350183976
475000000.0 0.0 0.0 1.1012365783890878 0.741116755194162 0.0 0.0 1.1012365783890878 0.741116755194162
480000000.0 0.0 0.0 1.0566503020302842 0.8084547591156418 0.0 0.0 1.0566503020302842 0.8084547591156418
485000000.0 0.0 0.0 0.9967656035095913 0.8603849890684393 0.0 0.0 0.9967656035095913 0.8603849890684393
490000000.0 0.0 0.0 0.927089827520053 0.9158319191699877 0.0 0.0 0.927089827520053 0.9158319191699877
495000000.0 0.0 0.0 0.8483867656538371 0.9773345240447914 0.0 0.0 0.8483867656538371 0.9773345240447914
500000000.0 0.0 0.0 0.7592862391862851 1.0462193944355336 0.0 0.0 0.7592862391862851 1.0462193944355336
505000000.0 0.0 0.0 0.6552710790648875 1.1177762884690738 0.0 0.0 0.6552710790648875 1.1177762884690738
510000000.0 0.0 0.0 0.533583415054668 1.1872769431038093 0.0 0.0 0.533583415054668 1.1872769431038093
515000000.0 0.0 0.0 0.40761392346753295 1.2552520714131556 0.0 0.0 0.40761392346753295 1.2552520714131556
520000000.0 0.0 0.0 0.2640931971620183 1.322858889610954 0.0 0.0 0.2640931971620183 1.322858889610954
525000000.0 0.0 0.0 0.08235213453975034 1.3699880347749565 0.0 0.0 0.08235213453975034 1.3699880347749565
530000000.0 0.0 0.0 -0.13756804563638952 1.3403696115597816 0.0 0.0 -0.13756804563638952 1.3403696115597816
535000000.0 0.0 0.0 -0.33982318743984785 1.2611909412461484 0.0 0.0 -0.33982318743984785 1.2611909412461484
540000000.0 0.0 0.0 -0.4806349850390596 1.1187082266178507 0.0 0.0 -0.4806349850390596 1.1187082266178507
545000000.0 0.0 0.0 -0.5788929109736051 1.0099863414796963 0.0 0.0 -0.5788929109736051 1.0099863414796963
550000000.0 0.0 0.0 -0.6382027992584799 0.9275500271556709 0.0 0.0 -0.6382027992584799 0.9275500271556709
555000000.0 0.0 0.0 -0.6749401116133411 0.8866274038894703 0.0 0.0 -0.6749401116133411 0.8866274038894703
560000000.0 0.0 0.0 -0.6910406587343803 0.8725018020074932 0.0 0.0 -0.6910406587343803 0.8725018020074932
565000000.0 0.0 0.0 -0.7304701273641426 0.8858160822569324 0.0 0.0 -0.7304701273641426 0.8858160822569324
570000000.0 0.0 0.0 -0.8308100968825008 0.8498777132863551 0.0 0.0 -0.8308100968825008 0.8498777132863551
575000000.0 0.0 0.0 -0.9002212095190365 0.7612847070219106 0.0 0.0 -0.9002212095190365 0.7612847070219106
580000000.0 0.0 0.0 -0.926695832600699 0.6666345417789244 0.0 0.0 -0.926695832600699 0.6666345417789244
585000000.0 0.0 0.0 -0.9415278093610798 0.5814994268825847 0.0 0.0 -0.9415278093610798 0.5814994268825847
590000000.0 0.0 0.0 -0.9500170993508089 0.49560178817066225 0.0 0.0 -0.9500170993508089 0.49560178817066225
595000000.0 0.0 0.0 -0.9610276396843443 0.40971479374254277 0.0 0.0 -0.9610276396843443 0.40971479374254277
600000000.0 0.0 0.0 -0.9860890238392566 0.2905958469720455 0.0 0.0 -0.9860890238392566 0.2905958469720455
605000000.0 0.0 0.0 -1.0141829415788783 0.1680787619661452 0.0 0.0 -1.0141829415788783 0.1680787619661452
610000000.0 0.0 0.0 -1.0240023400605056 0.05814706676894014 0.0 0.0 -1.0240023400605056 0.05814706676894014
615000000.0 0.0 0.0 -1.016248677392343 0.00017736885619599067 0.0 0.0 -1.016248677392343 0.00017736885619599067
620000000.0 0.0 0.0 -0.9987261443685412 0.015689244000304876 0.0 0.0 -0.9987261443685412 0.015689244000304876
625000000.0 0.0 0.0 -0.9755575435226911 0.07403749435804204 0.0 0.0 -0.9755575435226911 0.07403749435804204
630000000.0 0.0 0.0 -0.9547104125646029 0.14012816850496598 0.0 0.0 -0.9547104125646029 0.14012816850496598
635000000.0 0.0 0.0 -0.9361121640642082 0.2101037554262093 0.0 0.0 -0.9361121640642082 0.2101037554262093
640000000.0 0.0 0.0 -0.9189672380576792 0.2869303726620622 0.0 0.0 -0.9189672380576792 0.2869303726620622
645000000.0 0.0 0.0 -0.8989324934204364 0.36282734576869347 0.0 0.0 -0.8989324934204364 0.36282734576869347
650000000.0 0.0 0.0 -0.8766511320405649 0.4292772492406839 0.0 0.0 -0.8766511320405649 0.4292772492406839
655000000.0 0.0 0.0 -0.8485000090220541 0.4938387979022554 0.0 0.0 -0.8485000090220541 0.4938387979022554
660000000.0 0.0 0.0 -0.8175112072817581 0.5618598862081687 0.0 0.0 -0.8175112072817581 0.5618598862081687
665000000.0 0.0 0.0 -0.777514976310992 0.6343517403333279 0.0 0.0 -0.777514976310992 0.6343517403333279
670000000.0 0.0 0.0 -0.7244436084764457 0.7076958275905221 0.0 0.0 -0.7244436084764457 0.7076958275905221
675000000.0 0.0 0.0 -0.65729926798963 0.7750606931471198 0.0 0.0 -0.65729926798963 0.7750606931471198
680000000.0 0.0 0.0 -0.5811760707757582 0.8293891131483815 0.0 0.0 -0.5811760707757582 0.8293891131483815
685000000.0 0.0 0.0 -0.5052911008877328 0.8709720369221635 0.0 0.0 -0.5052911008877328 0.8709720369221635
690000000.0 0.0 0.0 -0.4322928329572261 0.9042890560281104 0.0 0.0 -0.4322928329572261 0.9042890560281104
695000000.0 0.0 0.0 -0.3594199357427976 0.9319427952472172 0.0 0.0 -0.3594199357427976 0.9319427952472172
700000000.0 0.0 0.0 -0.28653631461003076 0.9544700041544707 0.0 0.0 -0.28653631461003076 0.9544700041544707
705000000.0 0.0 0.0 -0.21527554806249782 0.9718479218988735 0.0 0.0 -0.21527554806249782 0.9718479218988735
710000000.0 0.0 0.0 -0.14575556372960874 0.9846762211684771 0.0 0.0 -0.14575556372960874 0.9846762211684771
715000000.0 0.0 0.0 -0.07784178034065557 0.9935072750887791 0.0 0.0 -0.07784178034065557 0.9935072750887791
720000000.0 0.0 0.0 -0.011867960298537324 0.9999295732792147 0.0 0.0 -0.011867960298537324 0.9999295732792147
725000000.0 0.0 0.0 0.05211218799631062 1.0044221095346995 0.0 0.0 0.05211218799631062 1.0044221095346995
730000000.0 0.0 0.0 0.11733329309148337 1.009452477382519 0.0 0.0 0.11733329309148337 1.009452477382519
735000000.0 0.0 0.0 0.18857587787609598 1.0105724355517116 0.0 0.0 0.18857587787609598 1.0105724355517116
740000000.0 0.0 0.0 0.26433186741508496 1.0032915216918206 0.0 0.0 0.26433186741508496 1.0032915216918206
745000000.0 0.0 0.0 0.340346837782015 0.9889996947845213 0.0 0.0 0.340346837782015 0.9889996947845213
750000000.0 0.0 0.0 0.41272368835268286 0.9676171459054576 0.0 0.0 0.41272368835268286 0.9676171459054576
755000000.0 0.0 0.0 0.4810558452393486 0.9437180341940167 0.0 0.0 0.4810558452393486 0.9437180341940167
760000000.0 0.0 0.0 0.5486835432009125 0.9175100567352187 0.0 0.0 0.5486835432009125 0.9175100567352187
765000000.0 0.0 0.0 0.617808832063923 0.8875875382426696 0.0 0.0 0.617808832063923 0.8875875382426696
770000000.0 0.0 0.0 0.6865647690532914 0.8533042370949412 0.0 0.0 0.6865647690532914 0.8533042370949412
775000000.0 0.0 0.0 0.7547360822856847 0.8110565191492288 0.0 0.0 0.7547360822856847 0.8110565191492288
780000000.0 0.0 0.0 0.8223111825238999 0.7614685041359363 0.0 0.0 0.8223111825238999 0.7614685041359363
785000000.0 0.0 0.0 0.8903612177064093 0.7039221929286602 0.0 0.0 0.8903612177064093 0.7039221929286602
790000000.0 0.0 0.0 0.9521391932942206 0.6345178323675686 0.0 0.0 0.9521391932942206 0.6345178323675686
795000000.0 0.0 0.0 1.0059278958641693 0.5589728110712986 0.0 0.0 1.0059278958641693 0.5589728110712986
800000000.0 0.0 0.0 1.0446053307272958 0.4859981077595428 0.0 0.0 1.0446053307272958 0.4859981077595428
805000000.0 0.0 0.0 1.0769062614145672 0.4242046576265217 0.0 0.0 1.0769062614145672 0.4242046576265217
810000000.0 0.0 0.0 1.1191688015510315 0.3530873298898936 0.0 0.0 1.1191688015510315 0.3530873298898936
815000000.0 0.0 0.0 1.2004981882892949 0.24184485815599632 0.0 0.0 1.2004981882892949 0.24184485815599632
820000000.0 0.0 0.0 1.258875459090467 0.08626300221379032 0.0 0.0 1.258875459090467 0.08626300221379032
825000000.0 0.0 0.0 1.276438789370069 0.00022278059800887607 0.0 0.0 1.276438789370069 0.00022278059800887607
830000000.0 0.0 0.0 1.255660412148948 0.06756455159562212 0.0 0.0 1.255660412148948 0.06756455159562212
835000000.0 0.0 0.0 1.1902864898522316 0.22835137336815034 0.0 0.0 1.1902864898522316 0.22835137336815034
840000000.0 0.0 0.0 1.100806102286998 0.36192663110853157 0.0 0.0 1.100806102286998 0.36192663110853157
845000000.0 0.0 0.0 1.023459819795092 0.43085360680155294 0.0 0.0 1.023459819795092 0.43085360680155294
850000000.0 0.0 0.0 0.96875261651752 0.46935671311443383 0.0 0.0 0.96875261651752 0.46935671311443383
855000000.0 0.0 0.0 0.9314190771784951 0.5044570913070049 0.0 0.0 0.9314190771784951 0.5044570913070049
860000000.0 0.0 0.0 0.9007518976424352 0.5457296346689935 0.0 0.0 0.9007518976424352 0.5457296346689935
865000000.0 0.0 0.0 0.8692992518093853 0.5945532996006702 0.0 0.0 0.8692992518093853 0.5945532996006702
870000000.0 0.0 0.0 0.8311554963256728 0.6468039549894743 0.0 0.0 0.8311554963256728 0.6468039549894743
875000000.0 0.0 0.0 0.7886586474471846 0.6979916568764832 0.0 0.0 0.7886586474471846 0.6979916568764832
880000000.0 0.0 0.0 0.7450434408350856 0.7460844446510111 0.0 0.0 0.7450434408350856 0.7460844446510111
885000000.0 0.0 0.0 0.7009589245389516 0.7908981185271321 0.0 0.0 0.7009589245389516 0.7908981185271321
890000000.0 0.0 0.0 0.6566144185249585 0.8374114094163561 0.0 0.0 0.6566144185249585 0.8374114094163561
895000000.0 0.0 0.0 0.6055306717496521 0.8870095058067344 0.0 0.0 0.6055306717496521 0.8870095058067344
900000000.0 0.0 0.0 0.5450733458232828 0.9369058664628702 0.0 0.0 0.5450733458232828 0.9369058664628702
905000000.0 0.0 0.0 0.4762289491076973 0.9820631324202905 0.0 0.0 0.4762289491076973 0.9820631324202905
910000000.0 0.0 0.0 0.40079205111747923 1.0206028445866966 0.0 0.0 0.40079205111747923 1.0206028445866966
915000000.0 0.0 0.0 0.32077001916486814 1.052475523874761 0.0 0.0 0.32077001916486814 1.052475523874761
920000000.0 0.0 0.0 0.23501401649665152 1.0787761635181685 0.0 0.0 0.23501401649665152 1.0787761635181685
925000000.0 0.0 0.0 0.14118742895959324 1.0975802062577606 0.0 0.0 0.14118742895959324 1.0975802062577606
930000000.0 0.0 0.0 0.03968725092431022 1.1033650896412017 0.0 0.0 0.03968725092431022 1.1033650896412017
935000000.0 0.0 0.0 -0.05941888200413802 1.0936035385873426 0.0 0.0 -0.05941888200413802 1.0936035385873426
940000000.0 0.0 0.0 -0.14897984263508965 1.0736398657966988 0.0 0.0 -0.14897984263508965 1.0736398657966988
945000000.0 0.0 0.0 -0.23180547131449583 1.049942124910113 0.0 0.0 -0.23180547131449583 1.049942124910113
950000000.0 0.0 0.0 -0.31024068293561374 1.0217634296708866 0.0 0.0 -0.31024068293561374 1.0217634296708866
955000000.0 0.0 0.0 -0.38783431467833185 0.9896365287471894 0.0 0.0 -0.38783431467833185 0.9896365287471894
960000000.0 0.0 0.0 -0.4643098349937503 0.9507125015456712 0.0 0.0 -0.4643098349937503 0.9507125015456712
