!Created with skrf (http://scikit-rf.org).
# Hz S RI R 50.0 
!freq ReS11 ImS11
25000000.0 0.06618856726749103 0.027986376253411705
29800000.0 0.06265252084878069 0.024780593168750694
34610000.0 0.06527194920042999 0.028245694673837026
39410000.0 0.0646483498589467 0.02944832484455632
44220000.0 0.06595303290106291 0.03155694923659497
49020000.0 0.06612036185297603 0.028983527381640735
53820000.0 0.07137467625925849 0.038302849135737935
58630000.0 0.08007912997230417 0.03269599284301296
63430000.0 0.08514396815039726 0.03412412788711361
68240000.0 0.08667109030684794 0.04010274926462406
73040000.0 0.09412050425071403 0.031327970524798736
77840000.0 0.10533345881600555 0.01596779917772069
82650000.0 0.1043845590786899 0.02419504165973534
87450000.0 0.10163192929973103 0.022029309108409542
92250000.0 0.10975545269960606 0.01769787945347256
97060000.0 0.11242726848185906 0.016501576828997826
101860000.0 0.1084130150456132 0.019506580258195454
106670000.0 0.09923305671071592 0.025460258097102294
111470000.0 0.09083655591962017 0.02232840927912422
116270000.0 0.07540834192367905 0.07056587830264771
121080000.0 0.10099549167186725 0.04429188038931605
125880000.0 0.12162292461375646 0.03361475091248214
130690000.0 0.13125454444592144 0.013795408519133315
135490000.0 0.1308819141723407 0.01811480256003603
140290000.0 0.11782035983185513 0.020181734172345242
145100000.0 0.11292705492354581 0.019221843212514633
149900000.0 0.10840600041895583 0.018063151005102935
154710000.0 0.10590029192113633 0.013697665736533124
159510000.0 0.1066357163504692 0.011697345334161561
164310000.0 0.10830794467708378 0.00999022908032672
169120000.0 0.11477975194468919 0.008308062076216182
173920000.0 0.11148247786753243 0.02960069776704679
178730000.0 0.07895478788606353 0.08190299069244407
183530000.0 0.06247425332276111 0.0634190900011045
188330000.0 0.06914529182360205 0.06427626311451508
193140000.0 0.005130898578475511 0.11846581414516401
197940000.0 0.003358628328108598 0.08703157683304068
202750000.0 0.020887536074260665 0.05824052085888899
207550000.0 0.04669424753657515 0.03306137014374065
212350000.0 0.05345498949723315 0.02549672209081734
217160000.0 0.0537856836557104 0.023464857581524577
221960000.0 0.05481194852302938 0.020188596170315102
226760000.0 0.07581723492963106 0.008531064724513706
231570000.0 0.07297058835464038 0.00976228145434576
236370000.0 0.07122333020088586 0.012776603654848446
241180000.0 0.0706517198261136 0.01601277890030556
245980000.0 0.07066484529694878 0.019411275147728554
250780000.0 0.0711518013721369 0.023407283520833367
255590000.0 0.07273490899476212 0.028124420461777492
260390000.0 0.07558340132416615 0.030906587265601776
265200000.0 0.0787653526252358 0.034526395357822114
270000000.0 0.08502520538564878 0.035531946182152434
274800000.0 0.08899385392319355 0.03433987027086452
279610000.0 0.09258868450623009 0.03090788154568847
284410000.0 0.09087656006043514 0.029352329126343984
289220000.0 0.09333951687804456 0.03221227974153803
294020000.0 0.09849620587532124 0.031055734421663806
298820000.0 0.10241953121705996 0.027500715716994518
303630000.0 0.10430375148748038 0.024541060299155065
308430000.0 0.1048800067634135 0.021338078539589616
313240000.0 0.10417849341372819 0.01915792402807328
318040000.0 0.10359802092143601 0.018267126236449195
322840000.0 0.10324107704338661 0.0167583911412298
327650000.0 0.10270716838786302 0.015514663516990553
332450000.0 0.10196454977286583 0.014838671153577633
337260000.0 0.10046502150987521 0.013672689358171081
342060000.0 0.101232111017668 0.013237597698962673
346860000.0 0.10319641945897205 0.011830732570140329
351670000.0 0.10606582014680027 0.010007494856844611
356470000.0 0.11128642710403766 0.009442790098648998
361270000.0 0.11648502285884238 0.008778998545632863
366080000.0 0.1289604770824977 0.00894994378539147
370880000.0 0.15403661637199012 0.02197751769491084
375690000.0 0.16461013983177902 0.05507778233029505
380490000.0 0.13583018688364448 0.09234475976255191
385290000.0 0.098962163927796 0.10010874271900037
390100000.0 0.06817496510522915 0.09287690084298778
394900000.0 0.04976052453030138 0.08515493195487225
399710000.0 0.03674500374152968 0.07408725378126295
404510000.0 0.030918380466592805 0.06588389930961576
409310000.0 0.028034246047392252 0.05890725914428291
414120000.0 0.02518544947136456 0.05337664550424148
418920000.0 0.021971575356585404 0.047660031259830864
423730000.0 0.01812272061995756 0.04004416704525004
428530000.0 0.013252633869893251 0.029807896835148815
433330000.0 0.011976340044079957 0.027308760444343036
438140000.0 0.011390516465847158 0.02479895377928782
442940000.0 0.011515604771628376 0.02304634281497953
447750000.0 0.012743904019918964 0.022561510659905852
452550000.0 0.014844563570983908 0.02346363998725363
457350000.0 0.01775608548567658 0.02678587004349016
462160000.0 0.025396950392235638 0.03876629186425825
466960000.0 0.030881051388865023 0.04839894406795311
471760000.0 0.0408952323472065 0.05150454622281495
476570000.0 0.053630743192862644 0.0510540207406797
481370000.0 0.06440335349120022 0.049436292453325426
486180000.0 0.07488942283039687 0.04679610510889368
490980000.0 0.08702996647244261 0.041417976816895304
495780000.0 0.10351686367067867 0.03129301592983388
500590000.0 0.12774753435138264 0.02073635038782558
505390000.0 0.15683359631644858 0.02638565956937006
510200000.0 0.1818033952839158 0.05405977227860376
515000000.0 0.19904760175148634 0.09319834999053873
519799999.99999994 0.20345946410991586 0.14384418614289632
524610000.0 0.1838850029858568 0.2067509767039011
529409999.99999994 0.12487442815538835 0.2526642053502888
534220000.0 0.05791463514885856 0.28593652941835235
539020000.0 -0.007736282936926143 0.26534780350143194
543820000.0 -0.061969011194290095 0.21972553962184277
548630000.0 -0.08644102743392405 0.178811853588333
553430000.0 -0.07770304693942966 0.1483798263775973
558240000.0 -0.02677461548015709 0.14238159572825754
563040000.0 0.038011057419691206 0.18163191512003274
567840000.0 0.018928619264769114 0.28348758420363535
572650000.0 -0.0974314475770217 0.32128936901272825
577450000.0 -0.15632865233396415 0.29450725829358726
582250000.0 -0.17728275405635266 0.24835783188975089
587060000.0 -0.18016861631823644 0.19620664231954785
591860000.0 -0.17288018411674147 0.15392240802136548
596670000.0 -0.16862504514115542 0.11719745941786248
601470000.0 0.013369029148828359 0.14275915038784445
606270000.0 -0.026582202463105296 0.13400441567559326
611080000.0 -0.05917079468348772 0.11678351823613121
615880000.0 -0.08408405428356212 0.09039026138479678
620690000.0 -0.09876912000698383 0.05776227283478466
625490000.0 -0.10227413452263502 0.02803660370507139
630290000.0 -0.09975146745984126 0.010906944032416897
635100000.0 -0.0971184405567387 0.009796435273288707
639900000.0 -0.0967641707094699 0.014444236908089342
644710000.0 -0.09767471755999568 0.021439439115216435
649510000.0 -0.09841422406723353 0.028461637123812424
654310000.0 -0.098820189923897 0.037459345178613816
659120000.0 -0.0991076631549406 0.04541688428698089
663920000.0 -0.09846481218322145 0.054064370038220545
668720000.0 -0.09598552283948994 0.06300275224776948
673530000.0 -0.09134071933368183 0.07195553226506163
678330000.0 -0.08420790965546589 0.07940903491238417
683140000.0 -0.07565737159054774 0.08373167222847276
687940000.0 -0.06788356010113937 0.08482351457297846
692740000.0 -0.06193695071252081 0.08413214309003622
697550000.0 -0.057355071695022734 0.08233900922027691
702350000.0 -0.05384854912328065 0.07980370913128741
707160000.0 -0.051247328244508755 0.07684212703963544
711960000.0 -0.049202166769659494 0.07333108406673945
716760000.0 -0.047933179337864736 0.06891546276588124
721570000.0 -0.04801339528429271 0.06373907029721579
726370000.0 -0.04998408980945092 0.0576421975954201
731180000.0 -0.05380662506331012 0.05136485365942099
735980000.0 -0.05864212638113437 0.04576682319821238
740780000.0 -0.06367402793640659 0.0409093934960176
745590000.0 -0.06867329830965443 0.036760595685574333
750390000.0 -0.07358904843772507 0.03318035398603489
755190000.0 -0.07907958476025545 0.03040332525989861
760000000.0 -0.08523118179775359 0.02743038977548562
764800000.0 -0.0915585770401155 0.02473869005605554
769610000.0 -0.09785510578820003 0.02273559174393811
774410000.0 -0.10362072714679897 0.023124001974652683
779210000.0 -0.11033726308293186 0.02037013729235904
784020000.0 -0.11613538895565953 0.01949691567496151
788820000.0 -0.12169450912922251 0.01805710198674374
793630000.0 -0.1272772284947208 0.01562767861366296
798430000.0 -0.1336761531441775 0.012683197119420746
803230000.0 -0.14295540478291838 0.011075116396380268
808040000.0 -0.15690442036364693 0.01245887020081829
812840000.0 -0.17613625674709424 0.012841919640811937
817650000.0 -0.2001833727792466 0.010280970169160726
822450000.0 -0.21843290397102413 0.012250538561597845
827250000.0 -0.22531239980274922 0.03839194440293524
832060000.0 -0.2171962886750893 0.07448998810611762
836860000.0 -0.2051107190628472 0.09351757685899387
841670000.0 -0.19428407501287728 0.10221779668386231
846470000.0 -0.18683307883278893 0.10544694406191431
851270000.0 -0.1820022876605311 0.10648142576639451
856080000.0 -0.17914395067299158 0.10751292090390514
860880000.0 -0.1768474705194528 0.10943653537266305
865680000.0 -0.17444952508583775 0.1123388812766832
870490000.0 -0.1707937292204264 0.1152885876989173
875290000.0 -0.16729304892654825 0.11827482479361486
880100000.0 -0.16372943855649552 0.12079999350971757
884900000.0 -0.15981491266649658 0.12289640599269507
889700000.0 -0.1553799214243461 0.12443827161973918
894510000.0 -0.15054000662580036 0.12498072146049664
899310000.0 -0.14639087888263883 0.1243682854950714
904120000.0 -0.14256298201816534 0.12245045176431144
908920000.0 -0.13984177742785256 0.12002834892166017
913720000.0 -0.13754652127179118 0.11689578515168791
918530000.0 -0.13609180035403975 0.11350818831766438
923330000.0 -0.13490347537169936 0.11018150559227266
928140000.0 -0.13406619919046991 0.10710028278491543
932940000.0 -0.13345346305740108 0.10344252449078174
937740000.0 -0.13390316979254138 0.0990108184292416
942550000.0 -0.13551106254037557 0.09414757038796881
947350000.0 -0.13813894717868502 0.08885395656251711
952150000.0 -0.14185433296413738 0.08279337258349158
956960000.0 -0.14761702630473214 0.07625609554095644
961760000.0 -0.1552329359751273 0.06982958875401787
966570000.0 -0.16426593623265182 0.06540256772367507
971370000.0 -0.17389551599052486 0.06291497254040565
976170000.0 -0.18374243500104598 0.061122972804296356
980980000.0 -0.19270376318663182 0.061573741373345196
985780000.0 -0.20115704677292198 0.0640426996100789
990590000.0 -0.20895765764181432 0.06813646246191225
995390000.0 -0.21600125073459261 0.07391164178666114
1000190000.0 -0.22169945685657527 0.08104274009862018
1005000000.0 -0.22715942392157576 0.08769907970792988
1009800000.0 -0.23136748707311477 0.09479638813288545
1014610000.0 -0.2347830246357872 0.10242781835596165
1019410000.0 -0.23718824904216992 0.1101494405090308
1024210000.0 -0.23882576310176418 0.11798318386617183
1029020000.0 -0.23957263191778688 0.12604525913288056
1033819999.9999999 -0.23975266764405265 0.13426794525911162
1038619999.9999999 -0.23884207370246852 0.14283082163789604
1043430000.0000001 -0.2371886134276409 0.1516301246729036
1048230000.0 -0.2345422776545663 0.16035405519503443
1053040000.0 -0.23062566825561562 0.1687306678630472
1057839999.9999999 -0.22597359691000835 0.17705859199952226
1062640000.0000001 -0.2205183189337057 0.184840167133353
1067450000.0 -0.21408907666075466 0.19175417130342529
1072250000.0 -0.20707065722804227 0.19788101816022796
1077060000.0 -0.20000789101007732 0.20317454355826903
1081860000.0 -0.19222322961514116 0.20700168773013022
1086660000.0 -0.18452795376522715 0.20960068065620407
1091470000.0 -0.17707522980980753 0.21095525708244922
1096270000.0 -0.1699206464482974 0.21073544368350358
1101080000.0 -0.1637317393374094 0.20934104461343175
1105880000.0 -0.15850606801037836 0.20649449669411724
1110680000.0 -0.15426331117188102 0.20227973798961113
1115490000.0 -0.1515785448566963 0.19704208878553858
1120290000.0 -0.15036972034649135 0.1908115699324924
1125100000.0 -0.15078220634341233 0.18408871544458652
1129900000.0 -0.1525346079115373 0.17658838770857982
1134700000.0 -0.1561012031287521 0.16875111720896588
1139510000.0 -0.16122757369557522 0.1608902525734048
1144310000.0 -0.1681128445067071 0.15329303541557415
1149120000.0 -0.17605754859226963 0.1457510153775698
1153920000.0 -0.18539132360718708 0.13904401018454737
1158720000.0 -0.19556449691998273 0.13315512642758104
1163530000.0 -0.20646479888889024 0.12856302048924298
1168330000.0 -0.21741669451019305 0.1252221994455502
1173140000.0 -0.22898614323691371 0.1238123457759812
1177940000.0 -0.23995867343724378 0.12395800122499175
1182740000.0 -0.25036300401309175 0.125864727714113
1187550000.0 -0.2602129863893416 0.1296807087826456
1192350000.0 -0.26864848629194227 0.13488120026630196
1197160000.0 -0.27632248575927204 0.14152309432108226
1201960000.0 -0.2824603100676782 0.14936573103372502
1206760000.0 -0.2869605561088913 0.1582800697238927
1211570000.0 -0.2897078270972744 0.16814047801993467
1216370000.0 -0.2910628395710761 0.1787830672265085
1221180000.0 -0.2905375799801017 0.18997765304499836
1225980000.0 -0.28812215937184876 0.20144568653449496
1230780000.0 -0.2842516944496431 0.21303456917029637
1235590000.0 -0.278483002797208 0.22446680727627125
1240390000.0 -0.27123500761856734 0.23569789562808813
1245190000.0 -0.26216000025956343 0.24635689235112598
1250000000.0 -0.2513034874001874 0.256264535958094
