!Created with skrf (http://scikit-rf.org).
# Hz S RI R 50.0 
!freq ReS11 ImS11
25000000.0 -0.9916416410096931 0.08968650805708483
30000000.0 -0.9813170167074562 0.1064638714992338
35000000.0 -0.9822730176896457 0.14121422628270522
40000000.0 -0.9911948560798185 0.12394271214282049
45000000.0 -0.9507513285062669 0.14154930334252078
50000000.0 -0.9959938936439785 0.09490732076500913
55000000.0 -0.9937964517696203 0.14323451805444004
60000000.0 -0.9799761641033728 0.22196943371949523
65000000.0 -0.9740971585136301 0.20717582516189575
70000000.0 -0.9779269034553345 0.17956326327467093
75000000.0 -1.0348052573278337 0.2559497899964873
80000000.0 -1.023542176983446 0.21185385164807216
85000000.0 -0.9843034198238326 0.19428034169146394
90000000.0 -0.9502136695546113 0.2736977511839595
95000000.0 -0.9346181377804976 0.28460522298269053
100000000.0 -0.973573358724921 0.32622907775710935
105000000.0 -0.9821840398922245 0.348725763985007
110000000.0 -0.9186848199671354 0.4136282302404702
115000000.0 -0.92581658139178 0.3463800151633064
120000000.0 -0.9085748985190677 0.27752417762640563
125000000.0 -0.9351635741475679 0.26899633525856376
130000000.0 -0.7986911674022801 0.3120068608883942
135000000.0 -0.8823418144233535 0.4664341874054954
140000000.0 -0.8901027865737188 0.4172746746051743
145000000.0 -0.9421070125637867 0.4137888249613704
150000000.0 -0.9673726598838114 0.4004562184143808
155000000.0 -0.9541709922098612 0.41727438276066475
160000000.0 -0.9335886332993105 0.43801139200313677
165000000.0 -0.9648555970659192 0.4365407555743811
170000000.0 -0.9905410615764698 0.5426122815454559
175000000.0 -0.9115345259585602 0.6613427232717382
180000000.0 -0.9314419907653235 0.5844890625156511
185000000.0 -0.7476493337121298 0.7467888831705718
190000000.0 -0.8699762974284132 0.6353560727109657
195000000.0 -0.7960418986803031 0.4752040768143237
200000000.0 -0.8040144364419042 0.49187427830673225
205000000.0 -0.8326064103792897 0.4977172931213276
210000000.0 -0.8460181032847783 0.5237507122090277
215000000.0 -0.8273072173725815 0.5474541896173611
220000000.0 -0.8030725157070014 0.622669797190315
225000000.0 -0.7610080911576396 0.6242654343857919
230000000.0 -0.7683025894626313 0.6535447977794339
235000000.0 -0.7678384333915589 0.6696924007652857
240000000.0 -0.7767912193855522 0.6725558000178158
245000000.0 -0.7797850215608615 0.6913906153584963
250000000.0 -0.7805506022216984 0.7063021637143803
255000000.0 -0.7546757504330672 0.7369060154228813
260000000.0 -0.7328827206905637 0.765771332147102
265000000.0 -0.700096863228638 0.7964759779436242
270000000.0 -0.6931482324133704 0.793706328787402
275000000.0 -0.6529619698616891 0.8100629332694291
280000000.0 -0.6571935593485196 0.8054218461740404
285000000.0 -0.6521108053389161 0.8005150191052341
290000000.0 -0.6370763108681745 0.7991104410921659
295000000.0 -0.6231327427948193 0.796725961509815
300000000.0 -0.5997235890465352 0.7995299533702515
305000000.0 -0.5733514140233124 0.8063076806077302
310000000.0 -0.5558899693209187 0.8136739477551556
315000000.0 -0.5365836849505463 0.8186324957572034
320000000.0 -0.5159136305364679 0.822704693773612
325000000.0 -0.4931360630028409 0.825352084727111
330000000.0 -0.47104424520853955 0.8296112513374968
335000000.0 -0.44859689002457204 0.8365020660592422
340000000.0 -0.4289148920603509 0.8425082117081559
345000000.0 -0.40552725655511734 0.8504848783930447
350000000.0 -0.3764428913868736 0.8629268540622576
355000000.0 -0.35081621675991964 0.8849957137181391
360000000.0 -0.3287376363643632 0.8958937597829539
365000000.0 -0.3037406814940871 0.8880665836981559
370000000.0 -0.27485948306751984 0.8737093862393572
375000000.0 -0.2292301530358247 0.8632514970890307
380000000.0 -0.14064215788158446 0.8510738252450362
385000000.0 -0.043320608972655855 0.8459884537055412
390000000.0 0.02516132604063482 0.832641903186231
395000000.0 0.08393140025567157 0.7969323421502656
400000000.0 0.10544437579616076 0.7592421924177915
405000000.0 0.0958736074152376 0.7285702914894231
410000000.0 0.2863196814218073 0.6359231033555688
415000000.0 0.28307050119571775 0.619178847899658
420000000.0 0.2789707268695774 0.6298415233249444
425000000.0 0.250183092674834 0.6696641077900295
430000000.0 0.1744727416901217 0.7316148771148845
435000000.0 0.12663573034724376 0.7673647452483487
440000000.0 0.20673494037006246 0.7661279175778123
445000000.0 0.3293988312709119 0.707243417028361
450000000.0 0.3786454559554766 0.621792821206807
455000000.0 0.3398667951843618 0.547196772986512
460000000.0 0.3061245680667957 0.48404372918374694
465000000.0 0.3108120040253876 0.4212803256813191
470000000.0 0.3330693839868742 0.3020024452491375
475000000.0 0.32115333674333635 0.15828763868781337
480000000.0 0.2166499379926902 0.045611067928593665
485000000.0 0.053643369737748074 -0.1000988873155581
490000000.0 0.06872123401499752 -0.08799014463744667
495000000.0 0.23917154511877314 -0.08462410173159247
500000000.0 0.35217231953549766 -0.029642280082746893
505000000.0 0.4043550895091029 0.05709709266915022
510000000.0 0.39707126180634844 0.16904980965686386
515000000.0 0.317517936293993 0.30304826812982943
520000000.0 0.13997338138086676 0.43871059104183074
525000000.0 -0.10088328021971586 0.5225760826071395
530000000.0 -0.30607109930364657 0.5382141907802289
535000000.0 -0.39724239004727585 0.5574119331134868
540000000.0 -0.41424588170067966 0.615377949261431
545000000.0 -0.3644455022948089 0.6570253102145909
550000000.0 -0.2801177085907764 0.6145032781415337
555000000.0 -0.26855884682479086 0.6583894802822918
560000000.0 -0.41752010088162483 0.6751347537281598
565000000.0 -0.4492050608647004 0.7209150068019065
570000000.0 -0.3899885810786073 0.7639430268112719
575000000.0 -0.4229229153859113 0.733235553865536
580000000.0 -0.43696467116696097 0.7193044917610806
585000000.0 -0.4403070740100742 0.7370496765901959
590000000.0 -0.401830927960966 0.7627163428125059
595000000.0 -0.29824797584986057 0.6381688021425553
600000000.0 -0.38381852164334596 0.8124481626735931
605000000.0 -0.36589056283150956 0.7513005826665964
610000000.0 -0.3381003659897236 0.7939147788735332
615000000.0 -0.3005926157962011 0.8248741037007734
620000000.0 -0.27342865662509497 0.8386759610738104
625000000.0 -0.23142822760766782 0.8477390468039807
630000000.0 -0.1856088310644327 0.8746370040652044
635000000.0 -0.1491792149464106 0.8944366423788724
640000000.0 -0.1115416655619874 0.9085297649270307
645000000.0 -0.07750857475662935 0.9168442590613795
650000000.0 -0.05470526789249072 0.9080561340133129
655000000.0 -0.03886274669896296 0.8963044475547864
660000000.0 -0.02849401964181306 0.8863871514196665
665000000.0 -0.01714560499285866 0.8773052523224889
670000000.0 -0.0034005883265288894 0.870552063802634
675000000.0 0.014543799183465135 0.8682929361793308
680000000.0 0.034614035095643654 0.8653734853920646
685000000.0 0.05311037712373159 0.8634216882676009
690000000.0 0.07769510806341956 0.8631813088102982
695000000.0 0.09885558232755288 0.8667751881109708
700000000.0 0.11551236658824325 0.8640792584253877
705000000.0 0.13841407254945548 0.8619837715083691
710000000.0 0.15758259749506956 0.8575817337691254
715000000.0 0.17321190761481423 0.8485321110782195
720000000.0 0.18796456896771147 0.8404697971873105
725000000.0 0.20483683750745188 0.8347361281330413
730000000.0 0.22192639232446046 0.8258649927887951
735000000.0 0.2367397305253282 0.8153080354418003
740000000.0 0.24867152271494708 0.8050897721983228
745000000.0 0.2573815312803258 0.79379580462134
750000000.0 0.2669464508173124 0.7831750647152933
755000000.0 0.2759594786541888 0.7733637706724846
760000000.0 0.28635126159437524 0.762436031181878
765000000.0 0.2977357334779701 0.7514624649262847
770000000.0 0.31701136078281494 0.7422596882875461
775000000.0 0.33223921165854126 0.7283026605387724
780000000.0 0.35101970782262437 0.7143720304376685
785000000.0 0.3765198660360805 0.7041071603460257
790000000.0 0.41788925351270195 0.6987168634590643
795000000.0 0.4674314224446984 0.6935004538336462
800000000.0 0.49779476559737007 0.6779829190765044
805000000.0 0.5175788962559844 0.6622019826475382
810000000.0 0.4891430865804133 0.6592710768069334
815000000.0 0.4734302903881492 0.6407631366165638
820000000.0 0.48927166760966945 0.6628079176445174
825000000.0 0.5213010061653218 0.6947310034940807
830000000.0 0.5246982973743152 0.6874572095621665
835000000.0 0.5290685831463516 0.6542926203242461
840000000.0 0.5383211954373008 0.6333497386636074
845000000.0 0.5510663720153304 0.6275526289409123
850000000.0 0.5662016408130238 0.6282004581250709
855000000.0 0.5855308816969171 0.6270105125842313
860000000.0 0.603212193198815 0.6225345529529381
865000000.0 0.6195296168467377 0.6116777364925606
870000000.0 0.6306634793669829 0.5982407444439573
875000000.0 0.6434446494411304 0.5868067934200194
880000000.0 0.6552853571746283 0.5754106801628335
885000000.0 0.6708575315362887 0.5628843442159325
890000000.0 0.6904915556892868 0.5469961887079888
895000000.0 0.7072880980254619 0.5256248637873365
900000000.0 0.7176506886581766 0.5029910885513756
905000000.0 0.723540562336351 0.4809310414196561
910000000.0 0.7264309074515534 0.45940629547313333
915000000.0 0.7245535427985272 0.4398387201643223
920000000.0 0.7153052350560241 0.42264060313256757
925000000.0 0.702621888124275 0.4059497286103057
930000000.0 0.6933203977585266 0.39384771486505543
935000000.0 0.691790951897265 0.3818689204952297
940000000.0 0.6966369832488196 0.371616989039309
945000000.0 0.7107926418449628 0.36201786609789766
950000000.0 0.7286215065497883 0.3525461592824547
955000000.0 0.7463362830365662 0.34202555511021676
960000000.0 0.7635714500369182 0.3290830155424403
965000000.0 0.7756967194128278 0.3121240723093702
970000000.0 0.7882365705016714 0.28336441505319165
975000000.0 0.7989978964513119 0.2524263375255978
980000000.0 0.8069618402310299 0.2230527195478292
985000000.0 0.8126627989544594 0.19932442282316817
990000000.0 0.8168366946656741 0.17853906165842887
995000000.0 0.8156969097758062 0.15848891502173146
1000000000.0 0.817522372043431 0.1429418017939651
1005000000.0 0.8199962251529753 0.13295449210198976
1010000000.0 0.8232959739852521 0.12744633678732353
1015000000.0 0.822898885282708 0.12502419057689115
1020000000.0 0.8239705680407853 0.12633525606211174
1025000000.0 0.8235574275983355 0.13141815251919042
1030000000.0 0.8190337847086013 0.13922244397395567
1035000000.0 0.8184049880372056 0.15061324875464716
1040000000.0 0.8533596759005371 0.23651185819052298
1045000000.0 0.8564234115414692 0.2749815531672153
1050000000.0 0.8488066469033059 0.30297058161882723
1055000000.0 0.8361390089582257 0.3346425738215234
1060000000.0 0.813174602287641 0.3687171260628392
1065000000.0 0.7967618119219069 0.41008527859598626
1070000000.0 0.7747661081815796 0.4529956661181551
1075000000.0 0.7483893687938343 0.4963653578765806
1080000000.0 0.7187371990689778 0.5444452601271257
1085000000.0 0.6862506432981832 0.5939549016384682
1090000000.0 0.6475208228745504 0.6421362085542786
1095000000.0 0.6095083150995991 0.6887086415553815
1100000000.0 0.5697380252503539 0.7291690398509815
1105000000.0 0.5374704930736347 0.7586861874873766
1110000000.0 0.5050099444791054 0.7854987845441155
1115000000.0 0.4673534006194596 0.8125376421175513
1120000000.0 0.43470224030862237 0.8405336843661984
1125000000.0 0.3983115981006831 0.8693627281345384
1130000000.0 0.3589265729574838 0.8934250231468406
1135000000.0 0.3177273172665841 0.9153328511668729
1140000000.0 0.27786383935878634 0.935411811717488
1145000000.0 0.23710934885519874 0.9506975428106885
1150000000.0 0.19612776855306951 0.9666871125361965
1155000000.0 0.15374300639348423 0.9802748266552519
1160000000.0 0.11073169048456238 0.9939085862995602
1165000000.0 0.06535386698087406 1.0054328774583043
1170000000.0 0.017459164225986368 1.0151921017933794
1175000000.0 -0.031823258487507805 1.0230603045679183
1180000000.0 -0.0813982238238424 1.028566729005177
1185000000.0 -0.1326128591303855 1.0290247799299361
1190000000.0 -0.1849090737571945 1.0298244205428642
1195000000.0 -0.23757623416157247 1.0262308621948495
1200000000.0 -0.29057990076601 1.0200286365457707
1205000000.0 -0.3405401590977444 1.0133211133713949
1210000000.0 -0.39172346544133424 1.0037869591257387
1215000000.0 -0.4433589473022018 0.9917364416655182
1220000000.0 -0.4941503301150852 0.9801136654509188
1225000000.0 -0.5423297569723564 0.9637242440045125
1230000000.0 -0.5911021112307224 0.9459606710135302
1235000000.0 -0.6324199096046174 0.9276631385023351
1240000000.0 -0.6827371650835485 0.9157629489860647
