!Created with skrf (http://scikit-rf.org).
# Hz S RI R 50.0 
!freq ReS11 ImS11
25000000.0 1.00230638996034 -0.027823069621765516
30000000.0 0.9999959427333538 -0.03175106006510474
35000000.0 1.0023834293006497 -0.016298187681593537
40000000.0 1.0007491003525901 -0.01669668361792935
45000000.0 0.9932479390920721 -0.07831334680938347
50000000.0 1.000467629098862 -0.02822497269073821
55000000.0 1.0019383904114694 -0.01806767799906859
60000000.0 0.9919855733749292 -0.0730282981063162
65000000.0 0.8671476390222204 0.3804357646780396
70000000.0 0.9126468097403865 0.39377461105702355
75000000.0 0.9433439875397724 0.2902325651272222
80000000.0 0.9491042118693351 0.3618313656274232
85000000.0 1.0024139185639354 -0.01438996464817617
90000000.0 1.0021648423258032 -0.010183550612562917
95000000.0 1.002249222358104 -0.02839344407759716
100000000.0 1.0047102286977942 0.012668768934798055
105000000.0 1.041886721464788 -0.04772093786611361
110000000.0 1.002272623903705 -0.03325423706009918
115000000.0 0.9973576481880103 -0.08860485045234222
120000000.0 0.9977266647136234 -0.07681667117221104
125000000.0 1.0051660214209912 -0.0353743923693065
130000000.0 1.000717577686178 -0.034948839205267375
135000000.0 1.0013705462521456 -0.05427458021419178
140000000.0 0.999398418390471 -0.07155934234895693
145000000.0 1.0023233489477061 -0.05399828950049523
150000000.0 0.9983487946202445 -0.07957194105581344
155000000.0 1.000773972625585 -0.07793930656868832
160000000.0 0.9994838105077128 -0.08751761791189148
165000000.0 1.0011878227880742 -0.07610927255459264
170000000.0 1.0244315275363023 0.010567987742252101
175000000.0 1.0130590796394623 -0.03894437636025855
180000000.0 0.9967220268325778 -0.0935132569040071
185000000.0 1.006020725487399 -0.03409043244300587
190000000.0 0.9942859285842107 -0.09519585405093163
195000000.0 0.9916936637176841 -0.12321895821311768
200000000.0 0.9944372275501578 -0.11674415065952454
205000000.0 1.0023848899315912 -0.08902203810768888
210000000.0 1.0004746593699125 -0.0878396182435251
215000000.0 1.0004453317842152 -0.0910331097655933
220000000.0 0.9979937881615827 -0.10584582364753871
225000000.0 1.040473869256595 -0.11212180878411553
230000000.0 0.9966806950039837 -0.09421138587039658
235000000.0 0.998947009114837 -0.08657796295255993
240000000.0 0.9971621181925587 -0.10232356768056888
245000000.0 0.9960940979824175 -0.10728922393290896
250000000.0 0.9945332774512109 -0.11331213449395461
255000000.0 0.9986803426434379 -0.10292141748021533
260000000.0 0.9984573242568322 -0.10638867560737225
265000000.0 0.9933951665374126 -0.12395462037296019
270000000.0 0.9858696620591846 -0.14395410266103575
275000000.0 0.9915351257486859 -0.12499655182913585
280000000.0 0.9881910105463533 -0.1392982028287248
285000000.0 0.9892258292037919 -0.1370686790225984
290000000.0 0.9919268360475664 -0.12660940131918477
295000000.0 0.9919023028446522 -0.13477452920146804
300000000.0 0.9931834774715536 -0.12492585782523927
305000000.0 0.994184980305371 -0.12445442974549926
310000000.0 0.989661943297333 -0.1382368007093664
315000000.0 0.9895967175881384 -0.13900715374813663
320000000.0 0.9879491098903354 -0.14034845478765734
325000000.0 0.988123985732146 -0.1457130020706469
330000000.0 0.9874950344566824 -0.14833691382193603
335000000.0 0.9860866981432684 -0.15606829586284965
340000000.0 0.9838384175522723 -0.16411934464839753
345000000.0 0.9826394790158066 -0.17145717142582484
350000000.0 0.9794417710980295 -0.1848558491740352
355000000.0 0.9766917080219155 -0.2036015771873402
360000000.0 0.9722559372667556 -0.21461021408779296
365000000.0 0.988969022883625 -0.1608880823691983
370000000.0 1.0134526010212597 -0.10370835929547867
375000000.0 1.0009057896812408 -0.09440872896687308
380000000.0 0.9951931486926358 -0.12009315760512418
385000000.0 0.9905477962346418 -0.15084776730322516
390000000.0 0.986821236038379 -0.165940115416215
395000000.0 0.9814934254445764 -0.17636364319514242
400000000.0 0.9759467435293205 -0.18793273356473084
405000000.0 0.979558958857747 -0.18865252716918193
410000000.0 0.9823998228791715 -0.18801055810060655
415000000.0 0.9817677650863 -0.19496264009247713
420000000.0 0.9781989448150541 -0.2047332583094932
425000000.0 0.9767319286038496 -0.21156057401027625
430000000.0 0.9806622380291289 -0.20643688485077144
435000000.0 0.9839144149836343 -0.20290672153786238
440000000.0 0.9779464561176971 -0.21661456763165232
445000000.0 0.9704972731796043 -0.2307470523516542
450000000.0 0.964948405438192 -0.24280117467091603
455000000.0 0.9587157335367179 -0.25272049742584124
460000000.0 0.959125136826431 -0.2526936845344289
465000000.0 0.9750779655549283 -0.23215193375034981
470000000.0 0.984911271747386 -0.2200269497914901
475000000.0 0.9842239400306251 -0.21927067582941318
480000000.0 0.9860528364432863 -0.21865109224880208
485000000.0 0.9865227294006307 -0.21811138684580272
490000000.0 0.9861565683095684 -0.21677848937450184
495000000.0 0.9849738136111245 -0.21357592299209718
500000000.0 0.987483525626704 -0.20527649010121923
505000000.0 0.9899210344974125 -0.19315413285009486
510000000.0 0.9902353034820748 -0.18327376404519963
515000000.0 0.9933056168878197 -0.16714188348327888
520000000.0 1.001739630758331 -0.14086137954593675
525000000.0 1.0059641010233842 -0.1375520733897821
530000000.0 0.9972887582440415 -0.16977506690732952
535000000.0 0.9686234305586907 -0.24467642195460293
540000000.0 0.95972599428245 -0.3023274426210326
545000000.0 0.9517317215411898 -0.3237894745769033
550000000.0 0.948557548632585 -0.36029797702072386
555000000.0 0.9485059746018323 -0.3257353564693489
560000000.0 0.9873622448700418 -0.21560066148978788
565000000.0 0.987943585526416 -0.18421252032280155
570000000.0 0.9459254142817642 -0.27889772668970375
575000000.0 0.9528541927512222 -0.3230060881425828
580000000.0 0.9389035546312112 -0.32660909320326276
585000000.0 0.9481193541738231 -0.32309354215771063
590000000.0 0.9507302988864532 -0.3032623910645185
595000000.0 0.9652414289289344 -0.24790527210241264
600000000.0 1.0393391695091037 -0.2718163408368675
605000000.0 0.9636068909570615 -0.2533610114915241
610000000.0 0.9632210532851069 -0.26435054675381825
615000000.0 0.9532695219271292 -0.28398370229306896
620000000.0 0.943176083686474 -0.3001010524592924
625000000.0 0.941031569920667 -0.30559730233261895
630000000.0 0.9455681106571387 -0.3047637566066321
635000000.0 0.9492648354380293 -0.3005945107416475
640000000.0 0.9501942531041758 -0.2973686736706206
645000000.0 0.9502134002687495 -0.29920955255490955
650000000.0 0.9522546121570655 -0.29902178975258675
655000000.0 0.9529623998021926 -0.2971648600942142
660000000.0 0.9574313179798855 -0.29329725520514344
665000000.0 0.9580845090589973 -0.28963959596664757
670000000.0 0.9578911637104643 -0.2889383567445519
675000000.0 0.9542038939567316 -0.29480557625063797
680000000.0 0.9473387141238501 -0.30418489056123904
685000000.0 0.9451047237535688 -0.31141832794464774
690000000.0 0.9420679486988552 -0.31460199115783516
695000000.0 0.9426218523106721 -0.31834849765576406
700000000.0 0.9412063438536622 -0.3223926059149476
705000000.0 0.9394387605410136 -0.32604449041831035
710000000.0 0.9391456873244174 -0.33065833641629605
715000000.0 0.9366910473768181 -0.33547256261077896
720000000.0 0.9361895809937698 -0.339611374309741
725000000.0 0.938804994802559 -0.3391746371314835
730000000.0 0.9407364160676074 -0.3364972901963251
735000000.0 0.9397762567112994 -0.33485308439731243
740000000.0 0.9401244398425415 -0.3374707638876608
745000000.0 0.9362739930960017 -0.3406877539652763
750000000.0 0.9342733336211898 -0.3440745759333498
755000000.0 0.9343721606794813 -0.3453895572398308
760000000.0 0.9338305061388811 -0.347265227359469
765000000.0 0.9349243961225564 -0.34813640923461264
770000000.0 0.9362965238684668 -0.348018059928036
775000000.0 0.9357649003541577 -0.34421347097828325
780000000.0 0.9357367796083604 -0.3414996718202635
785000000.0 0.9352958570371798 -0.34120781294616415
790000000.0 0.9332914717625974 -0.3507857702810011
795000000.0 0.9237320606875156 -0.3652978668455497
800000000.0 0.9223211924014738 -0.36736038085927303
805000000.0 0.922079358437831 -0.3718515900792729
810000000.0 0.9180497641016588 -0.38438883086858167
815000000.0 0.9433152397913666 -0.3303173033703223
820000000.0 0.9480609943250191 -0.32479314144097216
825000000.0 0.9384733669848482 -0.3335657650431602
830000000.0 0.9232367102200638 -0.34893857087151114
835000000.0 0.9086095536726413 -0.36819401067241353
840000000.0 0.8999875116001035 -0.3866869709630437
845000000.0 0.8980460593718155 -0.39804238737840997
850000000.0 0.9002888830828505 -0.39989664948930564
855000000.0 0.9029741639543764 -0.39694956746659305
860000000.0 0.9068833131156779 -0.3947824941825312
865000000.0 0.9078091604444465 -0.3951206846578984
870000000.0 0.9076897501355838 -0.3978923260684798
875000000.0 0.9082133316025834 -0.40239071306219754
880000000.0 0.9093867418707988 -0.4047121170617739
885000000.0 0.9117628550347103 -0.40139377505861307
890000000.0 0.9129877614913947 -0.39776829482525633
895000000.0 0.9119035891887911 -0.3980962977312149
900000000.0 0.9103669076775726 -0.40059524926197293
905000000.0 0.9096630732417947 -0.40386432714100523
910000000.0 0.9088747018852898 -0.40497878874708193
915000000.0 0.9084672130182333 -0.40418168703377827
920000000.0 0.9085471936240368 -0.40235404411086584
925000000.0 0.9034046862297977 -0.4037095993317517
930000000.0 0.900134968429737 -0.41078183882844554
935000000.0 0.8944718290638769 -0.4153811007924124
940000000.0 0.894277293413577 -0.41963973037086283
945000000.0 0.8943615353475732 -0.42140790389516564
950000000.0 0.8960150739836586 -0.4221463816686421
955000000.0 0.8954309756760929 -0.4212920331070026
960000000.0 0.8945451391291931 -0.4219430679155787
965000000.0 0.892368005135107 -0.42414263445046363
970000000.0 0.8902122946684907 -0.4267005053970867
975000000.0 0.8876431839560613 -0.42869519689021623
980000000.0 0.886787484885905 -0.4317792058285958
985000000.0 0.8862278630211589 -0.43453052015295834
990000000.0 0.8841015947992863 -0.4355565242660964
995000000.0 0.8825746951563742 -0.4379772723989136
1000000000.0 0.8797891353811973 -0.4396832911970986
1005000000.0 0.8791381974612549 -0.44261424160067353
1010000000.0 0.8801731728763407 -0.44638847534317183
1015000000.0 0.876296253836681 -0.4500564186593966
1020000000.0 0.8780322547591823 -0.452438101288438
1025000000.0 0.8762718720734275 -0.45325255101756656
1030000000.0 0.876017573458765 -0.45543138792646776
1035000000.0 0.875692819984349 -0.4574572708317258
1040000000.0 0.8761212977447465 -0.46012774323142025
1045000000.0 0.8753301039439213 -0.46157477260020946
1050000000.0 0.8751955361493469 -0.46330704620391094
1055000000.0 0.8734475251627404 -0.464496595390377
1060000000.0 0.8735116684217763 -0.4664025694920883
1065000000.0 0.8729229834402816 -0.4678618112371101
1070000000.0 0.8746237242105931 -0.46817023075840236
1075000000.0 0.8688208902063533 -0.46933333674382055
1080000000.0 0.8681949687375404 -0.47088851989957853
1085000000.0 0.8668873533400174 -0.4724979126318484
1090000000.0 0.8659829665660503 -0.4747971090331431
1095000000.0 0.8676312602668137 -0.4787379460604171
1100000000.0 0.8660536754896008 -0.48045699298125044
1105000000.0 0.8637582612641288 -0.4820781860802872
1110000000.0 0.8510174263044918 -0.49931908645549034
1115000000.0 0.851584796076942 -0.5008025128052056
1120000000.0 0.8599295339858888 -0.48668335264387486
1125000000.0 0.8559041660073501 -0.48795172581935065
1130000000.0 0.8563143389204337 -0.4909566942172794
1135000000.0 0.8536299509903855 -0.4929911170281714
1140000000.0 0.8507064361736507 -0.49473800883698177
1145000000.0 0.848702609802142 -0.4972632639103094
1150000000.0 0.8470011437429491 -0.4993120161556718
1155000000.0 0.8439317677457414 -0.5003692832168914
1160000000.0 0.8469873368857648 -0.49735873944700604
1165000000.0 0.8480862798810487 -0.4922840945300311
1170000000.0 0.8446508498214514 -0.49419689520492627
1175000000.0 0.8439800302763822 -0.4969640831868554
1180000000.0 0.8391618503311025 -0.49794834657403036
1185000000.0 0.8344430123389253 -0.49932689162101435
1190000000.0 0.8328972242508086 -0.5021898922019645
1195000000.0 0.8324165410979719 -0.5051638151887992
1200000000.0 0.8314542453464681 -0.5089012485762536
1205000000.0 0.8287171605966103 -0.5093895997738095
1210000000.0 0.8270442824031213 -0.5121430450854937
1215000000.0 0.8237227656106149 -0.5141876061855198
1220000000.0 0.8207413329992219 -0.5162920597866586
1225000000.0 0.8213777600391137 -0.5197701239641112
1230000000.0 0.8177526474084686 -0.5225025582683629
1235000000.0 0.8157467121364765 -0.525395153257239
1240000000.0 0.8150103101805791 -0.5291019916845849
