# Hz S RI R 50
50000 -1.0000891208758538 -0.0011537541546005876
941900 -1.000104984173985 0.000524177220143842
1833800 -0.9997751413271146 0.0002224943493046127
2725700 -0.9996642105614739 8.173981733556641e-05
3617600 -0.9998547124916446 -2.975752046680144e-05
4509600 -0.999823968423897 4.853553571007135e-05
5401500 -0.9997878348934772 3.718366190434229e-05
6293400 -0.9999910869352874 -8.253250363836703e-05
7185300 -0.999716610198239 6.983170004129443e-05
8077200 -1.0000232613483389 -0.000364777899023764
8969200 -0.9998020615052674 0.0002734137811698235
9861100 -0.9995649644557217 -2.3961923016964126e-05
10753000 -0.9996077571490861 0.00024016600634413875
11644900 -0.9997141229622131 4.816246577814746e-05
12536900 -0.9996606810810726 -6.908293992040355e-05
13428800 -0.9998346599602449 -2.9191986765312763e-05
14320700 -0.9999245641645506 -4.213526058502552e-05
15212600 -0.9999373272728688 -9.614469696019157e-05
16104500 -0.999695611770858 -0.00016739711889629096
16996500 -0.9997019344359948 8.885084092583185e-05
17888400 -0.9997137420223408 -0.00010567847338462661
18780300 -0.9995708868824706 -5.064134156173161e-05
19672200 -0.9997079062454236 -1.748831889093704e-05
20564200 -0.9997553521975168 -0.0003193938542363391
21456100 -1.000029929074603 -8.00449181991156e-05
22348000 -0.999969955674644 -0.0003038458089069219
23239900 -0.9997404491378229 -0.00040408528447646706
24131800 -0.9997097218144995 -0.0002683901699495893
25023800 -0.9999382709808472 -0.0002650336172337523
25915700 -0.9996547157821354 -0.0006185967090168887
26807600 -1.0000496480150531 -0.0004261395178749234
27699500 -0.9999285729590487 -0.00046287123169878343
28591500 -0.9997598914458476 -0.00024486236994490044
29483400 -0.9999207854665713 -0.00027201165324745516
30375300 -0.9998498426358072 -0.0005646474187287534
31267200 -0.999988111759612 -0.0001465946574512454
32159100 -0.9996458571259277 -0.0002220882390683287
33051100 -0.9997849182713896 -0.0006529370534878204
33943000 -0.999870103858217 -0.00020628138576591699
34834900 -0.9996020196203353 -0.0001774026149527383
35726800 -0.99939912739228 -0.00021620300730297877
36618800 -0.9994997996456068 -0.00030419542440778815
37510700 -0.9994477883498418 -0.0006843346227872131
38402600 -0.9997229468922665 -0.00032730393660880156
39294500 -0.9997403819684995 -0.0001278564252162884
40186400 -0.9997596575278732 -8.013649442685248e-05
41078400 -0.9996410685687854 -0.00044126798168667115
41970300 -0.9997559532059604 -0.0002322157961871232
42862200 -0.9997308894141136 -0.000300966976777187
43754100 -0.9997087854037495 -0.00033848114478523514
44646100 -0.9996209870663774 -0.00037562339091554733
45538000 -0.9995663631430394 -0.00032358334741569274
46429900 -0.9997219554977143 -0.00019794307592133602
47321800 -0.9997001754365172 -0.0004479037917771321
48213700 -0.9994532819813011 -0.0004117501364274359
49105700 -0.9996835995308965 -0.0005337561797276921
49997600 -0.9997920571155893 -0.0002031926007342956
50889500 -0.9998344677803631 -0.00044007152417906864
51781400 -0.9998345567264959 -0.0005122557470254305
52673300 -0.99951299842962 -0.0006184116414000595
53565300 -0.9996765729586424 -0.00036397310102950607
54457200 -0.9996926941944193 -0.0004338563896936304
55349100 -0.9996472750969259 -0.0004757099280295155
56241000 -0.9996530634278114 -0.0005559252642655815
57133000 -0.9995934843975806 -0.00038408510647768994
58024900 -0.9999562539078248 -0.0007699440919759416
58916800 -0.9994297764472676 -0.0006251373065094896
59808700 -0.9996724878599863 -0.0005650023249576037
60700600 -0.9996500392131271 -0.0008918504735955972
61592600 -0.9998890695799618 -0.0008229372443478226
62484500 -0.9996073814688932 -0.0008713636438736331
63376400 -0.9997417259019756 -0.0003793999065449372
64268300 -0.9996929576542395 -0.0008332250252612925
65160300 -0.9999210844315034 -0.0006106181977307236
66052200 -0.9998527611647527 -0.0007308896748494044
66944100 -0.9998732762605754 -0.00043981153805832665
67836000 -0.9994518784477906 -0.00040334041354355484
68727900 -0.99984870726508 -0.0006875489274121384
69619900 -0.999570696596381 -0.0010269533743149993
70511800 -0.9997843489961199 -0.0005505600521151814
71403700 -0.9997862717074719 -0.0006240882914121038
72295600 -0.9996408586710245 -0.0007583205584193449
73187600 -0.9993699655016612 -0.001191411731333731
74079500 -0.9998787156476308 -0.0009719895608143174
74971400 -0.9998075356934881 -0.0006505895347041258
75863300 -0.9999866410431049 -0.0005060289111175424
76755200 -0.9995939977868846 -0.0006778149584455314
77647200 -0.9996451575078492 -0.000828192055361054
78539100 -0.999438846963204 -0.0008944489148329754
79431000 -0.9996062803931742 -0.0007062266046628164
80322900 -0.9997452970023682 -0.0009825120275842817
81214900 -0.99959713200578 -0.0006889206605228852
82106800 -0.9994069179802408 -0.000800005852541317
82998700 -0.9993593534200553 -0.0008829238624969788
83890600 -0.9996998236847856 -0.0010487398500983235
84782500 -0.9994384529643986 -0.0009358615634879898
85674500 -0.9994655269869462 -0.001075521350583041
86566400 -0.9994946026529029 -0.0008671888231395526
87458300 -0.9997156768799157 -0.0009254566145047505
88350200 -0.9995594742731112 -0.001053563874644074
89242200 -0.9994487902619315 -0.001050595698636282
90134120 -1.000746081119651 -0.0017272869233324578
91026020 -1.000215849240967 -0.0004081084894838365
91917920 -1.0001118148606354 -0.0017169478629988455
92809820 -0.9996357916662127 -0.00035412355106225114
93701720 -1.0003223963158057 -0.000748332621674342
94593720 -0.9996068489438233 -0.0006673490953912904
95485620 -0.9991485672142324 -0.0014020111839898525
96377520 -1.0001899463843773 -0.0008528222763536983
97269420 -0.9990449267445901 -0.0008140910812909028
98161320 -0.9993022159479513 -0.0013879742505700054
99053320 -0.999366625964554 -0.0012285951092764784
99945220 -0.9993448378655758 -0.0007624191706619314
100837120 -0.9997235542271338 -0.000997649896857388
101729020 -0.9993009923587031 -0.0011326416898596787
102621020 -0.999524298517531 -0.0009720843233701053
103512920 -0.9995294519830522 -0.0011908080063303098
104404820 -0.9993525017742465 -0.0009564343522528169
105296720 -0.9994769185415155 -0.0011339575784373908
106188620 -0.999627624329239 -0.0012867702612969114
107080620 -0.9994130032342843 -0.0014229191739907818
107972520 -0.99946533364555 -0.0010841792849231404
108864420 -0.999447826919294 -0.0013561236758560739
109756320 -0.9994838113579375 -0.0009240352236679581
110648320 -0.9994390370183046 -0.0011071750266463186
111540220 -0.9996692341901872 -0.001506693663700807
112432120 -0.9997217038241732 -0.0011915572656955025
113324020 -0.9997610673197636 -0.0013196376537637656
114215920 -0.9994393414190421 -0.001271448488597456
115107920 -0.9995700829431786 -0.0014970942222394556
115999820 -0.9994539035219272 -0.0011660283148171495
116891720 -0.999650939569289 -0.0012613664621428688
117783620 -0.9998754497184151 -0.001282062332494614
118675620 -0.9996296619104847 -0.0012257240111235113
119567520 -0.9992475601363994 -0.00122626928359341
120459420 -0.9997883835945555 -0.0013707301084580586
121351320 -0.9994844319402176 -0.0015708714720504135
122243220 -0.9995307265827383 -0.0011578350706678378
123135220 -0.9995277600497998 -0.0013366351696627668
124027120 -0.9997077695261214 -0.0017171478787510444
124919020 -0.9994636341724087 -0.001535614509973372
125810920 -0.9999159847854359 -0.0014764278832268237
126702920 -0.9995313238493585 -0.0015008767787301552
127594820 -0.9993594688987076 -0.0014309599568253209
128486720 -0.9994800016441253 -0.0015456540457248209
129378620 -0.9996115689162197 -0.0015148926721834724
130270520 -0.9996742886740784 -0.0013562437699341048
131162520 -0.9996593145436682 -0.00156285865777062
132054420 -0.9995692264162361 -0.0017073523969744786
132946320 -0.9996007651764443 -0.0018799986310307603
133838220 -0.9993114578384454 -0.0013283933937754525
134730220 -0.9992336575319131 -0.0014642299497211366
135622120 -0.9995635773063156 -0.0015623072267183145
136514020 -0.9994434376775266 -0.0012723918067404014
137405920 -0.9995122193913175 -0.001548302932795768
138297820 -0.9994628420496421 -0.0016032261766118243
139189820 -0.9994389056791206 -0.0014341356515742217
140081720 -0.9996712487726788 -0.0014085398569371299
140973620 -0.999315329820058 -0.0016496573275693069
141865520 -0.9999296743325214 -0.0016790210472014907
142757420 -0.9995931177119307 -0.0018948592813440575
143649420 -0.9993318446155861 -0.0015594954637623945
144541320 -0.9993720654625842 -0.0017557830580065114
145433220 -0.999569231817135 -0.0017298382872416355
146325120 -0.9998534723305198 -0.0014760371691225223
147217120 -0.9996500896995307 -0.0016981672691361376
148109020 -0.9996267535205352 -0.0017608596043648095
149000920 -0.9996498632102374 -0.0018804822875952542
149892820 -0.9996580059051993 -0.0015529977815765615
150784720 -0.9993126222539674 -0.0018607161515801925
151676720 -0.9995151294353316 -0.0019797128693482876
152568620 -0.9994607904230376 -0.001691978552287625
153460520 -0.9995056928622339 -0.002211857292176676
154352420 -0.9994691825556301 -0.001965825589292659
155244420 -0.9993373400062323 -0.0017045392725390277
156136320 -0.9994822824315772 -0.001583590816037832
157028220 -0.9997335012091138 -0.0015092269925459272
157920120 -0.9994692528598607 -0.0015791044853204002
158812020 -0.9996969989122328 -0.001651547741358435
159704020 -0.9993770187254899 -0.00207236233007398
160595920 -0.9999795412388891 -0.0016237896793035167
161487820 -0.9997348452037447 -0.0016964092821666595
162379720 -0.9997020038544443 -0.0020727983628367357
163271720 -0.9994626572350984 -0.0023824274883694303
164163620 -0.999470326128045 -0.0019924994639076926
165055520 -0.9995990779266773 -0.002009840255652108
165947420 -0.9995961996840013 -0.0020489559517911887
166839320 -0.999301414040328 -0.0017353583237399457
167731320 -0.9997437777802003 -0.0020282569219970824
168623220 -0.9992958390699482 -0.002045666396080357
169515120 -0.9996640226674629 -0.002061310110690997
170407020 -0.9992963188544456 -0.0018471633838991906
171299020 -0.9995434984356106 -0.0017818641798428426
172190920 -0.9994086365799338 -0.0017707872016654352
173082820 -0.9997761553476304 -0.002191199330399797
173974720 -0.9993197918652131 -0.0022182883827074028
174866620 -0.9996731904246814 -0.0023732242465687157
175758620 -0.9993804269802449 -0.0019807776752316657
176650520 -0.9992202888147579 -0.0019430055476263334
177542420 -0.9990087736119307 -0.001837061735258265
178434320 -0.9993559303280184 -0.002363910089675306
179326320 -0.9994129025740753 -0.0018414531890554285
180218240 -1.0002239691832115 -0.0012173674770394256
181110140 -0.9993419356447867 -0.002214560992246029
182002040 -0.9987940593917154 -0.0021194203493253893
182893940 -0.9994774729390661 -0.0020471746934534216
183785840 -0.9995257030936855 -0.0022031476243153524
184677840 -0.9992034347126041 -0.0022562898450286984
185569740 -0.9997224172051169 -0.0017746709602986606
186461640 -0.9992510910683662 -0.002491764276438166
187353540 -0.9995095051766023 -0.0024357399468433283
188245440 -0.9991047706947637 -0.0022405971135743266
189137440 -0.999424982843614 -0.0023406426001890473
190029340 -0.9992265441724313 -0.0021677211237083826
190921240 -0.9992813822377016 -0.002061056713076166
191813140 -0.9993789284406238 -0.0023213405326474195
192705040 -0.999492767085923 -0.002391585861898161
193597040 -0.9997360405010668 -0.002357673846592633
194488940 -0.9992904885513901 -0.0021979085035179965
195380840 -0.9994173076242954 -0.00216172828378705
196272740 -0.99989116020343 -0.0022940857138049196
197164640 -0.9993942871956261 -0.002037177697079077
198056640 -0.9997909266861866 -0.0022326837626724778
198948540 -0.9998570707057671 -0.002481297958532588
199840440 -0.9994224926779461 -0.002596476686945578
200732340 -0.9993702542223507 -0.002312794177854197
201624340 -0.9992298520295505 -0.002415812711549619
202516240 -0.9993727117822617 -0.002462134658452066
203408140 -0.9992136754296237 -0.0024369527291454906
204300040 -0.9996773024913606 -0.0024174146025992926
205191940 -0.9992777436021937 -0.0023532630632314084
206083940 -0.9990695939646534 -0.0025086365819159792
206975840 -0.9991930773644137 -0.0027311397966563573
207867740 -0.9994291517376215 -0.002202702932253421
208759640 -0.9993722095826927 -0.0023647658130854796
209651540 -0.9992674534342362 -0.002238646055324234
210543540 -0.9992165733630985 -0.002191881288673547
211435440 -0.999322611522843 -0.0022339110224699047
212327340 -0.9989851287926479 -0.0022963936693485864
213219240 -0.9992278705930531 -0.002253220483297335
214111140 -0.9992982130186683 -0.0027102887907474353
215003140 -0.9992045055039651 -0.00209741600390603
215895040 -0.9991310850870926 -0.00257936336769264
216786940 -0.999306796015885 -0.00226676809630501
217678840 -0.9992174625917795 -0.0026489069424567115
218570840 -0.9994382702867308 -0.002094132061830089
219462740 -0.999253558742517 -0.0025932506316072228
220354640 -0.9992231482880782 -0.002441284174284925
221246540 -0.999300200822091 -0.002201660947739913
222138440 -0.9994920103234417 -0.002474885429751959
223030440 -0.9993974057838083 -0.0025308035640470845
223922340 -0.9988724429876161 -0.0023251775602357878
224814240 -0.9993743184957686 -0.0024181832334399544
225706140 -0.9990643250413264 -0.002082460659310863
226598040 -0.999502798185304 -0.002667120564290778
227490040 -0.9990283920743321 -0.00233472099958155
228381940 -0.9997788225574836 -0.0028105825469537235
229273840 -0.9990202690151675 -0.0022578617062653018
230165740 -0.9992334672634949 -0.0026826321146044764
231057640 -0.9991531825592818 -0.002650576231056798
231949640 -0.9989192559542374 -0.0027877384633025015
232841540 -0.9990256516612477 -0.002339831027350175
233733440 -0.9989444329701244 -0.002215396108782949
234625340 -0.9993478610447393 -0.0028265261540131423
235517340 -0.9993280013561052 -0.0026722754839438533
236409240 -0.999481530046256 -0.0023838439566390077
237301140 -0.9990599961756048 -0.0026924303930533945
238193040 -0.9993617503785929 -0.0028725338385272134
239084940 -0.9994897310039313 -0.0031911450160454448
239976940 -0.9989174324645494 -0.0020476070381312025
240868840 -0.9993556703870599 -0.0026964620833299065
241760740 -0.9989413069590688 -0.0029490250187213106
242652640 -0.9994024224096935 -0.0030946074506960097
243544540 -0.9991401252873306 -0.002631417211335716
244436540 -0.9999602371580635 -0.0025569225085904012
245328440 -0.9990551445562443 -0.0026773134296459665
246220340 -0.9992289076713935 -0.003027735720225121
247112240 -0.998901395728173 -0.003019898948713334
248004140 -0.9995596145274188 -0.0022791165436346086
248896140 -0.9994069467280597 -0.0023869982782242717
249788040 -0.9996905714244206 -0.002260556275470004
250679940 -0.9996324885989912 -0.002781249659254611
251571840 -0.9995860486145967 -0.003839786109512419
252463840 -0.9997047116110656 -0.0030075557212731435
253355740 -0.9986500945238893 -0.0030862709573237024
254247640 -0.9988540160869191 -0.0025889850862165936
255139540 -0.9991224263120925 -0.0030059561896872322
256031440 -0.9994707166390043 -0.002846333569956962
256923440 -0.9990696770019566 -0.00261607315889145
257815340 -0.9987751028874906 -0.0025190013081314118
258707240 -0.999351229706512 -0.00363263532468569
259599140 -0.99928160348441 -0.003535466677871968
260491040 -0.9990024672552913 -0.003627001445976021
261383040 -0.9990805024185792 -0.002659538984442945
262274940 -0.9991575438155688 -0.002712632802022773
263166840 -0.9992917459852342 -0.003132254259782642
264058740 -0.9987302830472856 -0.0028446592650174067
264950640 -0.9988412687933783 -0.0029610286780620003
265842640 -0.9993306161459744 -0.0026503531086077233
266734540 -0.9992675152056595 -0.00319760202986984
267626440 -0.9990941123420258 -0.0032580700274653725
268518340 -1.000340380873394 -0.0030152531939478
269410340 -0.9989318838912407 -0.00288853835261722
270302368 -0.9967973288029969 -0.0038725711198885912
271194268 -0.9993333188182971 -0.003492276069320008
272086168 -0.9994689937364283 -0.0034072708018030636
272978068 -0.9991702317022907 -0.0032636721464847267
273869968 -0.9986810802765241 -0.0026011529228520004
274761968 -0.9992661307530969 -0.0032263971057268906
275653868 -0.9987446141524939 -0.002916219270101486
276545768 -0.9991281551302824 -0.002434942405660377
277437668 -0.999416659397519 -0.002876772013124112
278329568 -0.9990035858813808 -0.002835667628913251
279221568 -0.9988590169706445 -0.002666638459556501
280113468 -0.9991472829257041 -0.003226096539868868
281005368 -0.9995336606109573 -0.003028871088102781
281897268 -0.9992749531718503 -0.003219156997538589
282789168 -0.999438303690685 -0.0029630152863925775
283681168 -0.9993097183675792 -0.002918854903248569
284573068 -1.000495724483958 -0.0024305472788078244
285464968 -0.9990310480762953 -0.0035478679284803214
286356868 -0.9983417489203293 -0.002341875097770236
287248768 -0.999572946365537 -0.002591505389347444
288140768 -0.9989146684280884 -0.0030927028713280437
289032668 -0.9989872616199605 -0.0025540654115271027
289924568 -0.9983812180348285 -0.002914036279321501
290816468 -0.9987611935423076 -0.0029233829476535533
291708468 -0.9987612614797335 -0.002406980757881253
292600368 -0.9990486870780205 -0.003095893436381907
293492268 -0.9993483886935614 -0.002828415626229269
294384168 -0.9993857536620848 -0.003162961581335143
295276068 -0.9995357086342941 -0.002904137721961259
296168068 -0.9985302666904211 -0.0039706787893211675
297059968 -0.9981283248591923 -0.003061923908316279
297951868 -0.9981458178969363 -0.0032207641087904837
298843768 -0.9983604127662652 -0.002721749439809866
299735668 -0.9982657491039875 -0.0027347840813857663
300627668 -1.0257042305774107 -0.036160492150178705
301519568 -1.0024979234610671 0.007992813624977958
302411468 -0.9966852737241421 -0.007363449458809202
303303368 -0.9972785181150852 -0.0018394870570332378
304195268 -0.9982814514911899 -0.00420229108994461
305087268 -0.9991098708953549 -0.0013368843786429414
305979168 -0.9952280202112176 -0.002192908830344003
306871068 -0.9974581717177993 -0.00509558786174652
307762968 -0.9988795253502436 -0.0021309585340746635
308654968 -0.9955216959858362 -0.0031524925306696205
309546868 -0.9982321828960943 -0.0028346753294652793
310438768 -0.9963879097907774 -0.00452676828116817
311330668 -0.997719971849165 -0.002647146908399844
312222568 -0.9982210809451811 -0.002409081969371506
313114568 -0.9975902583793296 -0.0034377857845580193
314006468 -0.9975833636956556 -0.002876049145356582
314898368 -0.9961283573618003 -0.003569689797008925
315790268 -0.997968595886155 -0.0040740428207469885
316682168 -0.9985917806095245 -0.0036589079667673345
317574168 -0.9983792261162917 -0.0010895094933686235
318466068 -0.9962652340404292 -0.0031074669673131906
319357968 -0.9994933092467447 -0.0028114130830818695
320249868 -0.9967869928265461 -0.005411256216731706
321141768 -0.9972361755366891 -0.0015379797827222777
322033768 -0.997623664304787 -9.505489000634744e-05
322925668 -0.9989777722355443 -0.003688150989268244
323817568 -0.9963317704626852 -0.003004069885695194
324709468 -0.9968418346020214 -0.0034256924198351395
325601468 -0.9993981364515316 -0.00404802275130226
326493368 -0.9959127635406019 -0.0010973597498411946
327385268 -0.9964198066097121 -0.002091568658764756
328277168 -0.9972759643178821 -0.0018717383461380407
329169068 -0.9963936842451229 -0.0017487306959745553
330061068 -0.9981045176008665 -0.0026543702018765186
330952968 -0.9958742392775738 -0.0022909001002865068
331844868 -0.9965220752892777 -0.005014790859305077
332736768 -0.9973372737550913 -0.0001613465542993187
333628668 -0.995884140292883 -0.004022201658931182
334520668 -0.996484621933189 -0.0009996927656550365
335412568 -0.996688012263415 -0.0008385832292238571
336304468 -0.9979930947021616 -0.002517884984886524
337196368 -0.9965535474807542 -0.0017860980752208142
338088268 -0.997464268131786 -0.0036319994675247822
338980268 -0.9969682709208223 -0.00258504429282229
339872168 -0.9948926300332638 -0.003308951326260777
