!Created with skrf (http://scikit-rf.org).
# Hz S RI R 50.0 
!freq ReS11 ImS11 ReS21 ImS21 ReS12 ImS12 ReS22 ImS22
25000000.0 -0.08333226429591092 -0.029947476537488006 -1.5126430071943906 1.9759303830665522 0.0 0.0 -1.2067116095447423 2.455574617909277
30000000.0 -0.0778326413803839 -0.03118131872472302 -2.358032278127566 2.1242889879812132 0.0 0.0 -2.0201456648919667 2.851157253947983
35000000.0 -0.07993198297504156 -0.032203213270348086 -2.8441920811536465 1.136091130725149 0.0 0.0 -2.508974285796199 2.136900321829558
40000000.0 -0.07899645496975907 -0.03076926291578576 -3.048610911724079 0.29552974745285665 0.0 0.0 -2.9897104606977076 1.6262727603765228
45000000.0 -0.07621137297303889 -0.037796670639126895 -2.741743802538316 -0.13645662055357125 0.0 0.0 -2.5426622690269913 1.240336988724037
50000000.0 -0.0798657412621234 -0.032379700715128905 -2.438833536374732 -0.6196780012280859 0.0 0.0 -2.8735812146346276 0.42902516257293855
55000000.0 -0.08401343966042207 -0.04072383813536655 -1.9226364225450188 -1.1573883061348897 0.0 0.0 -2.783558870438684 -0.38755927506032345
60000000.0 -0.08365309193289308 -0.04368230580004057 -1.8323038163542062 -1.2532856351650148 0.0 0.0 -3.0668731870975328 -0.027339948931951224
65000000.0 -0.0798631661554555 -0.04791390880082338 -2.0726626536413715 -1.2003739399764155 0.0 0.0 -3.049761984459882 1.4043417281718766
70000000.0 -0.08531065952663242 -0.025501865668803747 -2.358038502812171 -1.3489369107565663 0.0 0.0 -3.4804445906422945 1.8895179665981716
75000000.0 -0.08627473249983961 -0.04080443214864741 -2.611730516495879 -1.3980618375313705 0.0 0.0 -3.1533354619589384 2.179916205174234
80000000.0 -0.1076576777022762 -0.01157300437642114 -2.3054553935895363 -1.0479191605272538 0.0 0.0 -3.3930624176675757 1.6364516174960138
85000000.0 -0.09400075593785018 -0.015585332128003731 -2.238885803108818 -1.1181747522091272 0.0 0.0 -3.8701505037053336 1.969391507756899
90000000.0 -0.09418668618892145 -0.013590189156924901 -2.6189466481732557 -0.8828379355053815 0.0 0.0 -2.9753523339385066 2.255818722312639
95000000.0 -0.09783260607187996 0.0008609613561929652 -2.9343839732067685 -0.8679884432085279 0.0 0.0 -2.5490132777728225 2.3479523314562982
100000000.0 -0.0899262581597611 0.01944802517457943 -2.8086715300294833 -1.1933336775367762 0.0 0.0 -3.5235194681891473 2.4264666451744255
105000000.0 -0.08039821601872807 0.04377625011677777 -3.052280566214241 -1.7672321765253431 0.0 0.0 -3.4195292996145765 2.3828370344953624
110000000.0 -0.07868290211543472 0.02111398330720935 -3.304308071636281 -1.0432716923900454 0.0 0.0 -2.3344708201405178 2.815005023653548
115000000.0 -0.09531588695614115 0.005567692509941801 -3.306269822155667 -1.4453883880788583 0.0 0.0 -2.1721264831054405 2.7556231005015017
120000000.0 -0.09530993800741186 -0.009321058657612192 -2.9468257304052896 -0.8319379817714833 0.0 0.0 -2.284205799601513 2.524349069741045
125000000.0 -0.10328322810726259 -0.027572061892739426 -1.8546189518600313 -0.7761275929408555 0.0 0.0 -3.2258752390811045 1.3365125590535338
130000000.0 -0.09120860181530033 -0.020260551375583382 -2.7579173593747415 -0.6974376563880336 0.0 0.0 -2.5064670875178545 1.736427982906724
135000000.0 -0.10158594612934309 -0.019050281383419014 -3.538375676042553 -1.8905612072813924 0.0 0.0 -2.5928654930913746 3.778453374875085
140000000.0 -0.09280475815562053 -0.014516510637773287 -3.6942729724310386 -1.3827711769929691 0.0 0.0 -2.3019402821579575 3.4278420697913616
145000000.0 -0.09388368725703267 -0.013508187601838934 -3.750571375209195 -1.24901506159981 0.0 0.0 -2.192924873032464 3.5458612836111554
150000000.0 -0.09447495675028506 -0.01432220259110785 -3.4395751866072493 -1.5521161666877137 0.0 0.0 -2.675232532674589 3.761745614835603
155000000.0 -0.09395670698531852 -0.01743435982802001 -3.1735802452039557 -1.5094719411729285 0.0 0.0 -2.816946242997712 3.5182507454291905
160000000.0 -0.09528590405211522 -0.02810764575430649 -3.1999661664396433 -1.747759157557596 0.0 0.0 -2.708540843876877 3.9594102143204437
165000000.0 -0.10565546978823219 -0.012316544716968948 -2.9608753834787658 -3.138427464222405 0.0 0.0 -4.245258926149432 4.746878332396378
170000000.0 -0.09837658282466406 0.047964023234330175 -4.4503159329263315 -5.384628281462885 0.0 0.0 -5.254548056062722 6.045956033128366
175000000.0 -0.09524300680312613 0.0503402547175742 -8.521307479402738 -0.789607634038809 0.0 0.0 -0.12295412482327685 6.847791152285666
180000000.0 -0.09503921018280274 0.06170031039734945 -11.13520700162947 0.6710494995150184 0.0 0.0 3.5580332976138447 7.172619971132623
185000000.0 -0.045209729765403515 0.07039176079610521 -7.588603432177812 2.9765876096027246 0.0 0.0 2.1347234153616563 4.558884654373541
190000000.0 -0.11482811555953602 0.07628058823813512 -8.30932300890558 2.500752400215965 0.0 0.0 1.3332963109237026 4.683493746510474
195000000.0 -0.11152293740023964 0.01583172035452981 -6.4151558430600835 1.641201197695104 0.0 0.0 0.4447516080460197 3.852106167949771
200000000.0 -0.08476007692209657 0.0016863744063098994 -6.012175933932764 1.9040243101603522 0.0 0.0 0.5453005070320552 4.012242223294496
205000000.0 -0.0940863707025189 -0.005941581341008124 -5.981344557145518 1.234643136201588 0.0 0.0 0.1326689133297437 4.304262122836265
210000000.0 -0.0931816159295354 -0.011920311217503672 -5.806820103481383 1.3130654620152329 0.0 0.0 0.3273505522172147 4.489646511000559
215000000.0 -0.08690579967097353 -0.015303384795154794 -5.809449390266633 1.7192015772634184 0.0 0.0 0.8790732658796068 4.590916333429349
220000000.0 -0.07529511239424737 -0.034738662712455515 -6.3972072716318955 2.536425264951507 0.0 0.0 3.559645675406584 6.313479587793475
225000000.0 -0.07834864545068923 -0.03261945797036275 -7.423317301039312 4.740597530192962 0.0 0.0 6.353660802513325 6.231695410264907
230000000.0 -0.09084569027345447 -0.03703081184112742 -5.971184297153671 4.057771938416649 0.0 0.0 5.474890746965419 4.085009858582628
235000000.0 -0.08695107746867595 -0.03376270432007055 -5.6773475368643584 3.937942929541777 0.0 0.0 5.095363891124952 3.692754277990955
240000000.0 -0.08479604814222996 -0.03075348814801596 -5.695201179123298 3.8628986122283715 0.0 0.0 5.1183415865168005 3.6647312753130574
245000000.0 -0.08398980045125863 -0.02742201674207634 -5.661978516609315 4.141911953186621 0.0 0.0 5.630305296179666 3.5823072793931168
250000000.0 -0.08222656546152078 -0.026790203084778717 -5.487751954505688 4.5076063221737535 0.0 0.0 6.346957864459792 3.2050393915545405
255000000.0 -0.08226752319809345 -0.0270503833036341 -5.382918746492431 4.6996752676752935 0.0 0.0 6.739276612554841 2.9938323716073185
260000000.0 -0.08267664369306668 -0.02970462745800216 -4.950025859922233 4.659564728398314 0.0 0.0 6.60402613079694 2.3468823490883564
265000000.0 -0.08312506935899863 -0.03269607393573285 -4.348573680048134 4.650047603563337 0.0 0.0 6.357363902487304 1.5871259257720205
270000000.0 -0.08617529198100655 -0.038068403389812606 -4.123671997459936 4.639907386547247 0.0 0.0 6.512821170003803 0.9038642466188663
275000000.0 -0.08762882666460546 -0.03859630955165587 -4.25036660149138 4.617119093497081 0.0 0.0 6.482074415864116 1.0855041111920805
280000000.0 -0.0903291260534953 -0.032786921727478546 -3.6957297364133037 4.946137931639204 0.0 0.0 6.165886581890677 0.3949471867985183
285000000.0 -0.08697639471842131 -0.03017842059579657 -3.5215411095327713 4.690167312211238 0.0 0.0 5.8173184944769405 0.13394770762620203
290000000.0 -0.08798154151598023 -0.03122330767301751 -3.4985356293752976 4.688913467766217 0.0 0.0 5.847872940801699 0.1475813722519713
295000000.0 -0.08999769762024278 -0.03244223918613167 -3.4250183773671594 4.679221878051438 0.0 0.0 5.673001986047572 -0.14703537338426556
300000000.0 -0.08981053449626199 -0.03378382264194353 -3.4116910458382894 4.579602325872933 0.0 0.0 5.488804649695614 -0.2810651847389308
305000000.0 -0.09026859453134085 -0.03329036060107274 -3.316901756232649 4.636779611493059 0.0 0.0 5.380020924829215 -0.5042030187327269
310000000.0 -0.09013780805137611 -0.03379985834416151 -3.2060655370654416 4.569818358305537 0.0 0.0 5.124835654434116 -0.8482358862319979
315000000.0 -0.09015648679388841 -0.034664527808448205 -3.1712659387784754 4.624531105946025 0.0 0.0 5.172334150050924 -1.0958567597659752
320000000.0 -0.09107194370469437 -0.03638498114242545 -3.1779411018807826 4.715757706014025 0.0 0.0 5.188289052908135 -1.2140350478401944
325000000.0 -0.09160400204607835 -0.03660099279492713 -3.132054886205045 4.811725879765341 0.0 0.0 5.145965636824479 -1.4571841150888336
330000000.0 -0.09172270661556135 -0.03771381644956047 -3.093366434677433 4.924184353738937 0.0 0.0 5.1196249477119515 -1.7484902964612117
335000000.0 -0.09193130784523733 -0.03987633637453997 -3.0309799968625026 5.056598770700442 0.0 0.0 5.036979726883074 -2.142885034497556
340000000.0 -0.0927965847919607 -0.04277565987567017 -2.965623979937851 5.2154705543042414 0.0 0.0 4.932405247666984 -2.5688884636034013
345000000.0 -0.09409435062928115 -0.045066690896653286 -2.8134244017333434 5.374428842573184 0.0 0.0 4.704446166284565 -3.0530551902310004
350000000.0 -0.09615719631741645 -0.046524100548782844 -2.4795293766272093 5.430293351818136 0.0 0.0 4.318170692724535 -3.5338178131943483
355000000.0 -0.09863443524682819 -0.049881951283168066 -1.9045920978514348 5.199884597806059 0.0 0.0 3.337352511223863 -3.9986733454613708
360000000.0 -0.09635918909094851 -0.06383238047278944 -1.8864142240722848 4.701191724265264 0.0 0.0 2.6659556056406783 -4.109245802957202
365000000.0 -0.09025718648672895 -0.08939153221407152 -2.4348508548451595 4.304076493083496 0.0 0.0 2.906493950665533 -3.9932080686229523
370000000.0 -0.09231143912317209 -0.10186256122133257 -2.811238134284011 4.830923691965497 0.0 0.0 3.2978829918124206 -3.873892769049097
375000000.0 -0.09496859291862515 -0.0997950857068011 -3.128436863118572 5.4026374256738405 0.0 0.0 3.3076729176126594 -3.7365005462780223
380000000.0 -0.08100288192677539 -0.09289643239678752 -3.321312557599682 5.389302423353642 0.0 0.0 3.2150657777417067 -3.4201872840675493
385000000.0 -0.06018546037488939 -0.07603827604221132 -3.047879096617268 4.9166504449671615 0.0 0.0 2.8011273771174365 -3.223340124896698
390000000.0 -0.048197542135523894 -0.06303564101845018 -2.8262443926778067 4.6178682115198155 0.0 0.0 2.627832906555565 -3.2184239247935373
395000000.0 -0.04339503704780516 -0.05829724214634938 -2.591046963892652 4.819564910688593 0.0 0.0 2.5836429532199423 -3.4349654033997523
400000000.0 -0.04045109458187558 -0.05218579854903542 -2.224227736705129 4.979707223586043 0.0 0.0 2.3229311710598033 -3.534870719762663
405000000.0 -0.03787895081973022 -0.047407338508444134 -1.88758250592664 5.060763468795129 0.0 0.0 1.934665758696616 -3.69565894089613
410000000.0 -0.03099618836033218 -0.04642313016023661 -1.6189226836567967 5.015408404256812 0.0 0.0 1.6277956089584737 -3.784176507119361
415000000.0 -0.027955155930083287 -0.04559810878283082 -1.3415783703721973 4.995630055310889 0.0 0.0 1.3927988169841508 -3.7730525284113186
420000000.0 -0.0265832637504005 -0.04606429724105805 -1.1123848527085223 4.954289873765436 0.0 0.0 1.1587421058390381 -3.7190027387715134
425000000.0 -0.024863004252987576 -0.04692621947365952 -0.9574725835982796 4.861627720853144 0.0 0.0 0.9215711802635081 -3.6138146959790918
430000000.0 -0.021815741511410715 -0.047878675092421746 -0.8077552641892528 4.740210568465756 0.0 0.0 0.721432263853079 -3.5301415758244987
435000000.0 -0.019533796736999468 -0.04910281914959224 -0.5857828210516095 4.627536598182609 0.0 0.0 0.5594239186066788 -3.474447853945354
440000000.0 -0.019389270276477927 -0.04947450105429196 -0.3335830374133269 4.516523276171278 0.0 0.0 0.3950673691753593 -3.3740895162022344
445000000.0 -0.021924574528750025 -0.04883658316360589 -0.012751933406750812 4.324825688035282 0.0 0.0 0.1285482044028117 -3.235615226348274
450000000.0 -0.029166285079685095 -0.04543396068263851 0.30288638266343354 4.048398306376763 0.0 0.0 -0.18178587362721524 -3.0196050152241667
455000000.0 -0.03990379055541095 -0.037726210997429774 0.5017847120285625 3.743291210606724 0.0 0.0 -0.4315996003305412 -2.745051731485366
460000000.0 -0.047174263201020285 -0.029693415163174326 0.5069090968722936 3.503289278776537 0.0 0.0 -0.599897105331049 -2.4937212463822394
465000000.0 -0.04492335820874825 -0.03141959292037587 0.22909293402643666 3.367657673680278 0.0 0.0 -0.658925548410633 -2.2816018957277304
470000000.0 -0.04352849396630802 -0.03761435793821946 0.252586133067427 3.157681513268607 0.0 0.0 -0.8577158810673687 -2.197856628052083
475000000.0 -0.04339568989463678 -0.04531881768055076 0.40332905173973677 2.9693419613561374 0.0 0.0 -1.0588120866944737 -2.2667914016900244
480000000.0 -0.04123293759298659 -0.05211938042355117 0.45617758634260985 2.7630447948220205 0.0 0.0 -1.2833403421825946 -2.3626089624270175
485000000.0 -0.03480052866041798 -0.059028661260345526 0.302370308632864 2.6119251142587507 0.0 0.0 -1.4224977583630882 -2.4122731422971473
490000000.0 -0.026496411133330105 -0.06863010201336532 0.04917930398299903 2.57935270300912 0.0 0.0 -1.373904950409144 -2.5457267740099527
495000000.0 -0.02133043417286171 -0.08036017197177509 -0.19822913422879695 2.489454741182131 0.0 0.0 -1.390228977655407 -2.542366872701077
500000000.0 -0.02844668973639757 -0.09566446449269879 -0.44012544866213943 2.368583736262632 0.0 0.0 -1.5099670936713436 -2.599556750208713
505000000.0 -0.04831743579222816 -0.11385805915375108 -0.7057282164918534 2.374781926426991 0.0 0.0 -1.77360702949244 -2.6796440327244553
510000000.0 -0.07426364760397264 -0.12833913185110926 -0.6504159625699281 2.4209703513571634 0.0 0.0 -2.030345695843919 -2.726136707735733
515000000.0 -0.10921238928571492 -0.1360309091451102 -0.8401638123947084 2.1943854833216383 0.0 0.0 -2.3882410200302417 -2.61592489993113
520000000.0 -0.1518381081950667 -0.12525946877946603 -1.1262324291843298 1.9097573891568818 0.0 0.0 -2.7333781912170614 -2.2774435314131303
525000000.0 -0.19695907883781363 -0.09673392789372053 -1.4823340243918295 1.7978538720411255 0.0 0.0 -3.0084924901160357 -1.6924174884723087
530000000.0 -0.2136437945716661 -0.05917825306282026 -1.45358676395279 1.9281821625214022 0.0 0.0 -3.228329014437003 -1.4497466781845214
535000000.0 -0.2337673692132593 -0.033355300184993456 -1.4405833650093431 1.6198256142245924 0.0 0.0 -3.511962628277313 -0.9228351433557499
540000000.0 -0.1914346395900636 0.010452998188134182 -1.3079307003802658 1.6029305634383892 0.0 0.0 -3.388616683383063 -1.2268996328936113
545000000.0 -0.11983108217187251 -0.008286454262859217 -0.8748205413721902 1.8813349176801089 0.0 0.0 -3.741254496653672 -1.7132497610763262
550000000.0 -0.05935389437561319 -0.06002763885583748 -0.10269977610066144 2.6441996050065764 0.0 0.0 -4.115766790285614 -2.4388150221195692
555000000.0 -0.031693820778850315 -0.045607817789828926 -0.5146464182697197 2.964229274406355 0.0 0.0 -2.8309499718486877 -2.4614378224435236
560000000.0 -0.06823267785866569 -0.03196892565744031 -1.0345561631260456 2.9666510716740797 0.0 0.0 -2.6062825326999373 -1.7357240948876445
565000000.0 -0.15027886764418905 -0.015162907121346866 -0.8205798571091534 3.1957752088507565 0.0 0.0 -2.8982478330985417 -0.8107399439622378
570000000.0 -0.20801631619448127 0.03606145867133971 -0.8005536297149904 3.1304231361210744 0.0 0.0 -3.082811267407554 -0.47973029571236314
575000000.0 -0.22898022569984713 0.06931139676878245 -0.6636706778139346 3.2889840013602023 0.0 0.0 -3.0399522446844456 -0.28789770815783633
580000000.0 -0.21670581386630203 0.08746383232502514 -0.4913594418581382 3.253076796092044 0.0 0.0 -2.9907350108496185 -0.21528154093216054
585000000.0 -0.1657110040280934 0.10089947985339756 -0.4929661957400407 3.6026325955587875 0.0 0.0 -3.0708701894306776 -0.3073930078035742
590000000.0 -0.13319709258497942 0.11070422162317564 -0.23917192940788093 3.7584128202652765 0.0 0.0 -3.0800238350944045 -0.25924606296055563
595000000.0 -0.03280422834505906 -0.09437556625754567 -0.3037725772498729 4.0857083230725975 0.0 0.0 -5.762439740036326 -0.5329391885242023
600000000.0 -0.06489295611763703 -0.09445314422335722 0.3480130063470048 4.2503502172006415 0.0 0.0 -4.043110042091942 0.8354251956296447
605000000.0 -0.0823751471503346 -0.06773553648891213 0.6743488553131082 3.6587528607582716 0.0 0.0 -3.09211431658566 0.7536983967064799
610000000.0 -0.08302820646448575 -0.03182490235558987 0.9264448017164408 3.5673377801902837 0.0 0.0 -3.0072147831770706 0.7119147566393312
615000000.0 -0.07113711571293162 -0.004910989843817321 1.2446594589045865 3.417519493399251 0.0 0.0 -3.0025853243793765 0.7125290200449366
620000000.0 -0.05122844113989785 0.006383979873345146 1.39189195720605 3.3225437352195075 0.0 0.0 -3.115004355951408 0.8120056987462941
625000000.0 -0.022851478793679252 0.010235956730443592 1.3524090784860932 3.541256276902453 0.0 0.0 -3.319161215043161 0.9622246380722855
630000000.0 -0.0009418044564094134 0.016783135974965575 1.2657478754508376 3.826517729217062 0.0 0.0 -3.4770396967597264 1.1052822056053473
635000000.0 0.0034461559553699977 0.019004917819975018 1.291355824626589 3.9467637039195433 0.0 0.0 -3.426945852432976 1.2630518580357104
640000000.0 0.004169769615268883 0.020343524763586668 1.3580381680413325 4.01017700639762 0.0 0.0 -3.3000400117249495 1.4170174739500736
645000000.0 0.004400168580503409 0.021434169209570694 1.4149899266950805 4.055309589990504 0.0 0.0 -3.163750964330642 1.5728543882774575
650000000.0 0.0037764199099124735 0.021833549015250128 1.4838602794782934 4.126371842557208 0.0 0.0 -3.0291371701628145 1.7337817740369101
655000000.0 0.0032173718644431006 0.02185491500683276 1.5371594852919974 4.212370506008225 0.0 0.0 -2.89568135961319 1.8837644371415214
660000000.0 0.0021396210204981335 0.0212172066953054 1.5565389589820355 4.287780994600833 0.0 0.0 -2.7465474919976636 1.987185277284602
665000000.0 0.001994404868675088 0.01994015575712343 1.6211512024978443 4.389808175567128 0.0 0.0 -2.6201337513691256 2.115696701429189
670000000.0 0.0007432055852033539 0.017187937600053473 1.7397217563971967 4.442869226835436 0.0 0.0 -2.463578172203087 2.2241996640300323
675000000.0 -0.0006230429456026066 0.015361202049225866 1.8558260862198448 4.49855312856277 0.0 0.0 -2.320201166019926 2.320133571494732
680000000.0 -0.002190669973829559 0.015259428640740232 1.8875635842003644 4.602986123720357 0.0 0.0 -2.2079780671683884 2.40850273567035
685000000.0 -0.0026585658084550884 0.016791940640590128 1.7774981151030784 4.772225535337305 0.0 0.0 -2.1298970345583146 2.4758568143384694
690000000.0 -0.0021668500205255193 0.018903464086136513 1.4327396943302908 5.013834169006602 0.0 0.0 -2.1631027054916454 2.5051223407846694
695000000.0 -0.0024481020621857762 0.020581412413412433 1.0743685979121178 5.182542044559549 0.0 0.0 -2.1854699603520635 2.509022866588513
700000000.0 -0.0030545930856659513 0.0214701756262838 0.9575987186503422 5.26741845508364 0.0 0.0 -2.1152285843858594 2.5665599536672996
705000000.0 -0.0037466202053940854 0.022347981629862883 0.9862763829571772 5.328902089740714 0.0 0.0 -1.9912517767626123 2.672042443743215
710000000.0 -0.0039867454952454435 0.023589072509150086 1.1098630442065949 5.3841473750053614 0.0 0.0 -1.8259015044767395 2.7812842287309936
715000000.0 -0.006124575199255409 0.023862806526927 1.2916964319961637 5.389894898883063 0.0 0.0 -1.6020744942264942 2.8880132416516604
720000000.0 -0.00925976928499627 0.02569094930137653 1.436087661897891 5.3773777840077015 0.0 0.0 -1.3687072382179406 2.9413991351737945
725000000.0 -0.010170441156999803 0.02751365706632546 1.5555558880534026 5.394495654590146 0.0 0.0 -1.131506656553509 2.990274743669019
730000000.0 -0.010116075300993368 0.02867871947288889 1.6247952832711468 5.408903338154532 0.0 0.0 -0.9151613229557234 3.0194138444846663
735000000.0 -0.011915431140174976 0.029182655772739922 1.6512934339277472 5.387659123419862 0.0 0.0 -0.7395510475782011 3.011935799010693
