!Created with skrf (http://scikit-rf.org).
# Hz S RI R 50.0 
!freq ReS11 ImS11
25000000.0 -0.7280760628496211 0.6815138806059916
30000000.0 -0.6419406430071106 0.5808900317565752
35000000.0 -0.5665428941161474 0.6680030361114869
40000000.0 -0.4865065983833998 0.7133434318302273
45000000.0 -0.4010739242870771 0.5711118054692487
50000000.0 -0.3805932057982466 0.5422237962892752
55000000.0 -0.2860695488778607 0.5201781797414126
60000000.0 -0.1827077991508072 0.49767366968516974
65000000.0 -0.09101114151125904 0.45800480190555565
70000000.0 -0.02579930831050526 0.4579364763685927
75000000.0 0.03981940410326766 0.39329673391516506
80000000.0 0.001056647458145779 0.432233946400887
85000000.0 0.007492126585542935 0.3796062717568616
90000000.0 0.028253068746177695 0.3291403429489616
95000000.0 0.0543845938639408 0.32089777704128064
100000000.0 -0.029615363714553047 0.3586961664103301
105000000.0 0.02610992589022458 0.38982529454098513
110000000.0 0.054928088108194384 0.32533346869304813
115000000.0 0.062332871271194745 0.3109634419979412
120000000.0 0.057942585321016746 0.270457892560501
125000000.0 0.01341287197100463 0.26897778775493214
130000000.0 0.09223497456664317 0.23897640227930755
135000000.0 0.14556720142795002 0.251523646329222
140000000.0 0.1352048886055584 0.2243552280849576
145000000.0 0.1305473985194526 0.21521695033338997
150000000.0 0.11769359608069499 0.21301012017944804
155000000.0 0.11164264369731156 0.20110721287984062
160000000.0 0.12233220511102662 0.17900465094048326
165000000.0 0.13529238347054134 0.17708938649180864
170000000.0 0.16148821459816057 0.21363170103246357
175000000.0 0.18678062718929014 0.1601197706859383
180000000.0 0.1316899595749172 0.1825950777097773
185000000.0 0.16624353747850878 0.13178311585614694
190000000.0 0.10300551088303464 0.061336478425607965
195000000.0 0.026246697662314813 0.04307378443572664
200000000.0 0.07286259951716877 0.053351944426852725
205000000.0 0.06617639632633075 0.08687976613796602
210000000.0 0.060517383641455896 0.09324728928092232
215000000.0 0.05742687748261166 0.09472225836882195
220000000.0 0.06387311176169105 0.08491489697675496
225000000.0 0.09230807870228518 0.11445744673488313
230000000.0 0.07107811388454958 0.10749225883135502
235000000.0 0.06243449418825052 0.10485582764847601
240000000.0 0.05393315876474551 0.10405831974915049
245000000.0 0.04531732112328514 0.10564110922553806
250000000.0 0.039847402763056636 0.10476843026839622
255000000.0 0.03313205564907856 0.10336211231006243
260000000.0 0.027529070679577564 0.10084836482759252
265000000.0 0.025562705870173605 0.09612014339815925
270000000.0 0.024697794377522217 0.09281321815957101
275000000.0 0.024560464003348326 0.09834249154644117
280000000.0 0.02526845974083944 0.10802540838207798
285000000.0 0.028342845919489018 0.10451340391938077
290000000.0 0.026331235184975654 0.10436922516346965
295000000.0 0.02288041171785675 0.1079013220254782
300000000.0 0.020158304111968228 0.10855517452449245
305000000.0 0.016678524996032118 0.10830453398656216
310000000.0 0.014940922290937408 0.10632607897212429
315000000.0 0.013464495842406984 0.10362698018212796
320000000.0 0.009728866136201983 0.10016451052097067
325000000.0 0.006664867353326193 0.09813896067304799
330000000.0 0.003978793723640683 0.09520310578627271
335000000.0 0.0010296927156867725 0.09106343238547082
340000000.0 -0.0020363761969134087 0.08638846590584795
345000000.0 -0.004267108042652262 0.08442682203834458
350000000.0 -0.0035970765047532854 0.08384266962415633
355000000.0 -0.00015920922438651675 0.08137750576831021
360000000.0 0.006313158231411417 0.0699408820122641
365000000.0 0.02497497414614956 0.04580782458199795
370000000.0 0.048978239570247856 0.028064012417768097
375000000.0 0.070995054933393 0.0182959005800995
380000000.0 0.09277509240346987 0.0075617142519111
385000000.0 0.10205656604571404 0.002889066343250396
390000000.0 0.09840902216907355 0.001629761859544332
395000000.0 0.08878871676146809 0.00019639060926138208
400000000.0 0.07604902827155324 0.003153198962663091
405000000.0 0.0677242401046079 0.0066251995750878645
410000000.0 0.06899922175076909 0.004705560916597143
415000000.0 0.06741972742430571 0.0030600632010705786
420000000.0 0.06264239721626143 0.0011753865548792056
425000000.0 0.05598859739584261 -0.0010803678780778106
430000000.0 0.05285300981914419 -0.00205170735823116
435000000.0 0.04993463204589628 -0.004618590313581174
440000000.0 0.044058453517081916 -0.005725147195006927
445000000.0 0.03488080191141703 -0.005217188430110521
450000000.0 0.02361818838919888 -0.0031689894164732765
455000000.0 0.011354392244976613 0.0019086056308939628
460000000.0 0.004175307499475166 0.006116319722771532
465000000.0 0.007823716836303 0.007657603507287301
470000000.0 0.006258330896885295 0.007524453317371289
475000000.0 0.006859960281308607 0.007492475887011692
480000000.0 0.010807126900480857 0.009117600036713046
485000000.0 0.017176956173454404 0.012138974371839292
490000000.0 0.020399618070416934 0.016889768746358946
495000000.0 0.015383849288319266 0.022363934753823853
500000000.0 2.8370219799143948e-05 0.02938257003552014
505000000.0 -0.011625546716696654 0.039036703732515055
510000000.0 -0.016084673978065886 0.05029284536862033
515000000.0 -0.024060608007614365 0.06399676318338071
520000000.0 -0.03113861933174035 0.0843115364494082
525000000.0 -0.02863319061655925 0.10381550360387685
530000000.0 -0.006930435870510537 0.09808845744544024
535000000.0 0.0025347343665039768 0.09207973105653733
540000000.0 0.027982229747955945 0.09863606834928033
545000000.0 0.06934459007577322 0.0689607207156244
550000000.0 0.0714237648370374 0.042849112058439096
555000000.0 0.046882356841703464 0.0838541861365209
560000000.0 0.02904487652173854 0.12364261568726251
565000000.0 0.0715000370479214 0.13694688239868208
570000000.0 0.11183531077175746 0.11754867766551942
575000000.0 0.11719200571524038 0.0918928886239486
580000000.0 0.10668427972923686 0.08450295425429337
585000000.0 0.13047706121666944 0.09881650394431102
590000000.0 0.11566870788458361 0.09575141420674468
595000000.0 0.05441059142752924 0.1073738576805309
600000000.0 0.05883735481560469 0.10246799093516076
605000000.0 0.0490868342812375 0.08232468610172756
610000000.0 0.05791897277983399 0.08328977670913587
615000000.0 0.06913722388076479 0.07780030217522241
620000000.0 0.07679014267846272 0.06705299224817395
625000000.0 0.08648111118877128 0.05981443365567507
630000000.0 0.09268161581969528 0.060705610547776234
635000000.0 0.08777065064175658 0.057757926162839285
640000000.0 0.0828618746020012 0.05423394418831147
645000000.0 0.07764070451697934 0.05090414447876662
650000000.0 0.07229171511747608 0.0469711531617423
655000000.0 0.06709573297872018 0.043021722663718544
660000000.0 0.06140386218772442 0.03958326898971276
665000000.0 0.057636209466406824 0.03635634470806928
670000000.0 0.0501951516680438 0.0330089699314908
675000000.0 0.042438230030837354 0.03151577770885636
680000000.0 0.03580483564123954 0.03104450297831094
685000000.0 0.030409856205291554 0.03188796610925525
690000000.0 0.026447782035377176 0.033819689273898716
695000000.0 0.022703724933456505 0.035855346370535536
700000000.0 0.019767629879528577 0.03742551840840429
705000000.0 0.017260516066250838 0.03922557756989082
710000000.0 0.015463271365869176 0.04152509913807292
715000000.0 0.011996959307016553 0.04314583552046204
720000000.0 0.00790285148544709 0.04661799298528295
725000000.0 0.0065120284783605435 0.050734151197124974
730000000.0 0.006638949724978294 0.05468948466959887
735000000.0 0.0057312458549837325 0.05913038188438563
740000000.0 0.0049727465794588924 0.0635617751484019
745000000.0 0.00495778416921382 0.06863075571316454
750000000.0 0.007289916925873469 0.07516508270374686
755000000.0 0.009045206929086416 0.07995795830989438
760000000.0 0.011440715614939603 0.08303520440945082
765000000.0 0.015658839299375414 0.08588237826330578
770000000.0 0.02107437255871465 0.08858909395159992
775000000.0 0.026189888582175715 0.09013468805869371
780000000.0 0.033586099177201796 0.09220008247969592
785000000.0 0.040902235661695326 0.09544730589504405
790000000.0 0.052794601132916646 0.1016329723673594
795000000.0 0.0672263154680067 0.11048762820047339
800000000.0 0.08398928124756921 0.11834530765052056
805000000.0 0.09843864584962336 0.12416366703772012
810000000.0 0.10449955532404617 0.12697686350852982
815000000.0 0.11336318755980622 0.1275847749325339
820000000.0 0.1295433625916273 0.12881168490641823
825000000.0 0.1343813371858787 0.11238838372245027
830000000.0 0.13678035117742732 0.0925608526956346
835000000.0 0.14065971709128972 0.07380206818212227
840000000.0 0.14441566888820967 0.0611832698484722
845000000.0 0.14807125025838197 0.05464450226835548
850000000.0 0.15091765328460133 0.050784457084650465
855000000.0 0.15436711461049674 0.043761137082710906
860000000.0 0.1556295468855745 0.031030467577416163
865000000.0 0.15482560424289532 0.016224028600524354
870000000.0 0.1517898175454191 0.003056438295211135
875000000.0 0.14896684715749353 -0.006690846444886933
880000000.0 0.14650368365316851 -0.012337193748800566
885000000.0 0.14457573369553728 -0.014028323093610157
890000000.0 0.14358225847265957 -0.017341776106031978
895000000.0 0.14277458337921756 -0.02127698543717746
900000000.0 0.14128904217744212 -0.024830642156877802
905000000.0 0.13967746582112422 -0.0264317236584651
910000000.0 0.13858461962716906 -0.026191963598219042
915000000.0 0.13768022339395397 -0.024415218774722275
920000000.0 0.13576316920474774 -0.02262080751359314
925000000.0 0.13358735837900632 -0.01926051873233131
930000000.0 0.13171572503641762 -0.01598400107531753
935000000.0 0.12982704333790362 -0.013304886516083607
940000000.0 0.1272007266789134 -0.011302063757322773
945000000.0 0.1246231154158137 -0.010074409769856206
950000000.0 0.12305984315156819 -0.007783444821951251
955000000.0 0.12194480418764883 -0.005776859074620985
960000000.0 0.12166039890833288 -0.0042986010318736695
965000000.0 0.12212926228434079 -0.0037507968135740595
970000000.0 0.12256144724706412 -0.003882278548217796
975000000.0 0.12409374337819577 -0.004374328861473887
980000000.0 0.12630908417685613 -0.0039954085517195075
985000000.0 0.12889762704188845 -0.003660921895098552
990000000.0 0.13307239130400103 -0.002791742284568785
995000000.0 0.13732638153893745 -0.0024393321534265412
1000000000.0 0.1428640220243914 -0.001547151646610373
1005000000.0 0.1485105767617041 -0.0005187034887235709
1010000000.0 0.15569226569785574 0.0021090643228994094
1015000000.0 0.16071267286252883 0.004014634327523331
1020000000.0 0.16694463622539657 0.00643783721939712
1025000000.0 0.17309467918833005 0.008577585374690895
1030000000.0 0.17881691732230048 0.01039138541253335
1035000000.0 0.17436421135910385 0.09196970535597543
1040000000.0 0.1787393058624942 0.09683208371297605
1045000000.0 0.18295430432423415 0.10360708362447948
1050000000.0 0.18665481639895284 0.11268820531246379
1055000000.0 0.18812199248509823 0.12377107141605731
1060000000.0 0.18857254036512078 0.13764879527508703
1065000000.0 0.1876808019680045 0.15402372802584602
1070000000.0 0.1843127290016213 0.17230474845948318
1075000000.0 0.17881581290859336 0.19265859625687906
1080000000.0 0.17071244460100382 0.21496484805287389
1085000000.0 0.15944630505228924 0.2385662242977376
1090000000.0 0.14471202214663598 0.26243414683798794
1095000000.0 0.12813680711263567 0.2861068336632027
1100000000.0 0.11424112242071341 0.3027223038494433
1105000000.0 0.0990544995576598 0.3176576433357367
1110000000.0 0.08265632372301912 0.3308427908626558
1115000000.0 0.06379001996774258 0.34283513818277744
1120000000.0 0.0469306871452668 0.3547921609792826
1125000000.0 0.028052812760352347 0.36391606454693476
1130000000.0 0.008119069049430022 0.37078033465047133
1135000000.0 -0.011757987890783556 0.37591802250520007
1140000000.0 -0.031028119439923424 0.3796321461435028
1145000000.0 -0.05015185607541078 0.3806648814212524
1150000000.0 -0.06846026398403296 0.3803463331049552
1155000000.0 -0.08615713809711467 0.37982448621807574
1160000000.0 -0.10250232193407077 0.3779585265798583
1165000000.0 -0.11873815022155702 0.37469812166372163
1170000000.0 -0.13329721350872722 0.3703173189645841
1175000000.0 -0.1482544366498501 0.3660623022437072
1180000000.0 -0.1609969457753735 0.36080892062936576
1185000000.0 -0.17340770794135224 0.35458892088668476
1190000000.0 -0.18464815266851092 0.34907512609146374
1195000000.0 -0.19480453691116173 0.3442916453383019
1200000000.0 -0.2033110659732511 0.33854241334220825
1205000000.0 -0.21202645200928186 0.3329262500663493
1210000000.0 -0.22036008281925487 0.327269370248095
1215000000.0 -0.22652656038322735 0.3219133027216514
1220000000.0 -0.23444166501894764 0.3181173144697323
1225000000.0 -0.24177835343569176 0.3157970811061397
1230000000.0 -0.25038610371977077 0.31384720752217543
1235000000.0 -0.2602997548918245 0.31231438340071094
1240000000.0 -0.272098714773436 0.31179520464909344
